* c:\users\mamat\esim-workspace\bjt_cb_config_ztx1048a\bjt_cb_config_ztx1048a.cir
DC transfer characteristic  Tue Jun 24 19:51:49  2025
--------------------------------------------------------------------------------
Index   v-sweep         ie              net-_q1-pad1_   net-_q1-pad3_   
--------------------------------------------------------------------------------
0	-1.00000e+00	5.075815e+08	-2.59262e-01	5.075815e+08	
1	-9.80000e-01	5.230100e+08	-2.58569e-01	5.230100e+08	
2	-9.60000e-01	5.384105e+08	-2.57842e-01	5.384105e+08	
3	-9.40000e-01	5.538029e+08	-2.57104e-01	5.538029e+08	
4	-9.20000e-01	5.691794e+08	-2.56346e-01	5.691794e+08	
5	-9.00000e-01	5.845393e+08	-2.55568e-01	5.845393e+08	
6	-8.80000e-01	5.998815e+08	-2.54767e-01	5.998815e+08	
7	-8.60000e-01	6.152050e+08	-2.53943e-01	6.152050e+08	
8	-8.40000e-01	6.305087e+08	-2.53094e-01	6.305087e+08	
9	-8.20000e-01	6.457914e+08	-2.52219e-01	6.457914e+08	
10	-8.00000e-01	6.610517e+08	-2.51316e-01	6.610517e+08	
11	-7.80000e-01	6.762881e+08	-2.50383e-01	6.762881e+08	
12	-7.60000e-01	6.914991e+08	-2.49418e-01	6.914991e+08	
13	-7.40000e-01	7.066827e+08	-2.48419e-01	7.066827e+08	
14	-7.20000e-01	7.218371e+08	-2.47384e-01	7.218371e+08	
15	-7.00000e-01	7.369600e+08	-2.46309e-01	7.369600e+08	
16	-6.80000e-01	7.520490e+08	-2.45191e-01	7.520490e+08	
17	-6.60000e-01	7.671012e+08	-2.44028e-01	7.671012e+08	
18	-6.40000e-01	7.821137e+08	-2.42814e-01	7.821137e+08	
19	-6.20000e-01	7.970829e+08	-2.41547e-01	7.970829e+08	
20	-6.00000e-01	8.120048e+08	-2.40220e-01	8.120048e+08	
21	-5.80000e-01	8.268750e+08	-2.38829e-01	8.268750e+08	
22	-5.60000e-01	8.416882e+08	-2.37367e-01	8.416882e+08	
23	-5.40000e-01	8.564384e+08	-2.35825e-01	8.564384e+08	
24	-5.20000e-01	8.711189e+08	-2.34196e-01	8.711189e+08	
25	-5.00000e-01	8.857213e+08	-2.32470e-01	8.857213e+08	
26	-4.80000e-01	9.002363e+08	-2.30634e-01	9.002363e+08	
27	-4.60000e-01	9.146525e+08	-2.28675e-01	9.146525e+08	
28	-4.40000e-01	9.289564e+08	-2.26575e-01	9.289564e+08	
29	-4.20000e-01	9.431315e+08	-2.24314e-01	9.431315e+08	
30	-4.00000e-01	9.571579e+08	-2.21866e-01	9.571579e+08	
31	-3.80000e-01	9.710108e+08	-2.19202e-01	9.710108e+08	
32	-3.60000e-01	9.846592e+08	-2.16282e-01	9.846592e+08	
33	-3.40000e-01	9.980637e+08	-2.13056e-01	9.980637e+08	
34	-3.20000e-01	1.011174e+09	-2.09463e-01	1.011174e+09	
35	-3.00000e-01	1.023923e+09	-2.05417e-01	1.023923e+09	
36	-2.80000e-01	1.036224e+09	-2.00811e-01	1.036224e+09	
37	-2.60000e-01	1.047959e+09	-1.95496e-01	1.047959e+09	
38	-2.40000e-01	1.058970e+09	-1.89275e-01	1.058970e+09	
39	-2.20000e-01	1.069045e+09	-1.81884e-01	1.069045e+09	
40	-2.00000e-01	1.077918e+09	-1.72987e-01	1.077918e+09	
41	-1.80000e-01	1.085264e+09	-1.62179e-01	1.085264e+09	
42	-1.60000e-01	1.090880e+09	-1.49208e-01	1.090880e+09	
43	-1.40000e-01	1.094715e+09	-1.34007e-01	1.094715e+09	
44	-1.20000e-01	1.097035e+09	-1.16910e-01	1.097035e+09	
45	-1.00000e-01	1.098296e+09	-9.84884e-02	1.098296e+09	
46	-8.00000e-02	1.098933e+09	-7.92855e-02	1.098933e+09	
47	-6.00000e-02	1.099240e+09	-5.96699e-02	1.099240e+09	
48	-4.00000e-02	1.099385e+09	-3.98514e-02	1.099385e+09	
49	-2.00000e-02	1.099453e+09	-1.99360e-02	1.099453e+09	
50	7.910339e-16	1.099484e+09	2.480996e-05	1.099484e+09	
51	2.000000e-02	1.099499e+09	2.000666e-02	1.099499e+09	
52	4.000000e-02	1.099506e+09	3.999828e-02	1.099506e+09	
53	6.000000e-02	1.099509e+09	5.999441e-02	1.099509e+09	
54	8.000000e-02	1.099510e+09	7.999262e-02	1.099510e+09	

Index   v-sweep         ie              net-_q1-pad1_   net-_q1-pad3_   
--------------------------------------------------------------------------------
55	1.000000e-01	1.099511e+09	9.999187e-02	1.099511e+09	
56	1.200000e-01	1.099511e+09	1.199915e-01	1.099511e+09	
57	1.400000e-01	1.099511e+09	1.399914e-01	1.099511e+09	
58	1.600000e-01	1.099511e+09	1.599913e-01	1.099511e+09	
59	1.800000e-01	1.099511e+09	1.799912e-01	1.099511e+09	
60	2.000000e-01	1.099511e+09	1.999912e-01	1.099511e+09	
61	2.200000e-01	1.099511e+09	2.199912e-01	1.099511e+09	
62	2.400000e-01	1.099511e+09	2.399911e-01	1.099511e+09	
63	2.600000e-01	1.099511e+09	2.599911e-01	1.099511e+09	
64	2.800000e-01	1.099511e+09	2.799911e-01	1.099511e+09	
65	3.000000e-01	1.099511e+09	2.999911e-01	1.099511e+09	
66	3.200000e-01	1.099511e+09	3.199911e-01	1.099511e+09	
67	3.400000e-01	1.099511e+09	3.399911e-01	1.099511e+09	
68	3.600000e-01	1.099511e+09	3.599911e-01	1.099511e+09	
69	3.800000e-01	1.099511e+09	3.799911e-01	1.099511e+09	
70	4.000000e-01	1.099511e+09	3.999911e-01	1.099511e+09	
71	4.200000e-01	1.099511e+09	4.199911e-01	1.099511e+09	
72	4.400000e-01	1.099511e+09	4.399911e-01	1.099511e+09	
73	4.600000e-01	1.099511e+09	4.599911e-01	1.099511e+09	
74	4.800000e-01	1.099511e+09	4.799911e-01	1.099511e+09	
75	5.000000e-01	1.099511e+09	4.999911e-01	1.099511e+09	
76	5.200000e-01	1.099511e+09	5.199911e-01	1.099511e+09	
77	5.400000e-01	1.099511e+09	5.399911e-01	1.099511e+09	
78	5.600000e-01	1.099511e+09	5.599911e-01	1.099511e+09	
79	5.800000e-01	1.099511e+09	5.799911e-01	1.099511e+09	
80	6.000000e-01	1.099511e+09	5.999911e-01	1.099511e+09	
81	6.200000e-01	1.099511e+09	6.199911e-01	1.099511e+09	
82	6.400000e-01	1.099511e+09	6.399911e-01	1.099511e+09	
83	6.600000e-01	1.099511e+09	6.599911e-01	1.099511e+09	
84	6.800000e-01	1.099511e+09	6.799911e-01	1.099511e+09	
85	7.000000e-01	1.099511e+09	6.999911e-01	1.099511e+09	
86	7.200000e-01	1.099511e+09	7.199911e-01	1.099511e+09	
87	7.400000e-01	1.099511e+09	7.399911e-01	1.099511e+09	
88	7.600000e-01	1.099511e+09	7.599911e-01	1.099511e+09	
89	7.800000e-01	1.099511e+09	7.799911e-01	1.099511e+09	
90	8.000000e-01	1.099511e+09	7.999911e-01	1.099511e+09	
91	8.200000e-01	1.099511e+09	8.199911e-01	1.099511e+09	
92	8.400000e-01	1.099511e+09	8.399911e-01	1.099511e+09	
93	8.600000e-01	1.099511e+09	8.599911e-01	1.099511e+09	
94	8.800000e-01	1.099511e+09	8.799911e-01	1.099511e+09	
95	9.000000e-01	1.099511e+09	8.999911e-01	1.099511e+09	
96	9.200000e-01	1.099511e+09	9.199911e-01	1.099511e+09	
97	9.400000e-01	1.099511e+09	9.399911e-01	1.099511e+09	
98	9.600000e-01	1.099511e+09	9.599911e-01	1.099511e+09	
99	9.800000e-01	1.099511e+09	9.799911e-01	1.099511e+09	
100	1.000000e+00	1.099511e+09	9.999911e-01	1.099511e+09	
101	1.020000e+00	1.099511e+09	1.019991e+00	1.099511e+09	
102	1.040000e+00	1.099511e+09	1.039991e+00	1.099511e+09	
103	1.060000e+00	1.099511e+09	1.059991e+00	1.099511e+09	
104	1.080000e+00	1.099511e+09	1.079991e+00	1.099511e+09	
105	1.100000e+00	1.099511e+09	1.099991e+00	1.099511e+09	
106	1.120000e+00	1.099511e+09	1.119991e+00	1.099511e+09	
107	1.140000e+00	1.099511e+09	1.139991e+00	1.099511e+09	
108	1.160000e+00	1.099511e+09	1.159991e+00	1.099511e+09	
109	1.180000e+00	1.099511e+09	1.179991e+00	1.099511e+09	
110	1.200000e+00	1.099511e+09	1.199991e+00	1.099511e+09	
111	1.220000e+00	1.099511e+09	1.219991e+00	1.099511e+09	
112	1.240000e+00	1.099511e+09	1.239991e+00	1.099511e+09	

Index   v-sweep         ie              net-_q1-pad1_   net-_q1-pad3_   
--------------------------------------------------------------------------------
113	1.260000e+00	1.099511e+09	1.259991e+00	1.099511e+09	
114	1.280000e+00	1.099511e+09	1.279991e+00	1.099511e+09	
115	1.300000e+00	1.099511e+09	1.299991e+00	1.099511e+09	
116	1.320000e+00	1.099511e+09	1.319991e+00	1.099511e+09	
117	1.340000e+00	1.099511e+09	1.339991e+00	1.099511e+09	
118	1.360000e+00	1.099511e+09	1.359991e+00	1.099511e+09	
119	1.380000e+00	1.099511e+09	1.379991e+00	1.099511e+09	
120	1.400000e+00	1.099511e+09	1.399991e+00	1.099511e+09	
121	1.420000e+00	1.099511e+09	1.419991e+00	1.099511e+09	
122	1.440000e+00	1.099511e+09	1.439991e+00	1.099511e+09	
123	1.460000e+00	1.099511e+09	1.459991e+00	1.099511e+09	
124	1.480000e+00	1.099511e+09	1.479991e+00	1.099511e+09	
125	1.500000e+00	1.099511e+09	1.499991e+00	1.099511e+09	
126	1.520000e+00	1.099511e+09	1.519991e+00	1.099511e+09	
127	1.540000e+00	1.099511e+09	1.539991e+00	1.099511e+09	
128	1.560000e+00	1.099511e+09	1.559991e+00	1.099511e+09	
129	1.580000e+00	1.099511e+09	1.579991e+00	1.099511e+09	
130	1.600000e+00	1.099511e+09	1.599991e+00	1.099511e+09	
131	1.620000e+00	1.099511e+09	1.619991e+00	1.099511e+09	
132	1.640000e+00	1.099511e+09	1.639991e+00	1.099511e+09	
133	1.660000e+00	1.099511e+09	1.659991e+00	1.099511e+09	
134	1.680000e+00	1.099511e+09	1.679991e+00	1.099511e+09	
135	1.700000e+00	1.099511e+09	1.699991e+00	1.099511e+09	
136	1.720000e+00	1.099511e+09	1.719991e+00	1.099511e+09	
137	1.740000e+00	1.099511e+09	1.739991e+00	1.099511e+09	
138	1.760000e+00	1.099511e+09	1.759991e+00	1.099511e+09	
139	1.780000e+00	1.099511e+09	1.779991e+00	1.099511e+09	
140	1.800000e+00	1.099511e+09	1.799991e+00	1.099511e+09	
141	1.820000e+00	1.099511e+09	1.819991e+00	1.099511e+09	
142	1.840000e+00	1.099511e+09	1.839991e+00	1.099511e+09	
143	1.860000e+00	1.099511e+09	1.859991e+00	1.099511e+09	
144	1.880000e+00	1.099511e+09	1.879991e+00	1.099511e+09	
145	1.900000e+00	1.099511e+09	1.899991e+00	1.099511e+09	
146	1.920000e+00	1.099511e+09	1.919991e+00	1.099511e+09	
147	1.940000e+00	1.099511e+09	1.939991e+00	1.099511e+09	
148	1.960000e+00	1.099511e+09	1.959991e+00	1.099511e+09	
149	1.980000e+00	1.099511e+09	1.979991e+00	1.099511e+09	
150	2.000000e+00	1.099511e+09	1.999991e+00	1.099511e+09	
151	2.020000e+00	1.099511e+09	2.019991e+00	1.099511e+09	
152	2.040000e+00	1.099511e+09	2.039991e+00	1.099511e+09	
153	2.060000e+00	1.099511e+09	2.059991e+00	1.099511e+09	
154	2.080000e+00	1.099511e+09	2.079991e+00	1.099511e+09	
155	2.100000e+00	1.099511e+09	2.099991e+00	1.099511e+09	
156	2.120000e+00	1.099511e+09	2.119991e+00	1.099511e+09	
157	2.140000e+00	1.099511e+09	2.139991e+00	1.099511e+09	
158	2.160000e+00	1.099511e+09	2.159991e+00	1.099511e+09	
159	2.180000e+00	1.099511e+09	2.179991e+00	1.099511e+09	
160	2.200000e+00	1.099511e+09	2.199991e+00	1.099511e+09	
161	2.220000e+00	1.099511e+09	2.219991e+00	1.099511e+09	
162	2.240000e+00	1.099511e+09	2.239991e+00	1.099511e+09	
163	2.260000e+00	1.099511e+09	2.259991e+00	1.099511e+09	
164	2.280000e+00	1.099511e+09	2.279991e+00	1.099511e+09	
165	2.300000e+00	1.099511e+09	2.299991e+00	1.099511e+09	
166	2.320000e+00	1.099511e+09	2.319991e+00	1.099511e+09	
167	2.340000e+00	1.099511e+09	2.339991e+00	1.099511e+09	
168	2.360000e+00	1.099511e+09	2.359991e+00	1.099511e+09	
169	2.380000e+00	1.099511e+09	2.379991e+00	1.099511e+09	
170	2.400000e+00	1.099511e+09	2.399991e+00	1.099511e+09	

Index   v-sweep         ie              net-_q1-pad1_   net-_q1-pad3_   
--------------------------------------------------------------------------------
171	2.420000e+00	1.099511e+09	2.419991e+00	1.099511e+09	
172	2.440000e+00	1.099511e+09	2.439991e+00	1.099511e+09	
173	2.460000e+00	1.099511e+09	2.459991e+00	1.099511e+09	
174	2.480000e+00	1.099511e+09	2.479991e+00	1.099511e+09	
175	2.500000e+00	1.099511e+09	2.499991e+00	1.099511e+09	
176	2.520000e+00	1.099511e+09	2.519991e+00	1.099511e+09	
177	2.540000e+00	1.099511e+09	2.539991e+00	1.099511e+09	
178	2.560000e+00	1.099511e+09	2.559991e+00	1.099511e+09	
179	2.580000e+00	1.099511e+09	2.579991e+00	1.099511e+09	
180	2.600000e+00	1.099511e+09	2.599991e+00	1.099511e+09	
181	2.620000e+00	1.099511e+09	2.619991e+00	1.099511e+09	
182	2.640000e+00	1.099511e+09	2.639991e+00	1.099511e+09	
183	2.660000e+00	1.099511e+09	2.659991e+00	1.099511e+09	
184	2.680000e+00	1.099511e+09	2.679991e+00	1.099511e+09	
185	2.700000e+00	1.099511e+09	2.699991e+00	1.099511e+09	
186	2.720000e+00	1.099511e+09	2.719991e+00	1.099511e+09	
187	2.740000e+00	1.099511e+09	2.739991e+00	1.099511e+09	
188	2.760000e+00	1.099511e+09	2.759991e+00	1.099511e+09	
189	2.780000e+00	1.099511e+09	2.779991e+00	1.099511e+09	
190	2.800000e+00	1.099511e+09	2.799991e+00	1.099511e+09	
191	2.820000e+00	1.099511e+09	2.819991e+00	1.099511e+09	
192	2.840000e+00	1.099511e+09	2.839991e+00	1.099511e+09	
193	2.860000e+00	1.099511e+09	2.859991e+00	1.099511e+09	
194	2.880000e+00	1.099511e+09	2.879991e+00	1.099511e+09	
195	2.900000e+00	1.099511e+09	2.899991e+00	1.099511e+09	
196	2.920000e+00	1.099511e+09	2.919991e+00	1.099511e+09	
197	2.940000e+00	1.099511e+09	2.939991e+00	1.099511e+09	
198	2.960000e+00	1.099511e+09	2.959991e+00	1.099511e+09	
199	2.980000e+00	1.099511e+09	2.979991e+00	1.099511e+09	
200	3.000000e+00	1.099511e+09	2.999991e+00	1.099511e+09	
201	3.020000e+00	1.099511e+09	3.019991e+00	1.099511e+09	
202	3.040000e+00	1.099511e+09	3.039991e+00	1.099511e+09	
203	3.060000e+00	1.099511e+09	3.059991e+00	1.099511e+09	
204	3.080000e+00	1.099511e+09	3.079991e+00	1.099511e+09	
205	3.100000e+00	1.099511e+09	3.099991e+00	1.099511e+09	
206	3.120000e+00	1.099511e+09	3.119991e+00	1.099511e+09	
207	3.140000e+00	1.099511e+09	3.139991e+00	1.099511e+09	
208	3.160000e+00	1.099511e+09	3.159991e+00	1.099511e+09	
209	3.180000e+00	1.099511e+09	3.179991e+00	1.099511e+09	
210	3.200000e+00	1.099511e+09	3.199991e+00	1.099511e+09	
211	3.220000e+00	1.099511e+09	3.219991e+00	1.099511e+09	
212	3.240000e+00	1.099511e+09	3.239991e+00	1.099511e+09	
213	3.260000e+00	1.099511e+09	3.259991e+00	1.099511e+09	
214	3.280000e+00	1.099511e+09	3.279991e+00	1.099511e+09	
215	3.300000e+00	1.099511e+09	3.299991e+00	1.099511e+09	
216	3.320000e+00	1.099511e+09	3.319991e+00	1.099511e+09	
217	3.340000e+00	1.099511e+09	3.339991e+00	1.099511e+09	
218	3.360000e+00	1.099511e+09	3.359991e+00	1.099511e+09	
219	3.380000e+00	1.099511e+09	3.379991e+00	1.099511e+09	
220	3.400000e+00	1.099511e+09	3.399991e+00	1.099511e+09	
221	3.420000e+00	1.099511e+09	3.419991e+00	1.099511e+09	
222	3.440000e+00	1.099511e+09	3.439991e+00	1.099511e+09	
223	3.460000e+00	1.099511e+09	3.459991e+00	1.099511e+09	
224	3.480000e+00	1.099511e+09	3.479991e+00	1.099511e+09	
225	3.500000e+00	1.099511e+09	3.499991e+00	1.099511e+09	
226	3.520000e+00	1.099511e+09	3.519991e+00	1.099511e+09	
227	3.540000e+00	1.099511e+09	3.539991e+00	1.099511e+09	
228	3.560000e+00	1.099511e+09	3.559991e+00	1.099511e+09	

Index   v-sweep         ie              net-_q1-pad1_   net-_q1-pad3_   
--------------------------------------------------------------------------------
229	3.580000e+00	1.099511e+09	3.579991e+00	1.099511e+09	
230	3.600000e+00	1.099511e+09	3.599991e+00	1.099511e+09	
231	3.620000e+00	1.099511e+09	3.619991e+00	1.099511e+09	
232	3.640000e+00	1.099511e+09	3.639991e+00	1.099511e+09	
233	3.660000e+00	1.099511e+09	3.659991e+00	1.099511e+09	
234	3.680000e+00	1.099511e+09	3.679991e+00	1.099511e+09	
235	3.700000e+00	1.099511e+09	3.699991e+00	1.099511e+09	
236	3.720000e+00	1.099511e+09	3.719991e+00	1.099511e+09	
237	3.740000e+00	1.099511e+09	3.739991e+00	1.099511e+09	
238	3.760000e+00	1.099511e+09	3.759991e+00	1.099511e+09	
239	3.780000e+00	1.099511e+09	3.779991e+00	1.099511e+09	
240	3.800000e+00	1.099511e+09	3.799991e+00	1.099511e+09	
241	3.820000e+00	1.099511e+09	3.819991e+00	1.099511e+09	
242	3.840000e+00	1.099511e+09	3.839991e+00	1.099511e+09	
243	3.860000e+00	1.099511e+09	3.859991e+00	1.099511e+09	
244	3.880000e+00	1.099511e+09	3.879991e+00	1.099511e+09	
245	3.900000e+00	1.099511e+09	3.899991e+00	1.099511e+09	
246	3.920000e+00	1.099511e+09	3.919991e+00	1.099511e+09	
247	3.940000e+00	1.099511e+09	3.939991e+00	1.099511e+09	
248	3.960000e+00	1.099511e+09	3.959991e+00	1.099511e+09	
249	3.980000e+00	1.099511e+09	3.979991e+00	1.099511e+09	
250	4.000000e+00	1.099511e+09	3.999991e+00	1.099511e+09	
251	4.020000e+00	1.099511e+09	4.019991e+00	1.099511e+09	
252	4.040000e+00	1.099511e+09	4.039991e+00	1.099511e+09	
253	4.060000e+00	1.099511e+09	4.059991e+00	1.099511e+09	
254	4.080000e+00	1.099511e+09	4.079991e+00	1.099511e+09	
255	4.100000e+00	1.099511e+09	4.099991e+00	1.099511e+09	
256	4.120000e+00	1.099511e+09	4.119991e+00	1.099511e+09	
257	4.140000e+00	1.099511e+09	4.139991e+00	1.099511e+09	
258	4.160000e+00	1.099511e+09	4.159991e+00	1.099511e+09	
259	4.180000e+00	1.099511e+09	4.179991e+00	1.099511e+09	
260	4.200000e+00	1.099511e+09	4.199991e+00	1.099511e+09	
261	4.220000e+00	1.099511e+09	4.219991e+00	1.099511e+09	
262	4.240000e+00	1.099511e+09	4.239991e+00	1.099511e+09	
263	4.260000e+00	1.099511e+09	4.259991e+00	1.099511e+09	
264	4.280000e+00	1.099511e+09	4.279991e+00	1.099511e+09	
265	4.300000e+00	1.099511e+09	4.299991e+00	1.099511e+09	
266	4.320000e+00	1.099511e+09	4.319991e+00	1.099511e+09	
267	4.340000e+00	1.099511e+09	4.339991e+00	1.099511e+09	
268	4.360000e+00	1.099511e+09	4.359991e+00	1.099511e+09	
269	4.380000e+00	1.099511e+09	4.379991e+00	1.099511e+09	
270	4.400000e+00	1.099511e+09	4.399991e+00	1.099511e+09	
271	4.420000e+00	1.099511e+09	4.419991e+00	1.099511e+09	
272	4.440000e+00	1.099511e+09	4.439991e+00	1.099511e+09	
273	4.460000e+00	1.099511e+09	4.459991e+00	1.099511e+09	
274	4.480000e+00	1.099511e+09	4.479991e+00	1.099511e+09	
275	4.500000e+00	1.099511e+09	4.499991e+00	1.099511e+09	
276	4.520000e+00	1.099511e+09	4.519991e+00	1.099511e+09	
277	4.540000e+00	1.099511e+09	4.539991e+00	1.099511e+09	
278	4.560000e+00	1.099511e+09	4.559991e+00	1.099511e+09	
279	4.580000e+00	1.099511e+09	4.579991e+00	1.099511e+09	
280	4.600000e+00	1.099511e+09	4.599991e+00	1.099511e+09	
281	4.620000e+00	1.099511e+09	4.619991e+00	1.099511e+09	
282	4.640000e+00	1.099511e+09	4.639991e+00	1.099511e+09	
283	4.660000e+00	1.099511e+09	4.659991e+00	1.099511e+09	
284	4.680000e+00	1.099511e+09	4.679991e+00	1.099511e+09	
285	4.700000e+00	1.099511e+09	4.699991e+00	1.099511e+09	
286	4.720000e+00	1.099511e+09	4.719991e+00	1.099511e+09	

Index   v-sweep         ie              net-_q1-pad1_   net-_q1-pad3_   
--------------------------------------------------------------------------------
287	4.740000e+00	1.099511e+09	4.739991e+00	1.099511e+09	
288	4.760000e+00	1.099511e+09	4.759991e+00	1.099511e+09	
289	4.780000e+00	1.099511e+09	4.779991e+00	1.099511e+09	
290	4.800000e+00	1.099511e+09	4.799991e+00	1.099511e+09	
291	4.820000e+00	1.099511e+09	4.819991e+00	1.099511e+09	
292	4.840000e+00	1.099511e+09	4.839991e+00	1.099511e+09	
293	4.860000e+00	1.099511e+09	4.859991e+00	1.099511e+09	
294	4.880000e+00	1.099511e+09	4.879991e+00	1.099511e+09	
295	4.900000e+00	1.099511e+09	4.899991e+00	1.099511e+09	
296	4.920000e+00	1.099511e+09	4.919991e+00	1.099511e+09	
297	4.940000e+00	1.099511e+09	4.939991e+00	1.099511e+09	
298	4.960000e+00	1.099511e+09	4.959991e+00	1.099511e+09	
299	4.980000e+00	1.099511e+09	4.979991e+00	1.099511e+09	
300	5.000000e+00	1.099511e+09	4.999991e+00	1.099511e+09	
301	5.020000e+00	1.099511e+09	5.019991e+00	1.099511e+09	
302	5.040000e+00	1.099511e+09	5.039991e+00	1.099511e+09	
303	5.060000e+00	1.099511e+09	5.059991e+00	1.099511e+09	
304	5.080000e+00	1.099511e+09	5.079991e+00	1.099511e+09	
305	5.100000e+00	1.099511e+09	5.099991e+00	1.099511e+09	
306	5.120000e+00	1.099511e+09	5.119991e+00	1.099511e+09	
307	5.140000e+00	1.099511e+09	5.139991e+00	1.099511e+09	
308	5.160000e+00	1.099511e+09	5.159991e+00	1.099511e+09	
309	5.180000e+00	1.099511e+09	5.179991e+00	1.099511e+09	
310	5.200000e+00	1.099511e+09	5.199991e+00	1.099511e+09	
311	5.220000e+00	1.099511e+09	5.219991e+00	1.099511e+09	
312	5.240000e+00	1.099511e+09	5.239991e+00	1.099511e+09	
313	5.260000e+00	1.099511e+09	5.259991e+00	1.099511e+09	
314	5.280000e+00	1.099511e+09	5.279991e+00	1.099511e+09	
315	5.300000e+00	1.099511e+09	5.299991e+00	1.099511e+09	
316	5.320000e+00	1.099511e+09	5.319991e+00	1.099511e+09	
317	5.340000e+00	1.099511e+09	5.339991e+00	1.099511e+09	
318	5.360000e+00	1.099511e+09	5.359991e+00	1.099511e+09	
319	5.380000e+00	1.099511e+09	5.379991e+00	1.099511e+09	
320	5.400000e+00	1.099511e+09	5.399991e+00	1.099511e+09	
321	5.420000e+00	1.099511e+09	5.419991e+00	1.099511e+09	
322	5.440000e+00	1.099511e+09	5.439991e+00	1.099511e+09	
323	5.460000e+00	1.099511e+09	5.459991e+00	1.099511e+09	
324	5.480000e+00	1.099511e+09	5.479991e+00	1.099511e+09	
325	5.500000e+00	1.099511e+09	5.499991e+00	1.099511e+09	
326	5.520000e+00	1.099511e+09	5.519991e+00	1.099511e+09	
327	5.540000e+00	1.099511e+09	5.539991e+00	1.099511e+09	
328	5.560000e+00	1.099511e+09	5.559991e+00	1.099511e+09	
329	5.580000e+00	1.099511e+09	5.579991e+00	1.099511e+09	
330	5.600000e+00	1.099511e+09	5.599991e+00	1.099511e+09	
331	5.620000e+00	1.099511e+09	5.619991e+00	1.099511e+09	
