* c:\users\mamat\esim-workspace\pmeg2005eb_half_wave_rectifier\pmeg2005eb_half_wave_rectifier.cir
Transient Analysis  Wed Jun 25 12:05:06  2025
--------------------------------------------------------------------------------
Index   time            in              out             
--------------------------------------------------------------------------------
0	0.000000e+00	0.000000e+00	-2.07520e-20	
1	1.000000e-05	1.570796e-03	7.342205e-05	
2	2.000000e-05	3.141592e-03	1.421186e-04	
3	4.000000e-05	6.283184e-03	2.923268e-04	
4	8.000000e-05	1.256636e-02	6.510308e-04	
5	1.600000e-04	2.513264e-02	1.664526e-03	
6	3.200000e-04	5.026464e-02	5.463114e-03	
7	6.400000e-04	1.005242e-01	2.358042e-02	
8	1.262958e-03	1.983329e-01	8.997704e-02	
9	2.115016e-03	3.319816e-01	2.040611e-01	
10	3.115016e-03	4.885250e-01	3.477802e-01	
11	4.115016e-03	6.445863e-01	4.950397e-01	
12	5.115016e-03	8.000115e-01	6.443347e-01	
13	6.115016e-03	9.546472e-01	7.940574e-01	
14	7.115016e-03	1.108341e+00	9.436003e-01	
15	8.115016e-03	1.260940e+00	1.092655e+00	
16	9.115016e-03	1.412296e+00	1.240929e+00	
17	1.011502e-02	1.562257e+00	1.388170e+00	
18	1.111502e-02	1.710677e+00	1.534160e+00	
19	1.211502e-02	1.857409e+00	1.678701e+00	
20	1.311502e-02	2.002307e+00	1.821609e+00	
21	1.411502e-02	2.145230e+00	1.962711e+00	
22	1.511502e-02	2.286035e+00	2.101843e+00	
23	1.611502e-02	2.424585e+00	2.238848e+00	
24	1.711502e-02	2.560741e+00	2.373573e+00	
25	1.811502e-02	2.694371e+00	2.505872e+00	
26	1.911502e-02	2.825341e+00	2.635603e+00	
27	2.011502e-02	2.953523e+00	2.762629e+00	
28	2.111502e-02	3.078791e+00	2.886814e+00	
29	2.211502e-02	3.201020e+00	3.008030e+00	
30	2.311502e-02	3.320090e+00	3.126150e+00	
31	2.411502e-02	3.435883e+00	3.241052e+00	
32	2.511502e-02	3.548286e+00	3.352619e+00	
33	2.611502e-02	3.657187e+00	3.460735e+00	
34	2.711502e-02	3.762479e+00	3.565290e+00	
35	2.811502e-02	3.864057e+00	3.666177e+00	
36	2.911502e-02	3.961822e+00	3.763294e+00	
37	3.011502e-02	4.055678e+00	3.856541e+00	
38	3.111502e-02	4.145531e+00	3.945826e+00	
39	3.211502e-02	4.231293e+00	4.031056e+00	
40	3.311502e-02	4.312879e+00	4.112147e+00	
41	3.411502e-02	4.390208e+00	4.189016e+00	
42	3.511502e-02	4.463206e+00	4.261585e+00	
43	3.611502e-02	4.531798e+00	4.329782e+00	
44	3.711502e-02	4.595918e+00	4.393537e+00	
45	3.811502e-02	4.655503e+00	4.452788e+00	
46	3.911502e-02	4.710493e+00	4.507473e+00	
47	4.011502e-02	4.760834e+00	4.557539e+00	
48	4.111502e-02	4.806478e+00	4.602934e+00	
49	4.211502e-02	4.847377e+00	4.643614e+00	
50	4.311502e-02	4.883493e+00	4.679537e+00	
51	4.411502e-02	4.914790e+00	4.710667e+00	
52	4.511502e-02	4.941236e+00	4.736974e+00	
53	4.611502e-02	4.962805e+00	4.758431e+00	
54	4.711502e-02	4.979478e+00	4.775016e+00	

Index   time            in              out             
--------------------------------------------------------------------------------
55	4.811502e-02	4.991235e+00	4.786713e+00	
56	4.911502e-02	4.998068e+00	4.793509e+00	
57	5.011502e-02	4.999967e+00	4.795399e+00	
58	5.111502e-02	4.996933e+00	4.792380e+00	
59	5.211502e-02	4.988967e+00	4.784456e+00	
60	5.311502e-02	4.976077e+00	4.771633e+00	
61	5.411502e-02	4.958277e+00	4.753926e+00	
62	5.511502e-02	4.935583e+00	4.731352e+00	
63	5.611502e-02	4.908019e+00	4.703933e+00	
64	5.711502e-02	4.875611e+00	4.671697e+00	
65	5.811502e-02	4.838391e+00	4.634676e+00	
66	5.911502e-02	4.796397e+00	4.592908e+00	
67	6.011502e-02	4.749669e+00	4.546434e+00	
68	6.111502e-02	4.698253e+00	4.495301e+00	
69	6.211502e-02	4.642201e+00	4.439560e+00	
70	6.311502e-02	4.581568e+00	4.379268e+00	
71	6.411502e-02	4.516413e+00	4.314485e+00	
72	6.511502e-02	4.446801e+00	4.245276e+00	
73	6.611502e-02	4.372801e+00	4.171711e+00	
74	6.711502e-02	4.294485e+00	4.093864e+00	
75	6.811502e-02	4.211931e+00	4.011814e+00	
76	6.911502e-02	4.125221e+00	3.925643e+00	
77	7.011502e-02	4.034439e+00	3.835439e+00	
78	7.111502e-02	3.939676e+00	3.741293e+00	
79	7.211502e-02	3.841025e+00	3.643300e+00	
80	7.311502e-02	3.738583e+00	3.541560e+00	
81	7.411502e-02	3.632452e+00	3.436176e+00	
82	7.511502e-02	3.522736e+00	3.327256e+00	
83	7.611502e-02	3.409543e+00	3.214912e+00	
84	7.711502e-02	3.292986e+00	3.099259e+00	
85	7.811502e-02	3.173179e+00	2.980416e+00	
86	7.911502e-02	3.050240e+00	2.858506e+00	
87	8.011502e-02	2.924291e+00	2.733655e+00	
88	8.111502e-02	2.795456e+00	2.605996e+00	
89	8.211502e-02	2.663862e+00	2.475662e+00	
90	8.311502e-02	2.529640e+00	2.342791e+00	
91	8.411502e-02	2.392921e+00	2.207529e+00	
92	8.511502e-02	2.253840e+00	2.070021e+00	
93	8.611502e-02	2.112535e+00	1.930422e+00	
94	8.711502e-02	1.969146e+00	1.788890e+00	
95	8.811502e-02	1.823813e+00	1.645591e+00	
96	8.911502e-02	1.676680e+00	1.500700e+00	
97	9.011502e-02	1.527892e+00	1.354405e+00	
98	9.111502e-02	1.377597e+00	1.206907e+00	
99	9.211502e-02	1.225942e+00	1.058432e+00	
100	9.311502e-02	1.073077e+00	9.092413e-01	
101	9.411502e-02	9.191538e-01	7.596560e-01	
102	9.511502e-02	7.643229e-01	6.101039e-01	
103	9.611502e-02	6.087378e-01	4.612291e-01	
104	9.711502e-02	4.525520e-01	3.141813e-01	
105	9.811502e-02	2.959195e-01	1.720953e-01	
106	9.911502e-02	1.389950e-01	4.633295e-02	
107	1.001150e-01	-1.80667e-02	-5.28855e-04	
108	1.011150e-01	-1.75111e-01	-9.98372e-04	
109	1.021150e-01	-3.31982e-01	-1.00599e-03	
110	1.031150e-01	-4.88525e-01	-1.00007e-03	
111	1.041150e-01	-6.44586e-01	-1.00537e-03	
112	1.051150e-01	-8.00011e-01	-9.99433e-04	

Index   time            in              out             
--------------------------------------------------------------------------------
113	1.061150e-01	-9.54647e-01	-1.00483e-03	
114	1.071150e-01	-1.10834e+00	-9.98980e-04	
115	1.081150e-01	-1.26094e+00	-1.00445e-03	
116	1.091150e-01	-1.41230e+00	-9.98644e-04	
117	1.101150e-01	-1.56226e+00	-1.00415e-03	
118	1.111150e-01	-1.71068e+00	-9.98377e-04	
119	1.121150e-01	-1.85741e+00	-1.00391e-03	
120	1.131150e-01	-2.00231e+00	-9.98154e-04	
121	1.141150e-01	-2.14523e+00	-1.00370e-03	
122	1.151150e-01	-2.28604e+00	-9.97959e-04	
123	1.161150e-01	-2.42458e+00	-1.00351e-03	
124	1.171150e-01	-2.56074e+00	-9.97785e-04	
125	1.181150e-01	-2.69437e+00	-1.00334e-03	
126	1.191150e-01	-2.82534e+00	-9.97625e-04	
127	1.201150e-01	-2.95352e+00	-1.00319e-03	
128	1.211150e-01	-3.07879e+00	-9.97475e-04	
129	1.221150e-01	-3.20102e+00	-1.00304e-03	
130	1.231150e-01	-3.32009e+00	-9.97333e-04	
131	1.241150e-01	-3.43588e+00	-1.00290e-03	
132	1.251150e-01	-3.54829e+00	-9.97197e-04	
133	1.261150e-01	-3.65719e+00	-1.00277e-03	
134	1.271150e-01	-3.76248e+00	-9.97066e-04	
135	1.281150e-01	-3.86406e+00	-1.00264e-03	
136	1.291150e-01	-3.96182e+00	-9.96938e-04	
137	1.301150e-01	-4.05568e+00	-1.00251e-03	
138	1.311150e-01	-4.14553e+00	-9.96813e-04	
139	1.321150e-01	-4.23129e+00	-1.00239e-03	
140	1.331150e-01	-4.31288e+00	-9.96690e-04	
141	1.341150e-01	-4.39021e+00	-1.00227e-03	
142	1.351150e-01	-4.46321e+00	-9.96569e-04	
143	1.361150e-01	-4.53180e+00	-1.00214e-03	
144	1.371150e-01	-4.59592e+00	-9.96448e-04	
145	1.381150e-01	-4.65550e+00	-1.00202e-03	
146	1.391150e-01	-4.71049e+00	-9.96329e-04	
147	1.401150e-01	-4.76083e+00	-1.00190e-03	
148	1.411150e-01	-4.80648e+00	-9.96211e-04	
149	1.421150e-01	-4.84738e+00	-1.00179e-03	
150	1.431150e-01	-4.88349e+00	-9.96093e-04	
151	1.441150e-01	-4.91479e+00	-1.00167e-03	
152	1.451150e-01	-4.94124e+00	-9.95975e-04	
153	1.461150e-01	-4.96281e+00	-1.00155e-03	
154	1.471150e-01	-4.97948e+00	-9.95858e-04	
155	1.481150e-01	-4.99124e+00	-1.00143e-03	
156	1.491150e-01	-4.99807e+00	-9.95741e-04	
157	1.501150e-01	-4.99997e+00	-1.00131e-03	
158	1.511150e-01	-4.99693e+00	-9.95623e-04	
159	1.521150e-01	-4.98897e+00	-1.00120e-03	
160	1.531150e-01	-4.97608e+00	-9.95506e-04	
161	1.541150e-01	-4.95828e+00	-1.00108e-03	
162	1.551150e-01	-4.93558e+00	-9.95389e-04	
163	1.561150e-01	-4.90802e+00	-1.00096e-03	
164	1.571150e-01	-4.87561e+00	-9.95271e-04	
165	1.581150e-01	-4.83839e+00	-1.00084e-03	
166	1.591150e-01	-4.79640e+00	-9.95153e-04	
167	1.601150e-01	-4.74967e+00	-1.00072e-03	
168	1.611150e-01	-4.69825e+00	-9.95034e-04	
169	1.621150e-01	-4.64220e+00	-1.00060e-03	
170	1.631150e-01	-4.58157e+00	-9.94914e-04	

Index   time            in              out             
--------------------------------------------------------------------------------
171	1.641150e-01	-4.51641e+00	-1.00048e-03	
172	1.651150e-01	-4.44680e+00	-9.94794e-04	
173	1.661150e-01	-4.37280e+00	-1.00036e-03	
174	1.671150e-01	-4.29449e+00	-9.94672e-04	
175	1.681150e-01	-4.21193e+00	-1.00024e-03	
176	1.691150e-01	-4.12522e+00	-9.94548e-04	
177	1.701150e-01	-4.03444e+00	-1.00011e-03	
178	1.711150e-01	-3.93968e+00	-9.94422e-04	
179	1.721150e-01	-3.84102e+00	-9.99985e-04	
180	1.731150e-01	-3.73858e+00	-9.94294e-04	
181	1.741150e-01	-3.63245e+00	-9.99854e-04	
182	1.751150e-01	-3.52274e+00	-9.94161e-04	
183	1.761150e-01	-3.40954e+00	-9.99718e-04	
184	1.771150e-01	-3.29299e+00	-9.94024e-04	
185	1.781150e-01	-3.17318e+00	-9.99578e-04	
186	1.791150e-01	-3.05024e+00	-9.93881e-04	
187	1.801150e-01	-2.92429e+00	-9.99430e-04	
188	1.811150e-01	-2.79546e+00	-9.93729e-04	
189	1.821150e-01	-2.66386e+00	-9.99272e-04	
190	1.831150e-01	-2.52964e+00	-9.93566e-04	
191	1.841150e-01	-2.39292e+00	-9.99102e-04	
192	1.851150e-01	-2.25384e+00	-9.93388e-04	
193	1.861150e-01	-2.11254e+00	-9.98913e-04	
194	1.871150e-01	-1.96915e+00	-9.93189e-04	
195	1.881150e-01	-1.82381e+00	-9.98699e-04	
196	1.891150e-01	-1.67668e+00	-9.92958e-04	
197	1.901150e-01	-1.52789e+00	-9.98445e-04	
198	1.911150e-01	-1.37760e+00	-9.92677e-04	
199	1.921150e-01	-1.22594e+00	-9.98129e-04	
200	1.931150e-01	-1.07308e+00	-9.92315e-04	
201	1.941150e-01	-9.19154e-01	-9.97699e-04	
202	1.951150e-01	-7.64323e-01	-9.91790e-04	
203	1.961150e-01	-6.08738e-01	-9.97018e-04	
204	1.971150e-01	-4.52552e-01	-9.90813e-04	
205	1.981150e-01	-2.95919e-01	-9.95215e-04	
206	1.991150e-01	-1.38995e-01	-9.82055e-04	
207	2.001150e-01	1.806670e-02	1.037456e-03	
208	2.011150e-01	1.751106e-01	7.202175e-02	
209	2.021150e-01	3.319816e-01	2.040784e-01	
210	2.031150e-01	4.885250e-01	3.477276e-01	
211	2.041150e-01	6.445863e-01	4.950195e-01	
212	2.051150e-01	8.000115e-01	6.443362e-01	
213	2.061150e-01	9.546472e-01	7.940584e-01	
214	2.071150e-01	1.108341e+00	9.436004e-01	
215	2.081150e-01	1.260940e+00	1.092655e+00	
216	2.091150e-01	1.412296e+00	1.240929e+00	
217	2.101150e-01	1.562257e+00	1.388170e+00	
218	2.111150e-01	1.710677e+00	1.534161e+00	
219	2.121150e-01	1.857409e+00	1.678701e+00	
220	2.131150e-01	2.002307e+00	1.821609e+00	
221	2.141150e-01	2.145230e+00	1.962711e+00	
222	2.151150e-01	2.286035e+00	2.101843e+00	
223	2.161150e-01	2.424585e+00	2.238848e+00	
224	2.171150e-01	2.560741e+00	2.373573e+00	
225	2.181150e-01	2.694371e+00	2.505872e+00	
226	2.191150e-01	2.825341e+00	2.635604e+00	
227	2.201150e-01	2.953523e+00	2.762629e+00	
228	2.211150e-01	3.078791e+00	2.886814e+00	

Index   time            in              out             
--------------------------------------------------------------------------------
229	2.221150e-01	3.201020e+00	3.008030e+00	
230	2.231150e-01	3.320090e+00	3.126150e+00	
231	2.241150e-01	3.435883e+00	3.241052e+00	
232	2.251150e-01	3.548286e+00	3.352619e+00	
233	2.261150e-01	3.657187e+00	3.460735e+00	
234	2.271150e-01	3.762479e+00	3.565290e+00	
235	2.281150e-01	3.864057e+00	3.666177e+00	
236	2.291150e-01	3.961822e+00	3.763294e+00	
237	2.301150e-01	4.055678e+00	3.856541e+00	
238	2.311150e-01	4.145531e+00	3.945826e+00	
239	2.321150e-01	4.231293e+00	4.031056e+00	
240	2.331150e-01	4.312879e+00	4.112147e+00	
241	2.341150e-01	4.390208e+00	4.189016e+00	
242	2.351150e-01	4.463206e+00	4.261585e+00	
243	2.361150e-01	4.531798e+00	4.329782e+00	
244	2.371150e-01	4.595918e+00	4.393537e+00	
245	2.381150e-01	4.655503e+00	4.452788e+00	
246	2.391150e-01	4.710493e+00	4.507473e+00	
247	2.401150e-01	4.760834e+00	4.557539e+00	
248	2.411150e-01	4.806478e+00	4.602934e+00	
249	2.421150e-01	4.847377e+00	4.643614e+00	
250	2.431150e-01	4.883493e+00	4.679537e+00	
251	2.441150e-01	4.914790e+00	4.710667e+00	
252	2.451150e-01	4.941236e+00	4.736974e+00	
253	2.461150e-01	4.962805e+00	4.758431e+00	
254	2.471150e-01	4.979478e+00	4.775016e+00	
255	2.481150e-01	4.991235e+00	4.786713e+00	
256	2.491150e-01	4.998068e+00	4.793509e+00	
257	2.501150e-01	4.999967e+00	4.795399e+00	
258	2.511150e-01	4.996933e+00	4.792380e+00	
259	2.521150e-01	4.988967e+00	4.784456e+00	
260	2.531150e-01	4.976077e+00	4.771633e+00	
261	2.541150e-01	4.958277e+00	4.753926e+00	
262	2.551150e-01	4.935583e+00	4.731352e+00	
263	2.561150e-01	4.908019e+00	4.703933e+00	
264	2.571150e-01	4.875611e+00	4.671697e+00	
265	2.581150e-01	4.838391e+00	4.634676e+00	
266	2.591150e-01	4.796397e+00	4.592908e+00	
267	2.601150e-01	4.749669e+00	4.546434e+00	
268	2.611150e-01	4.698253e+00	4.495301e+00	
269	2.621150e-01	4.642201e+00	4.439560e+00	
270	2.631150e-01	4.581568e+00	4.379268e+00	
271	2.641150e-01	4.516413e+00	4.314485e+00	
272	2.651150e-01	4.446801e+00	4.245276e+00	
273	2.661150e-01	4.372801e+00	4.171711e+00	
274	2.671150e-01	4.294485e+00	4.093865e+00	
275	2.681150e-01	4.211931e+00	4.011814e+00	
276	2.691150e-01	4.125221e+00	3.925643e+00	
277	2.701150e-01	4.034439e+00	3.835439e+00	
278	2.711150e-01	3.939676e+00	3.741293e+00	
279	2.721150e-01	3.841025e+00	3.643300e+00	
280	2.731150e-01	3.738583e+00	3.541560e+00	
281	2.741150e-01	3.632452e+00	3.436176e+00	
282	2.751150e-01	3.522736e+00	3.327256e+00	
283	2.761150e-01	3.409543e+00	3.214912e+00	
284	2.771150e-01	3.292986e+00	3.099259e+00	
285	2.781150e-01	3.173179e+00	2.980416e+00	
286	2.791150e-01	3.050240e+00	2.858506e+00	

Index   time            in              out             
--------------------------------------------------------------------------------
287	2.801150e-01	2.924291e+00	2.733655e+00	
288	2.811150e-01	2.795456e+00	2.605996e+00	
289	2.821150e-01	2.663862e+00	2.475661e+00	
290	2.831150e-01	2.529640e+00	2.342791e+00	
291	2.841150e-01	2.392921e+00	2.207529e+00	
292	2.851150e-01	2.253840e+00	2.070021e+00	
293	2.861150e-01	2.112535e+00	1.930422e+00	
294	2.871150e-01	1.969146e+00	1.788890e+00	
295	2.881150e-01	1.823813e+00	1.645591e+00	
296	2.891150e-01	1.676680e+00	1.500700e+00	
297	2.901150e-01	1.527892e+00	1.354405e+00	
298	2.911150e-01	1.377597e+00	1.206907e+00	
299	2.921150e-01	1.225942e+00	1.058432e+00	
300	2.931150e-01	1.073077e+00	9.092414e-01	
301	2.941150e-01	9.191538e-01	7.596559e-01	
302	2.951150e-01	7.643229e-01	6.101041e-01	
303	2.961150e-01	6.087378e-01	4.612289e-01	
304	2.971150e-01	4.525520e-01	3.141816e-01	
305	2.981150e-01	2.959195e-01	1.720946e-01	
306	2.991150e-01	1.389950e-01	4.633476e-02	
307	3.001150e-01	-1.80667e-02	-5.34152e-04	
308	3.011150e-01	-1.75111e-01	-9.92971e-04	
309	3.021150e-01	-3.31982e-01	-1.01139e-03	
310	3.031150e-01	-4.88525e-01	-9.94670e-04	
311	3.041150e-01	-6.44586e-01	-1.01077e-03	
312	3.051150e-01	-8.00011e-01	-9.94034e-04	
313	3.061150e-01	-9.54647e-01	-1.01023e-03	
314	3.071150e-01	-1.10834e+00	-9.93582e-04	
315	3.081150e-01	-1.26094e+00	-1.00984e-03	
316	3.091150e-01	-1.41230e+00	-9.93247e-04	
317	3.101150e-01	-1.56226e+00	-1.00955e-03	
318	3.111150e-01	-1.71068e+00	-9.92981e-04	
319	3.121150e-01	-1.85741e+00	-1.00930e-03	
320	3.131150e-01	-2.00231e+00	-9.92758e-04	
321	3.141150e-01	-2.14523e+00	-1.00909e-03	
322	3.151150e-01	-2.28604e+00	-9.92564e-04	
323	3.161150e-01	-2.42458e+00	-1.00891e-03	
324	3.171150e-01	-2.56074e+00	-9.92390e-04	
325	3.181150e-01	-2.69437e+00	-1.00874e-03	
326	3.191150e-01	-2.82534e+00	-9.92231e-04	
327	3.201150e-01	-2.95352e+00	-1.00858e-03	
328	3.211150e-01	-3.07879e+00	-9.92082e-04	
329	3.221150e-01	-3.20102e+00	-1.00844e-03	
330	3.231150e-01	-3.32009e+00	-9.91941e-04	
331	3.241150e-01	-3.43588e+00	-1.00830e-03	
332	3.251150e-01	-3.54829e+00	-9.91805e-04	
333	3.261150e-01	-3.65719e+00	-1.00816e-03	
334	3.271150e-01	-3.76248e+00	-9.91675e-04	
335	3.281150e-01	-3.86406e+00	-1.00803e-03	
336	3.291150e-01	-3.96182e+00	-9.91547e-04	
337	3.301150e-01	-4.05568e+00	-1.00790e-03	
338	3.311150e-01	-4.14553e+00	-9.91423e-04	
339	3.321150e-01	-4.23129e+00	-1.00778e-03	
340	3.331150e-01	-4.31288e+00	-9.91300e-04	
341	3.341150e-01	-4.39021e+00	-1.00766e-03	
342	3.351150e-01	-4.46321e+00	-9.91179e-04	
343	3.361150e-01	-4.53180e+00	-1.00753e-03	
344	3.371150e-01	-4.59592e+00	-9.91060e-04	

Index   time            in              out             
--------------------------------------------------------------------------------
345	3.381150e-01	-4.65550e+00	-1.00741e-03	
346	3.391150e-01	-4.71049e+00	-9.90941e-04	
347	3.401150e-01	-4.76083e+00	-1.00729e-03	
348	3.411150e-01	-4.80648e+00	-9.90823e-04	
349	3.421150e-01	-4.84738e+00	-1.00717e-03	
350	3.431150e-01	-4.88349e+00	-9.90706e-04	
351	3.441150e-01	-4.91479e+00	-1.00705e-03	
352	3.451150e-01	-4.94124e+00	-9.90589e-04	
353	3.461150e-01	-4.96281e+00	-1.00694e-03	
354	3.471150e-01	-4.97948e+00	-9.90472e-04	
355	3.481150e-01	-4.99124e+00	-1.00682e-03	
356	3.491150e-01	-4.99807e+00	-9.90355e-04	
357	3.501150e-01	-4.99997e+00	-1.00670e-03	
358	3.511150e-01	-4.99693e+00	-9.90238e-04	
359	3.521150e-01	-4.98897e+00	-1.00658e-03	
360	3.531150e-01	-4.97608e+00	-9.90122e-04	
361	3.541150e-01	-4.95828e+00	-1.00646e-03	
362	3.551150e-01	-4.93558e+00	-9.90005e-04	
363	3.561150e-01	-4.90802e+00	-1.00634e-03	
364	3.571150e-01	-4.87561e+00	-9.89888e-04	
365	3.581150e-01	-4.83839e+00	-1.00623e-03	
366	3.591150e-01	-4.79640e+00	-9.89770e-04	
367	3.601150e-01	-4.74967e+00	-1.00611e-03	
368	3.611150e-01	-4.69825e+00	-9.89652e-04	
369	3.621150e-01	-4.64220e+00	-1.00599e-03	
370	3.631150e-01	-4.58157e+00	-9.89533e-04	
371	3.641150e-01	-4.51641e+00	-1.00586e-03	
372	3.651150e-01	-4.44680e+00	-9.89413e-04	
373	3.661150e-01	-4.37280e+00	-1.00574e-03	
374	3.671150e-01	-4.29449e+00	-9.89291e-04	
375	3.681150e-01	-4.21193e+00	-1.00562e-03	
376	3.691150e-01	-4.12522e+00	-9.89168e-04	
377	3.701150e-01	-4.03444e+00	-1.00549e-03	
378	3.711150e-01	-3.93968e+00	-9.89043e-04	
379	3.721150e-01	-3.84102e+00	-1.00536e-03	
380	3.731150e-01	-3.73858e+00	-9.88915e-04	
381	3.741150e-01	-3.63245e+00	-1.00523e-03	
382	3.751150e-01	-3.52274e+00	-9.88783e-04	
383	3.761150e-01	-3.40954e+00	-1.00510e-03	
384	3.771150e-01	-3.29299e+00	-9.88646e-04	
385	3.781150e-01	-3.17318e+00	-1.00496e-03	
386	3.791150e-01	-3.05024e+00	-9.88504e-04	
387	3.801150e-01	-2.92429e+00	-1.00481e-03	
388	3.811150e-01	-2.79546e+00	-9.88353e-04	
389	3.821150e-01	-2.66386e+00	-1.00465e-03	
390	3.831150e-01	-2.52964e+00	-9.88191e-04	
391	3.841150e-01	-2.39292e+00	-1.00448e-03	
392	3.851150e-01	-2.25384e+00	-9.88013e-04	
393	3.861150e-01	-2.11254e+00	-1.00429e-03	
394	3.871150e-01	-1.96915e+00	-9.87814e-04	
395	3.881150e-01	-1.82381e+00	-1.00407e-03	
396	3.891150e-01	-1.67668e+00	-9.87584e-04	
397	3.901150e-01	-1.52789e+00	-1.00382e-03	
398	3.911150e-01	-1.37760e+00	-9.87305e-04	
399	3.921150e-01	-1.22594e+00	-1.00350e-03	
400	3.931150e-01	-1.07308e+00	-9.86943e-04	
401	3.941150e-01	-9.19154e-01	-1.00307e-03	
402	3.951150e-01	-7.64323e-01	-9.86419e-04	

Index   time            in              out             
--------------------------------------------------------------------------------
403	3.961150e-01	-6.08738e-01	-1.00239e-03	
404	3.971150e-01	-4.52552e-01	-9.85444e-04	
405	3.981150e-01	-2.95919e-01	-1.00058e-03	
406	3.991150e-01	-1.38995e-01	-9.76688e-04	
407	4.001150e-01	1.806670e-02	1.032507e-03	
408	4.011150e-01	1.751106e-01	7.202303e-02	
409	4.021150e-01	3.319816e-01	2.040778e-01	
410	4.031150e-01	4.885250e-01	3.477279e-01	
411	4.041150e-01	6.445863e-01	4.950195e-01	
412	4.051150e-01	8.000115e-01	6.443364e-01	
413	4.061150e-01	9.546472e-01	7.940583e-01	
414	4.071150e-01	1.108341e+00	9.436005e-01	
415	4.081150e-01	1.260940e+00	1.092654e+00	
416	4.091150e-01	1.412296e+00	1.240929e+00	
417	4.101150e-01	1.562257e+00	1.388170e+00	
418	4.111150e-01	1.710677e+00	1.534161e+00	
419	4.121150e-01	1.857409e+00	1.678701e+00	
420	4.131150e-01	2.002307e+00	1.821609e+00	
421	4.141150e-01	2.145230e+00	1.962711e+00	
422	4.151150e-01	2.286035e+00	2.101843e+00	
423	4.161150e-01	2.424585e+00	2.238848e+00	
424	4.171150e-01	2.560741e+00	2.373573e+00	
425	4.181150e-01	2.694371e+00	2.505872e+00	
