Title: * c:\users\mamat\esim-workspace\pmeg2005eb_half_wave_rectifier\pmeg2005eb_half_wave_rectifier.cir
Date: Wed Jun 25 12:05:05  2025
Plotname: Transient Analysis
Flags: real
No. Variables: 4
No. Points: 1008    
Variables:
	0	time	time
	1	v(in)	voltage
	2	v(out)	voltage
	3	i(v1)	current
Values:
0		0.000000000000000e+00
	0.000000000000000e+00
	-2.075197821810926e-20
	2.075197821810926e-23
1		1.000000000000000e-05
	1.570796300956333e-03
	7.342205000986985e-05
	-7.342205000839680e-08
2		2.000000000000001e-05
	3.141592446881287e-03
	1.421186304860996e-04
	-1.421186304889632e-07
3		4.000000000000001e-05
	6.283183653511628e-03
	2.923268246548738e-04
	-2.923268246496358e-07
4		8.000000000000002e-05
	1.256635738501864e-02
	6.510307858721365e-04
	-6.510307858642594e-07
5		1.600000000000000e-04
	2.513263539409432e-02
	1.664526478954565e-03
	-1.664526478969974e-06
6		3.200000000000001e-04
	5.026463578365327e-02
	5.463113978661705e-03
	-5.463113978670942e-06
7		6.400000000000002e-04
	1.005241916272879e-01
	2.358041850496048e-02
	-2.358041850503145e-05
8		1.262957818321710e-03
	1.983329025897192e-01
	8.997703871083025e-02
	-8.997703871105323e-05
9		2.115016463644179e-03
	3.319816021535816e-01
	2.040610711547304e-01
	-2.040610711548929e-04
10		3.115016463644179e-03
	4.885250187054463e-01
	3.477802055520016e-01
	-3.477802055518175e-04
11		4.115016463644179e-03
	6.445863200441888e-01
	4.950397012088703e-01
	-4.950397012088992e-04
12		5.115016463644179e-03
	8.000114925068975e-01
	6.443347380690171e-01
	-6.443347380700182e-04
13		6.115016463644179e-03
	9.546471502130598e-01
	7.940574369132616e-01
	-7.940574369138531e-04
14		7.115016463644179e-03
	1.108340686437909e+00
	9.436002700235975e-01
	-9.436002700233814e-04
15		8.115016463644180e-03
	1.260940424216837e+00
	1.092654684666508e+00
	-1.092654684666350e-03
16		9.115016463644180e-03
	1.412295766032245e+00
	1.240928691950586e+00
	-1.240928691950138e-03
17		1.011501646364418e-02
	1.562257342435113e+00
	1.388170337402070e+00
	-1.388170337401462e-03
18		1.111501646364418e-02
	1.710677159454613e+00
	1.534160456452552e+00
	-1.534160456452938e-03
19		1.211501646364418e-02
	1.857408744650288e+00
	1.678701138165620e+00
	-1.678701138168037e-03
20		1.311501646364418e-02
	2.002307291662667e+00
	1.821608827713928e+00
	-1.821608827714982e-03
21		1.411501646364418e-02
	2.145229803119665e+00
	1.962710921087073e+00
	-1.962710921086241e-03
22		1.511501646364419e-02
	2.286035231757717e+00
	2.101843012486337e+00
	-2.101843012486171e-03
23		1.611501646364418e-02
	2.424584619618401e+00
	2.238847643493003e+00
	-2.238847643491582e-03
24		1.711501646364419e-02
	2.560741235183172e+00
	2.373572963076512e+00
	-2.373572963076498e-03
25		1.811501646364419e-02
	2.694370708310851e+00
	2.505872312427134e+00
	-2.505872312424273e-03
26		1.911501646364419e-02
	2.825341162844746e+00
	2.635603491334152e+00
	-2.635603491334848e-03
27		2.011501646364419e-02
	2.953523346758486e+00
	2.762628698077417e+00
	-2.762628698079084e-03
28		2.111501646364419e-02
	3.078790759712171e+00
	2.886814086194904e+00
	-2.886814086195955e-03
29		2.211501646364419e-02
	3.201019777892932e+00
	3.008029865799895e+00
	-3.008029865801731e-03
30		2.311501646364419e-02
	3.320089776016715e+00
	3.126150012347420e+00
	-3.126150012345619e-03
31		2.411501646364419e-02
	3.435883246370865e+00
	3.241052443553773e+00
	-3.241052443556214e-03
32		2.511501646364419e-02
	3.548285914780058e+00
	3.352618813298800e+00
	-3.352618813295294e-03
33		2.611501646364419e-02
	3.657186853381114e+00
	3.460734723167912e+00
	-3.460734723173431e-03
34		2.711501646364419e-02
	3.762478590095401e+00
	3.565289566383941e+00
	-3.565289566381580e-03
35		2.811501646364420e-02
	3.864057214690810e+00
	3.666176753228712e+00
	-3.666176753228001e-03
36		2.911501646364420e-02
	3.961822481328601e+00
	3.763293585189055e+00
	-3.763293585187455e-03
37		3.011501646364420e-02
	4.055677907493945e+00
	3.856541483273488e+00
	-3.856541483276743e-03
38		3.111501646364420e-02
	4.145530869212520e+00
	3.945825880445855e+00
	-3.945825880450116e-03
39		3.211501646364420e-02
	4.231292692459188e+00
	4.031056446822479e+00
	-4.031056446823555e-03
40		3.311501646364420e-02
	4.312878740668558e+00
	4.112146992788541e+00
	-4.112146992788723e-03
41		3.411501646364420e-02
	4.390208498261049e+00
	4.189015687710975e+00
	-4.189015687707354e-03
42		3.511501646364420e-02
	4.463205650102051e+00
	4.261584968629535e+00
	-4.261584968631382e-03
43		3.611501646364420e-02
	4.531798156815751e+00
	4.329781750591025e+00
	-4.329781750588069e-03
44		3.711501646364420e-02
	4.595918325879296e+00
	4.393537337320666e+00
	-4.393537337321618e-03
45		3.811501646364420e-02
	4.655502878427141e+00
	4.452787622129494e+00
	-4.452787622135190e-03
46		3.911501646364420e-02
	4.710493011699653e+00
	4.507472997930885e+00
	-4.507472997929085e-03
47		4.011501646364420e-02
	4.760834457074331e+00
	4.557538548178363e+00
	-4.557538548176865e-03
48		4.111501646364420e-02
	4.806477533622386e+00
	4.602933954225557e+00
	-4.602933954224397e-03
49		4.211501646364420e-02
	4.847377197137821e+00
	4.643613676066487e+00
	-4.643613676069691e-03
50		4.311501646364421e-02
	4.883493084590621e+00
	4.679536855472310e+00
	-4.679536855473287e-03
51		4.411501646364421e-02
	4.914789553960198e+00
	4.710667486512656e+00
	-4.710667486513387e-03
52		4.511501646364421e-02
	4.941235719409748e+00
	4.736974313212677e+00
	-4.736974313214404e-03
53		4.611501646364421e-02
	4.962805481766858e+00
	4.758430989979296e+00
	-4.758430989976858e-03
54		4.711501646364421e-02
	4.979477554280233e+00
	4.775015972751232e+00
	-4.775015972743546e-03
55		4.811501646364421e-02
	4.991235483627142e+00
	4.786712669565393e+00
	-4.786712669563542e-03
56		4.911501646364421e-02
	4.998067666150875e+00
	4.793509324348035e+00
	-4.793509324350964e-03
57		5.011501646364421e-02
	4.999967359312139e+00
	4.795399157951114e+00
	-4.795399157949021e-03
58		5.111501646364421e-02
	4.996932688343136e+00
	4.792380243871797e+00
	-4.792380243866745e-03
59		5.211501646364421e-02
	4.988966648097734e+00
	4.784455640177453e+00
	-4.784455640177043e-03
60		5.311501646364421e-02
	4.976077100095901e+00
	4.771633256555488e+00
	-4.771633256556385e-03
61		5.411501646364422e-02
	4.958276764765344e+00
	4.753925977636838e+00
	-4.753925977635021e-03
62		5.511501646364422e-02
	4.935583208887970e+00
	4.731351520876985e+00
	-4.731351520877780e-03
63		5.611501646364422e-02
	4.908018828263607e+00
	4.703932551888511e+00
	-4.703932551890944e-03
64		5.711501646364422e-02
	4.875610825608042e+00
	4.671696532744495e+00
	-4.671696532746239e-03
65		5.811501646364422e-02
	4.838391183707230e+00
	4.634675830047920e+00
	-4.634675830043733e-03
66		5.911501646364422e-02
	4.796396633854146e+00
	4.592907553337406e+00
	-4.592907553334413e-03
67		6.011501646364422e-02
	4.749668619599430e+00
	4.546433656764313e+00
	-4.546433656766879e-03
68		6.111501646364422e-02
	4.698253255851613e+00
	4.495300767376176e+00
	-4.495300767381138e-03
69		6.211501646364422e-02
	4.642201283367259e+00
	4.439560281453354e+00
	-4.439560281451094e-03
70		6.311501646364422e-02
	4.581568018675975e+00
	4.379268182559414e+00
	-4.379268182553631e-03
71		6.411501646364422e-02
	4.516413299489667e+00
	4.314485133826627e+00
	-4.314485133821933e-03
72		6.511501646364422e-02
	4.446801425649950e+00
	4.245276285812507e+00
	-4.245276285814725e-03
73		6.611501646364422e-02
	4.372801095671957e+00
	4.171711366346172e+00
	-4.171711366346642e-03
74		6.711501646364422e-02
	4.294485338947212e+00
	4.093864478445499e+00
	-4.093864478441844e-03
75		6.811501646364422e-02
	4.211931443672422e+00
	4.011814189790986e+00
	-4.011814189791352e-03
76		6.911501646364422e-02
	4.125220880575375e+00
	3.925643321288304e+00
	-3.925643321288419e-03
77		7.011501646364422e-02
	4.034439222513153e+00
	3.835439038901318e+00
	-3.835439038898159e-03
78		7.111501646364422e-02
	3.939676060022059e+00
	3.741292633978170e+00
	-3.741292633979043e-03
79		7.211501646364422e-02
	3.841024912902579e+00
	3.643299621186784e+00
	-3.643299621185037e-03
80		7.311501646364423e-02
	3.738583137926621e+00
	3.541559512620234e+00
	-3.541559512619585e-03
81		7.411501646364423e-02
	3.632451832758143e+00
	3.436175927182570e+00
	-3.436175927184593e-03
82		7.511501646364423e-02
	3.522735736181955e+00
	3.327256362056032e+00
	-3.327256362052111e-03
83		7.611501646364423e-02
	3.409543124739197e+00
	3.214912321546640e+00
	-3.214912321547914e-03
84		7.711501646364423e-02
	3.292985705871450e+00
	3.099259092333764e+00
	-3.099259092333995e-03
85		7.811501646364423e-02
	3.173178507678992e+00
	2.980415904420283e+00
	-2.980415904419331e-03
86		7.911501646364423e-02
	3.050239765401936e+00
	2.858505721938559e+00
	-2.858505721937021e-03
87		8.011501646364423e-02
	2.924290804736341e+00
	2.733655457372071e+00
	-2.733655457369366e-03
88		8.111501646364423e-02
	2.795455922100377e+00
	2.605995800277913e+00
	-2.605995800276872e-03
89		8.211501646364423e-02
	2.663862261968784e+00
	2.475661522606837e+00
	-2.475661522607808e-03
90		8.311501646364423e-02
	2.529639691396617e+00
	2.342791389852229e+00
	-2.342791389851939e-03
91		8.411501646364423e-02
	2.392920671856141e+00
	2.207528630270504e+00
	-2.207528630268740e-03
92		8.511501646364424e-02
	2.253840128513358e+00
	2.070021022637428e+00
	-2.070021022635871e-03
93		8.611501646364424e-02
	2.112535317073147e+00
	1.930421682097157e+00
	-1.930421682097005e-03
94		8.711501646364424e-02
	1.969145688324467e+00
	1.788889540182069e+00
	-1.788889540181415e-03
95		8.811501646364424e-02
	1.823812750519248e+00
	1.645590802690220e+00
	-1.645590802690222e-03
96		8.911501646364424e-02
	1.676679929720851e+00
	1.500700369584679e+00
	-1.500700369584607e-03
97		9.011501646364424e-02
	1.527892428259838e+00
	1.354404906714628e+00
	-1.354404906713569e-03
98		9.111501646364424e-02
	1.377597081436823e+00
	1.206906803571700e+00
	-1.206906803572494e-03
99		9.211501646364424e-02
	1.225942212613739e+00
	1.058431821594678e+00
	-1.058431821595818e-03
100		9.311501646364424e-02
	1.073077486836605e+00
	9.092412557088899e-01
	-9.092412557079044e-04
101		9.411501646364424e-02
	9.191537631341756e-01
	7.596560253485853e-01
	-7.596560253491091e-04
102		9.511501646364424e-02
	7.643229456383137e-01
	6.101039192170824e-01
	-6.101039192172308e-04
103		9.611501646364425e-02
	6.087378336729343e-01
	4.612291221604743e-01
	-4.612291221608444e-04
104		9.711501646364425e-02
	4.525519709595269e-01
	3.141813051379225e-01
	-3.141813051379394e-04
105		9.811501646364425e-02
	2.959194940880461e-01
	1.720952748817646e-01
	-1.720952748822668e-04
106		9.911501646364425e-02
	1.389949804026918e-01
	4.633294529563554e-02
	-4.633294529565735e-05
107		1.001150164636442e-01
	-1.806670454725048e-02
	-5.288547741919307e-04
	5.288547741816307e-07
108		1.011150164636442e-01
	-1.751105598410265e-01
	-9.983721519764052e-04
	9.983721518391775e-07
109		1.021150164636443e-01
	-3.319816021535913e-01
	-1.005993189510516e-03
	1.005993189417964e-06
110		1.031150164636443e-01
	-4.885250187054573e-01
	-1.000070626457517e-03
	1.000070626311356e-06
111		1.041150164636443e-01
	-6.445863200441990e-01
	-1.005374553608553e-03
	1.005374553830762e-06
112		1.051150164636443e-01
	-8.000114925069088e-01
	-9.994329553680576e-04
	9.994329546181291e-07
113		1.061150164636443e-01
	-9.546471502130702e-01
	-1.004834238305914e-03
	1.004834238038654e-06
114		1.071150164636443e-01
	-1.108340686437921e+00
	-9.989802162570639e-04
	9.989802158827388e-07
115		1.081150164636443e-01
	-1.260940424216847e+00
	-1.004446870666534e-03
	1.004446871455400e-06
116		1.091150164636443e-01
	-1.412295766032256e+00
	-9.986442249029657e-04
	9.986442250919936e-07
117		1.101150164636443e-01
	-1.562257342435124e+00
	-1.004148737899822e-03
	1.004148739269795e-06
118		1.111150164636443e-01
	-1.710677159454622e+00
	-9.983772790585121e-04
	9.983772795152390e-07
119		1.121150164636443e-01
	-1.857408744650298e+00
	-1.003905031686814e-03
	1.003905033769570e-06
120		1.131150164636443e-01
	-2.002307291662677e+00
	-9.981538004573817e-04
	9.981537996139878e-07
121		1.141150164636443e-01
	-2.145229803119675e+00
	-1.003696613306977e-03
	1.003696613821603e-06
122		1.151150164636443e-01
	-2.286035231757725e+00
	-9.979592331622478e-04
	9.979592352493682e-07
123		1.161150164636443e-01
	-2.424584619618412e+00
	-1.003512204275896e-03
	1.003512204889034e-06
124		1.171150164636443e-01
	-2.560741235183181e+00
	-9.977847180250154e-04
	9.977847206243950e-07
125		1.181150164636443e-01
	-2.694370708310862e+00
	-1.003344735186912e-03
	1.003344737071643e-06
126		1.191150164636443e-01
	-2.825341162844755e+00
	-9.976245554115493e-04
	9.976245571863274e-07
127		1.201150164636443e-01
	-2.953523346758496e+00
	-1.003189549654618e-03
	1.003189549209083e-06
128		1.211150164636443e-01
	-3.078790759712180e+00
	-9.974749127389651e-04
	9.974749115571058e-07
129		1.221150164636443e-01
	-3.201019777892942e+00
	-1.003043457381488e-03
	1.003043458069897e-06
130		1.231150164636443e-01
	-3.320089776016723e+00
	-9.973331206129192e-04
	9.973331227541848e-07
131		1.241150164636443e-01
	-3.435883246370872e+00
	-1.002904202658225e-03
	1.002904202351829e-06
132		1.251150164636443e-01
	-3.548285914780066e+00
	-9.971972666541760e-04
	9.971972652067507e-07
133		1.261150164636443e-01
	-3.657186853381119e+00
	-1.002770149693701e-03
	1.002770151359300e-06
134		1.271150164636443e-01
	-3.762478590095410e+00
	-9.970659493187977e-04
	9.970659498037548e-07
135		1.281150164636443e-01
	-3.864057214690815e+00
	-1.002640087700322e-03
	1.002640086511519e-06
136		1.291150164636443e-01
	-3.961822481328607e+00
	-9.969381223301707e-04
	9.969381267183053e-07
137		1.301150164636443e-01
	-4.055677907493950e+00
	-1.002513105401201e-03
	1.002513101866498e-06
138		1.311150164636443e-01
	-4.145530869212527e+00
	-9.968129927763673e-04
	9.968129965898243e-07
139		1.321150164636443e-01
	-4.231292692459193e+00
	-1.002388507479806e-03
	1.002388508197782e-06
140		1.331150164636443e-01
	-4.312878740668563e+00
	-9.966899522300271e-04
	9.966899519042727e-07
141		1.341150164636443e-01
	-4.390208498261053e+00
	-1.002265757282568e-03
	1.002265758387466e-06
142		1.351150164636443e-01
	-4.463205650102057e+00
	-9.965685288645749e-04
	9.965685237034450e-07
143		1.361150164636443e-01
	-4.531798156815753e+00
	-1.002144436458897e-03
	1.002144436768049e-06
144		1.371150164636443e-01
	-4.595918325879300e+00
	-9.964483532984660e-04
	9.964483496105458e-07
145		1.381150164636443e-01
	-4.655502878427145e+00
	-1.002024215812971e-03
	1.002024220042586e-06
146		1.391150164636443e-01
	-4.710493011699658e+00
	-9.963291336286509e-04
	9.963291347503400e-07
147		1.401150164636443e-01
	-4.760834457074333e+00
	-1.001904833736941e-03
	1.001904838204837e-06
148		1.411150164636443e-01
	-4.806477533622389e+00
	-9.962106367332113e-04
	9.962106339855836e-07
149		1.421150164636443e-01
	-4.847377197137823e+00
	-1.001786079856476e-03
	1.001786078091982e-06
150		1.431150164636443e-01
	-4.883493084590625e+00
	-9.960926739109666e-04
	9.960926661278791e-07
151		1.441150164636443e-01
	-4.914789553960198e+00
	-1.001667782298973e-03
	1.001667779831905e-06
152		1.451150164636443e-01
	-4.941235719409748e+00
	-9.959750895431017e-04
	9.959750890686792e-07
153		1.461150164636443e-01
	-4.962805481766860e+00
	-1.001549797486528e-03
	1.001549801316060e-06
154		1.471150164636443e-01
	-4.979477554280233e+00
	-9.958577518544278e-04
	9.958577535940094e-07
155		1.481150164636443e-01
	-4.991235483627142e+00
	-1.001432001670303e-03
	1.001432000435898e-06
156		1.491150164636443e-01
	-4.998067666150876e+00
	-9.957405451036948e-04
	9.957405460170321e-07
157		1.501150164636443e-01
	-4.999967359312139e+00
	-1.001314283624518e-03
	1.001314284820864e-06
158		1.511150164636443e-01
	-4.996932688343136e+00
	-9.956233626926584e-04
	9.956233633090505e-07
159		1.521150164636443e-01
	-4.988966648097733e+00
	-1.001196538044702e-03
	1.001196540784122e-06
160		1.531150164636443e-01
	-4.976077100095901e+00
	-9.955061007814057e-04
	9.955060988886544e-07
161		1.541150164636443e-01
	-4.958276764765343e+00
	-1.001078659268278e-03
	1.001078658191545e-06
162		1.551150164636443e-01
	-4.935583208887969e+00
	-9.953886520493633e-04
	9.953886532798606e-07
163		1.561150164636443e-01
	-4.908018828263605e+00
	-1.000960534968150e-03
	1.000960537567153e-06
164		1.571150164636443e-01
	-4.875610825608040e+00
	-9.952708992559088e-04
	9.952708985849767e-07
165		1.581150164636443e-01
	-4.838391183707228e+00
	-1.000842039466938e-03
	1.000842036802396e-06
166		1.591150164636443e-01
	-4.796396633854142e+00
	-9.951527082338568e-04
	9.951527104590241e-07
167		1.601150164636443e-01
	-4.749668619599428e+00
	-1.000723026280365e-03
	1.000723027999584e-06
168		1.611150164636443e-01
	-4.698253255851609e+00
	-9.950339198898641e-04
	9.950339183717460e-07
169		1.621150164636443e-01
	-4.642201283367256e+00
	-1.000603319416458e-03
	1.000603315759463e-06
170		1.631150164636443e-01
	-4.581568018675970e+00
	-9.949143406781931e-04
	9.949143375820313e-07
171		1.641150164636443e-01
	-4.516413299489662e+00
	-1.000482702819034e-03
	1.000482704682781e-06
172		1.651150164636443e-01
	-4.446801425649944e+00
	-9.947937308394229e-04
	9.947937300580634e-07
173		1.661150164636443e-01
	-4.372801095671953e+00
	-1.000360907124179e-03
	1.000360903447017e-06
174		1.671150164636443e-01
	-4.294485338947204e+00
	-9.946717894210961e-04
	9.946717902664659e-07
175		1.681150164636443e-01
	-4.211931443672416e+00
	-1.000237592554861e-03
	1.000237592307940e-06
176		1.691150164636443e-01
	-4.125220880575366e+00
	-9.945481346673192e-04
	9.945481380668753e-07
177		1.701150164636443e-01
	-4.034439222513146e+00
	-1.000112326238389e-03
	1.000112327176339e-06
178		1.711150164636443e-01
	-3.939676060022051e+00
	-9.944222776833297e-04
	9.944222760793764e-07
179		1.721150164636443e-01
	-3.841024912902571e+00
	-9.999845513676802e-04
	9.999845502761673e-07
180		1.731150164636443e-01
	-3.738583137926611e+00
	-9.942935861805297e-04
	9.942935896845029e-07
181		1.741150164636443e-01
	-3.632451832758136e+00
	-9.998535442139400e-04
	9.998535439592615e-07
182		1.751150164636443e-01
	-3.522735736181946e+00
	-9.941612332814475e-04
	9.941612368891128e-07
183		1.761150164636443e-01
	-3.409543124739191e+00
	-9.997183526173179e-04
	9.997183507692853e-07
184		1.771150164636443e-01
	-3.292985705871442e+00
	-9.940241232361949e-04
	9.940241270101069e-07
185		1.781150164636443e-01
	-3.173178507678984e+00
	-9.995777054294644e-04
	9.995777059401689e-07
186		1.791150164636443e-01
	-3.050239765401926e+00
	-9.938807803387374e-04
	9.938807821185947e-07
187		1.801150164636443e-01
	-2.924290804736334e+00
	-9.994298748379361e-04
	9.994298757476372e-07
188		1.811150164636443e-01
	-2.795455922100368e+00
	-9.937291769884851e-04
	9.937291753914224e-07
189		1.821150164636443e-01
	-2.663862261968775e+00
	-9.992724591206346e-04
	9.992724603336001e-07
190		1.831150164636443e-01
	-2.529639691396604e+00
	-9.935664565742435e-04
	9.935664557758628e-07
191		1.841150164636443e-01
	-2.392920671856133e+00
	-9.991020243306865e-04
	9.991020224475733e-07
192		1.851150164636443e-01
	-2.253840128513346e+00
	-9.933884645262410e-04
	9.933884630441980e-07
193		1.861150164636443e-01
	-2.112535317073138e+00
	-9.989134804488070e-04
	9.989134781562825e-07
194		1.871150164636443e-01
	-1.969145688324453e+00
	-9.931889052141800e-04
	9.931889053405030e-07
195		1.881150164636443e-01
	-1.823812750519240e+00
	-9.986989183793686e-04
	9.986989173427219e-07
196		1.891150164636443e-01
	-1.676679929720839e+00
	-9.929577031649994e-04
	9.929577027278924e-07
197		1.901150164636443e-01
	-1.527892428259828e+00
	-9.984452372061691e-04
	9.984452367106655e-07
198		1.911150164636443e-01
	-1.377597081436809e+00
	-9.926774619660058e-04
	9.926774611201949e-07
199		1.921150164636443e-01
	-1.225942212613731e+00
	-9.981286497310275e-04
	9.981286499538555e-07
200		1.931150164636443e-01
	-1.073077486836592e+00
	-9.923145275200754e-04
	9.923145274370881e-07
201		1.941150164636443e-01
	-9.191537631341653e-01
	-9.976991983495674e-04
	9.976991970361837e-07
202		1.951150164636443e-01
	-7.643229456382989e-01
	-9.917897657435793e-04
	9.917897658695551e-07
