* c:\users\mamat\onedrive\documents\final_project_files\device_modelling\2n5401\bjt_cb_config_input_char_2n5401\bjt_cb_config_input_char_2n5401.cir
DC transfer characteristic  Tue Jun 24 16:07:14  2025
--------------------------------------------------------------------------------
Index   v-sweep         v1#branch       v2#branch       v_u_ic1#branch  
--------------------------------------------------------------------------------
0	0.000000e+00	1.810895e-30	1.482417e-31	-1.48242e-31	
1	5.000000e-02	-4.15234e-14	-1.22037e-13	1.220366e-13	
2	1.000000e-01	-1.00446e-12	-1.44801e-12	1.448010e-12	
3	1.500000e-01	-7.06882e-12	-8.70888e-12	8.708881e-12	
4	2.000000e-01	-4.89798e-11	-5.54767e-11	5.547671e-11	
5	2.500000e-01	-3.38624e-10	-3.65678e-10	3.656777e-10	
6	3.000000e-01	-2.34019e-09	-2.45714e-09	2.457141e-09	
7	3.500000e-01	-1.61643e-08	-1.66906e-08	1.669056e-08	
8	4.000000e-01	-1.11293e-07	-1.13778e-07	1.137777e-07	
9	4.500000e-01	-7.49931e-07	-7.62183e-07	7.621829e-07	
10	5.000000e-01	-4.47960e-06	-4.53763e-06	4.537631e-06	
11	5.500000e-01	-1.81389e-05	-1.83430e-05	1.834297e-05	
12	6.000000e-01	-4.46053e-05	-4.50716e-05	4.507163e-05	
13	6.500000e-01	-7.93430e-05	-8.01396e-05	8.013960e-05	
14	7.000000e-01	-1.18583e-04	-1.19744e-04	1.197436e-04	
15	7.500000e-01	-1.60267e-04	-1.61809e-04	1.618089e-04	
16	8.000000e-01	-2.03710e-04	-2.05645e-04	2.056452e-04	
17	8.500000e-01	-2.48218e-04	-2.50553e-04	2.505529e-04	
18	9.000000e-01	-2.93472e-04	-2.96211e-04	2.962106e-04	
19	9.500000e-01	-3.39291e-04	-3.42440e-04	3.424395e-04	
20	1.000000e+00	-3.85537e-04	-3.89110e-04	3.891099e-04	
21	1.050000e+00	-4.32040e-04	-4.36118e-04	4.361177e-04	
22	1.100000e+00	-4.78283e-04	-4.83329e-04	4.833287e-04	
23	1.150000e+00	-5.21994e-04	-5.30386e-04	5.303862e-04	
24	1.200000e+00	-5.57250e-04	-5.76568e-04	5.765683e-04	
25	1.250000e+00	-5.81064e-04	-6.21822e-04	6.218224e-04	
26	1.300000e+00	-5.96813e-04	-6.66865e-04	6.668645e-04	
27	1.350000e+00	-6.08045e-04	-7.12151e-04	7.121505e-04	
28	1.400000e+00	-6.16754e-04	-7.57812e-04	7.578124e-04	
29	1.450000e+00	-6.23629e-04	-8.03834e-04	8.038335e-04	
30	1.500000e+00	-6.29385e-04	-8.50188e-04	8.501881e-04	
31	1.550000e+00	-6.34359e-04	-8.96833e-04	8.968327e-04	
32	1.600000e+00	-6.38734e-04	-9.43726e-04	9.437256e-04	
33	1.650000e+00	-6.42643e-04	-9.90832e-04	9.908317e-04	
34	1.700000e+00	-6.46183e-04	-1.03812e-03	1.038122e-03	
35	1.750000e+00	-6.49423e-04	-1.08557e-03	1.085572e-03	
36	1.800000e+00	-6.52414e-04	-1.13316e-03	1.133163e-03	
37	1.850000e+00	-6.55197e-04	-1.18088e-03	1.180876e-03	
38	1.900000e+00	-6.57802e-04	-1.22870e-03	1.228699e-03	
39	1.950000e+00	-6.60255e-04	-1.27662e-03	1.276619e-03	
40	2.000000e+00	-6.62575e-04	-1.32463e-03	1.324626e-03	
41	2.050000e+00	-6.64778e-04	-1.37271e-03	1.372711e-03	
42	2.100000e+00	-6.66879e-04	-1.42087e-03	1.420867e-03	
43	2.150000e+00	-6.68889e-04	-1.46909e-03	1.469088e-03	
44	2.200000e+00	-6.70817e-04	-1.51737e-03	1.517367e-03	
45	2.250000e+00	-6.72671e-04	-1.56570e-03	1.565699e-03	
46	2.300000e+00	-6.74458e-04	-1.61408e-03	1.614081e-03	
47	2.350000e+00	-6.76185e-04	-1.66251e-03	1.662509e-03	
48	2.400000e+00	-6.77857e-04	-1.71098e-03	1.710978e-03	
49	2.450000e+00	-6.79478e-04	-1.75949e-03	1.759487e-03	
50	2.500000e+00	-6.81052e-04	-1.80803e-03	1.808031e-03	
51	2.550000e+00	-6.82584e-04	-1.85661e-03	1.856609e-03	
52	2.600000e+00	-6.84076e-04	-1.90522e-03	1.905219e-03	
53	2.650000e+00	-6.85531e-04	-1.95386e-03	1.953858e-03	
54	2.700000e+00	-6.86952e-04	-2.00252e-03	2.002524e-03	

Index   v-sweep         v1#branch       v2#branch       v_u_ic1#branch  
--------------------------------------------------------------------------------
55	2.750000e+00	-6.88340e-04	-2.05122e-03	2.051217e-03	
56	2.800000e+00	-6.89699e-04	-2.09993e-03	2.099933e-03	
57	2.850000e+00	-6.91030e-04	-2.14867e-03	2.148673e-03	
58	2.900000e+00	-6.92335e-04	-2.19743e-03	2.197435e-03	
59	2.950000e+00	-6.93615e-04	-2.24622e-03	2.246217e-03	
60	3.000000e+00	-6.94872e-04	-2.29502e-03	2.295018e-03	
61	3.050000e+00	-6.96107e-04	-2.34384e-03	2.343838e-03	
62	3.100000e+00	-6.97321e-04	-2.39268e-03	2.392675e-03	
63	3.150000e+00	-6.98515e-04	-2.44153e-03	2.441529e-03	
64	3.200000e+00	-6.99691e-04	-2.49040e-03	2.490399e-03	
65	3.250000e+00	-7.00849e-04	-2.53928e-03	2.539284e-03	
66	3.300000e+00	-7.01991e-04	-2.58818e-03	2.588183e-03	
67	3.350000e+00	-7.03116e-04	-2.63710e-03	2.637097e-03	
68	3.400000e+00	-7.04226e-04	-2.68602e-03	2.686023e-03	
69	3.450000e+00	-7.05322e-04	-2.73496e-03	2.734962e-03	
70	3.500000e+00	-7.06404e-04	-2.78391e-03	2.783913e-03	
71	3.550000e+00	-7.07472e-04	-2.83288e-03	2.832875e-03	
72	3.600000e+00	-7.08528e-04	-2.88185e-03	2.881849e-03	
73	3.650000e+00	-7.09572e-04	-2.93083e-03	2.930833e-03	
74	3.700000e+00	-7.10604e-04	-2.97983e-03	2.979827e-03	
75	3.750000e+00	-7.11625e-04	-3.02883e-03	3.028832e-03	
76	3.800000e+00	-7.12635e-04	-3.07785e-03	3.077846e-03	
77	3.850000e+00	-7.13635e-04	-3.12687e-03	3.126869e-03	
78	3.900000e+00	-7.14625e-04	-3.17590e-03	3.175900e-03	
79	3.950000e+00	-7.15605e-04	-3.22494e-03	3.224941e-03	
80	4.000000e+00	-7.16577e-04	-3.27399e-03	3.273989e-03	
81	4.050000e+00	-7.17539e-04	-3.32305e-03	3.323045e-03	
82	4.100000e+00	-7.18493e-04	-3.37211e-03	3.372109e-03	
83	4.150000e+00	-7.19439e-04	-3.42118e-03	3.421181e-03	
84	4.200000e+00	-7.20377e-04	-3.47026e-03	3.470259e-03	
85	4.250000e+00	-7.21307e-04	-3.51934e-03	3.519345e-03	
86	4.300000e+00	-7.22229e-04	-3.56844e-03	3.568437e-03	
87	4.350000e+00	-7.23145e-04	-3.61754e-03	3.617536e-03	
88	4.400000e+00	-7.24054e-04	-3.66664e-03	3.666641e-03	
89	4.450000e+00	-7.24955e-04	-3.71575e-03	3.715752e-03	
90	4.500000e+00	-7.25851e-04	-3.76487e-03	3.764869e-03	
91	4.550000e+00	-7.26740e-04	-3.81399e-03	3.813991e-03	
92	4.600000e+00	-7.27623e-04	-3.86312e-03	3.863120e-03	
93	4.650000e+00	-7.28500e-04	-3.91225e-03	3.912253e-03	
94	4.700000e+00	-7.29371e-04	-3.96139e-03	3.961392e-03	
95	4.750000e+00	-7.30236e-04	-4.01054e-03	4.010536e-03	
96	4.800000e+00	-7.31097e-04	-4.05969e-03	4.059685e-03	
97	4.850000e+00	-7.31952e-04	-4.10884e-03	4.108839e-03	
98	4.900000e+00	-7.32801e-04	-4.15800e-03	4.157998e-03	
99	4.950000e+00	-7.33646e-04	-4.20716e-03	4.207161e-03	
100	5.000000e+00	-7.34486e-04	-4.25633e-03	4.256329e-03	
101	5.050000e+00	-7.35321e-04	-4.30550e-03	4.305501e-03	
102	5.100000e+00	-7.36152e-04	-4.35468e-03	4.354677e-03	
103	5.150000e+00	-7.36978e-04	-4.40386e-03	4.403858e-03	
104	5.200000e+00	-7.37800e-04	-4.45304e-03	4.453042e-03	
105	5.250000e+00	-7.38617e-04	-4.50223e-03	4.502231e-03	
106	5.300000e+00	-7.39431e-04	-4.55142e-03	4.551423e-03	
107	5.350000e+00	-7.40240e-04	-4.60062e-03	4.600619e-03	
108	5.400000e+00	-7.41045e-04	-4.64982e-03	4.649819e-03	
109	5.450000e+00	-7.41847e-04	-4.69902e-03	4.699022e-03	
110	5.500000e+00	-7.42645e-04	-4.74823e-03	4.748229e-03	
111	5.550000e+00	-7.43439e-04	-4.79744e-03	4.797439e-03	
112	5.600000e+00	-7.44229e-04	-4.84665e-03	4.846653e-03	

Index   v-sweep         v1#branch       v2#branch       v_u_ic1#branch  
--------------------------------------------------------------------------------
113	5.650000e+00	-7.45016e-04	-4.89587e-03	4.895870e-03	
114	5.700000e+00	-7.45800e-04	-4.94509e-03	4.945090e-03	
115	5.750000e+00	-7.46580e-04	-4.99431e-03	4.994313e-03	
116	5.800000e+00	-7.47357e-04	-5.04354e-03	5.043539e-03	
117	5.850000e+00	-7.48131e-04	-5.09277e-03	5.092768e-03	
118	5.900000e+00	-7.48901e-04	-5.14200e-03	5.142000e-03	
119	5.950000e+00	-7.49669e-04	-5.19124e-03	5.191235e-03	
120	6.000000e+00	-7.50433e-04	-5.24047e-03	5.240473e-03	
121	6.050000e+00	-7.51195e-04	-5.28971e-03	5.289714e-03	
122	6.100000e+00	-7.51954e-04	-5.33896e-03	5.338957e-03	
123	6.150000e+00	-7.52710e-04	-5.38820e-03	5.388203e-03	
124	6.200000e+00	-7.53463e-04	-5.43745e-03	5.437451e-03	
125	6.250000e+00	-7.54214e-04	-5.48670e-03	5.486702e-03	
126	6.300000e+00	-7.54962e-04	-5.53596e-03	5.535956e-03	
127	6.350000e+00	-7.55707e-04	-5.58521e-03	5.585212e-03	
128	6.400000e+00	-7.56450e-04	-5.63447e-03	5.634470e-03	
129	6.450000e+00	-7.57190e-04	-5.68373e-03	5.683731e-03	
130	6.500000e+00	-7.57928e-04	-5.73299e-03	5.732994e-03	
131	6.550000e+00	-7.58663e-04	-5.78226e-03	5.782259e-03	
132	6.600000e+00	-7.59396e-04	-5.83153e-03	5.831527e-03	
133	6.650000e+00	-7.60127e-04	-5.88080e-03	5.880797e-03	
134	6.700000e+00	-7.60856e-04	-5.93007e-03	5.930069e-03	
135	6.750000e+00	-7.61582e-04	-5.97934e-03	5.979343e-03	
136	6.800000e+00	-7.62306e-04	-6.02862e-03	6.028619e-03	
137	6.850000e+00	-7.63028e-04	-6.07790e-03	6.077897e-03	
138	6.900000e+00	-7.63748e-04	-6.12718e-03	6.127177e-03	
139	6.950000e+00	-7.64466e-04	-6.17646e-03	6.176459e-03	
140	7.000000e+00	-7.65182e-04	-6.22574e-03	6.225743e-03	
141	7.050000e+00	-7.65895e-04	-6.27503e-03	6.275028e-03	
142	7.100000e+00	-7.66607e-04	-6.32432e-03	6.324316e-03	
143	7.150000e+00	-7.67317e-04	-6.37361e-03	6.373606e-03	
144	7.200000e+00	-7.68025e-04	-6.42290e-03	6.422897e-03	
145	7.250000e+00	-7.68731e-04	-6.47219e-03	6.472190e-03	
146	7.300000e+00	-7.69436e-04	-6.52148e-03	6.521485e-03	
147	7.350000e+00	-7.70138e-04	-6.57078e-03	6.570781e-03	
148	7.400000e+00	-7.70839e-04	-6.62008e-03	6.620080e-03	
149	7.450000e+00	-7.71538e-04	-6.66938e-03	6.669380e-03	
150	7.500000e+00	-7.72236e-04	-6.71868e-03	6.718681e-03	
151	7.550000e+00	-7.72931e-04	-6.76798e-03	6.767984e-03	
152	7.600000e+00	-7.73625e-04	-6.81729e-03	6.817289e-03	
153	7.650000e+00	-7.74318e-04	-6.86660e-03	6.866595e-03	
154	7.700000e+00	-7.75008e-04	-6.91590e-03	6.915903e-03	
155	7.750000e+00	-7.75698e-04	-6.96521e-03	6.965212e-03	
156	7.800000e+00	-7.76385e-04	-7.01452e-03	7.014523e-03	
157	7.850000e+00	-7.77071e-04	-7.06384e-03	7.063836e-03	
158	7.900000e+00	-7.77756e-04	-7.11315e-03	7.113149e-03	
159	7.950000e+00	-7.78439e-04	-7.16246e-03	7.162464e-03	
160	8.000000e+00	-7.79121e-04	-7.21178e-03	7.211781e-03	
161	8.050000e+00	-7.79801e-04	-7.26110e-03	7.261099e-03	
162	8.100000e+00	-7.80480e-04	-7.31042e-03	7.310418e-03	
163	8.150000e+00	-7.81157e-04	-7.35974e-03	7.359739e-03	
164	8.200000e+00	-7.81833e-04	-7.40906e-03	7.409061e-03	
165	8.250000e+00	-7.82508e-04	-7.45838e-03	7.458384e-03	
166	8.300000e+00	-7.83181e-04	-7.50771e-03	7.507709e-03	
167	8.350000e+00	-7.83853e-04	-7.55703e-03	7.557035e-03	
168	8.400000e+00	-7.84524e-04	-7.60636e-03	7.606362e-03	
169	8.450000e+00	-7.85193e-04	-7.65569e-03	7.655690e-03	
170	8.500000e+00	-7.85861e-04	-7.70502e-03	7.705020e-03	

Index   v-sweep         v1#branch       v2#branch       v_u_ic1#branch  
--------------------------------------------------------------------------------
171	8.550000e+00	-7.86528e-04	-7.75435e-03	7.754350e-03	
172	8.600000e+00	-7.87194e-04	-7.80368e-03	7.803682e-03	
173	8.650000e+00	-7.87858e-04	-7.85302e-03	7.853015e-03	
174	8.700000e+00	-7.88522e-04	-7.90235e-03	7.902350e-03	
175	8.750000e+00	-7.89184e-04	-7.95168e-03	7.951685e-03	
176	8.800000e+00	-7.89845e-04	-8.00102e-03	8.001021e-03	
177	8.850000e+00	-7.90504e-04	-8.05036e-03	8.050359e-03	
178	8.900000e+00	-7.91163e-04	-8.09970e-03	8.099698e-03	
179	8.950000e+00	-7.91821e-04	-8.14904e-03	8.149038e-03	
180	9.000000e+00	-7.92477e-04	-8.19838e-03	8.198378e-03	
181	9.050000e+00	-7.93132e-04	-8.24772e-03	8.247720e-03	
182	9.100000e+00	-7.93787e-04	-8.29706e-03	8.297063e-03	
183	9.150000e+00	-7.94440e-04	-8.34641e-03	8.346407e-03	
184	9.200000e+00	-7.95092e-04	-8.39575e-03	8.395752e-03	
185	9.250000e+00	-7.95743e-04	-8.44510e-03	8.445098e-03	
186	9.300000e+00	-7.96393e-04	-8.49445e-03	8.494445e-03	
187	9.350000e+00	-7.97042e-04	-8.54379e-03	8.543793e-03	
188	9.400000e+00	-7.97690e-04	-8.59314e-03	8.593142e-03	
189	9.450000e+00	-7.98338e-04	-8.64249e-03	8.642492e-03	
190	9.500000e+00	-7.98984e-04	-8.69184e-03	8.691843e-03	
191	9.550000e+00	-7.99629e-04	-8.74119e-03	8.741195e-03	
192	9.600000e+00	-8.00273e-04	-8.79055e-03	8.790547e-03	
193	9.650000e+00	-8.00916e-04	-8.83990e-03	8.839901e-03	
194	9.700000e+00	-8.01559e-04	-8.88926e-03	8.889255e-03	
195	9.750000e+00	-8.02200e-04	-8.93861e-03	8.938611e-03	
196	9.800000e+00	-8.02841e-04	-8.98797e-03	8.987967e-03	
197	9.850000e+00	-8.03480e-04	-9.03732e-03	9.037324e-03	
198	9.900000e+00	-8.04119e-04	-9.08668e-03	9.086682e-03	
199	9.950000e+00	-8.04757e-04	-9.13604e-03	9.136041e-03	
200	1.000000e+01	-8.05394e-04	-9.18540e-03	9.185401e-03	
201	0.000000e+00	-2.03719e-15	-8.14628e-16	8.146276e-16	
202	5.000000e-02	-4.35610e-14	-1.22852e-13	1.228517e-13	
203	1.000000e-01	-1.00651e-12	-1.44883e-12	1.448835e-12	
204	1.500000e-01	-7.07093e-12	-8.70977e-12	8.709766e-12	
205	2.000000e-01	-4.89823e-11	-5.54780e-11	5.547802e-11	
206	2.500000e-01	-3.38630e-10	-3.65682e-10	3.656819e-10	
207	3.000000e-01	-2.34021e-09	-2.45717e-09	2.457165e-09	
208	3.500000e-01	-1.61645e-08	-1.66907e-08	1.669072e-08	
209	4.000000e-01	-1.11294e-07	-1.13779e-07	1.137788e-07	
210	4.500000e-01	-7.49938e-07	-7.62190e-07	7.621902e-07	
211	5.000000e-01	-4.47963e-06	-4.53767e-06	4.537669e-06	
212	5.500000e-01	-1.81390e-05	-1.83431e-05	1.834307e-05	
213	6.000000e-01	-4.46055e-05	-4.50718e-05	4.507179e-05	
214	6.500000e-01	-7.93432e-05	-8.01398e-05	8.013979e-05	
215	7.000000e-01	-1.18583e-04	-1.19744e-04	1.197439e-04	
216	7.500000e-01	-1.60267e-04	-1.61809e-04	1.618092e-04	
217	8.000000e-01	-2.03710e-04	-2.05645e-04	2.056454e-04	
218	8.500000e-01	-2.48218e-04	-2.50553e-04	2.505531e-04	
219	9.000000e-01	-2.93472e-04	-2.96211e-04	2.962108e-04	
220	9.500000e-01	-3.39291e-04	-3.42440e-04	3.424398e-04	
221	1.000000e+00	-3.85538e-04	-3.89110e-04	3.891103e-04	
222	1.050000e+00	-4.32046e-04	-4.36119e-04	4.361188e-04	
223	1.100000e+00	-4.78313e-04	-4.83334e-04	4.833335e-04	
224	1.150000e+00	-5.22131e-04	-5.30406e-04	5.304064e-04	
225	1.200000e+00	-5.57631e-04	-5.76618e-04	5.766181e-04	
226	1.250000e+00	-5.81663e-04	-6.21891e-04	6.218906e-04	
227	1.300000e+00	-5.97540e-04	-6.66936e-04	6.669362e-04	
228	1.350000e+00	-6.08842e-04	-7.12219e-04	7.122192e-04	

Index   v-sweep         v1#branch       v2#branch       v_u_ic1#branch  
--------------------------------------------------------------------------------
229	1.400000e+00	-6.17597e-04	-7.57877e-04	7.578767e-04	
230	1.450000e+00	-6.24499e-04	-8.03893e-04	8.038930e-04	
231	1.500000e+00	-6.30275e-04	-8.50243e-04	8.502431e-04	
232	1.550000e+00	-6.35262e-04	-8.96884e-04	8.968839e-04	
233	1.600000e+00	-6.39648e-04	-9.43773e-04	9.437734e-04	
234	1.650000e+00	-6.43566e-04	-9.90877e-04	9.908766e-04	
235	1.700000e+00	-6.47113e-04	-1.03816e-03	1.038164e-03	
236	1.750000e+00	-6.50358e-04	-1.08561e-03	1.085613e-03	
237	1.800000e+00	-6.53354e-04	-1.13320e-03	1.133201e-03	
238	1.850000e+00	-6.56141e-04	-1.18091e-03	1.180913e-03	
239	1.900000e+00	-6.58749e-04	-1.22873e-03	1.228734e-03	
240	1.950000e+00	-6.61205e-04	-1.27665e-03	1.276653e-03	
241	2.000000e+00	-6.63527e-04	-1.32466e-03	1.324658e-03	
242	2.050000e+00	-6.65733e-04	-1.37274e-03	1.372742e-03	
243	2.100000e+00	-6.67836e-04	-1.42090e-03	1.420897e-03	
244	2.150000e+00	-6.69847e-04	-1.46912e-03	1.469117e-03	
245	2.200000e+00	-6.71777e-04	-1.51739e-03	1.517395e-03	
246	2.250000e+00	-6.73632e-04	-1.56573e-03	1.565727e-03	
247	2.300000e+00	-6.75421e-04	-1.61411e-03	1.614108e-03	
248	2.350000e+00	-6.77149e-04	-1.66253e-03	1.662535e-03	
249	2.400000e+00	-6.78822e-04	-1.71100e-03	1.711004e-03	
250	2.450000e+00	-6.80444e-04	-1.75951e-03	1.759511e-03	
251	2.500000e+00	-6.82019e-04	-1.80806e-03	1.808055e-03	
252	2.550000e+00	-6.83552e-04	-1.85663e-03	1.856633e-03	
253	2.600000e+00	-6.85044e-04	-1.90524e-03	1.905242e-03	
254	2.650000e+00	-6.86500e-04	-1.95388e-03	1.953880e-03	
255	2.700000e+00	-6.87922e-04	-2.00255e-03	2.002547e-03	
256	2.750000e+00	-6.89311e-04	-2.05124e-03	2.051239e-03	
257	2.800000e+00	-6.90671e-04	-2.09996e-03	2.099955e-03	
258	2.850000e+00	-6.92002e-04	-2.14869e-03	2.148695e-03	
259	2.900000e+00	-6.93307e-04	-2.19746e-03	2.197456e-03	
260	2.950000e+00	-6.94588e-04	-2.24624e-03	2.246237e-03	
261	3.000000e+00	-6.95845e-04	-2.29504e-03	2.295039e-03	
262	3.050000e+00	-6.97080e-04	-2.34386e-03	2.343858e-03	
263	3.100000e+00	-6.98295e-04	-2.39270e-03	2.392695e-03	
264	3.150000e+00	-6.99490e-04	-2.44155e-03	2.441549e-03	
265	3.200000e+00	-7.00666e-04	-2.49042e-03	2.490419e-03	
266	3.250000e+00	-7.01824e-04	-2.53930e-03	2.539303e-03	
267	3.300000e+00	-7.02966e-04	-2.58820e-03	2.588202e-03	
268	3.350000e+00	-7.04092e-04	-2.63712e-03	2.637115e-03	
269	3.400000e+00	-7.05202e-04	-2.68604e-03	2.686041e-03	
270	3.450000e+00	-7.06298e-04	-2.73498e-03	2.734980e-03	
271	3.500000e+00	-7.07380e-04	-2.78393e-03	2.783931e-03	
272	3.550000e+00	-7.08449e-04	-2.83289e-03	2.832893e-03	
273	3.600000e+00	-7.09505e-04	-2.88187e-03	2.881867e-03	
274	3.650000e+00	-7.10549e-04	-2.93085e-03	2.930851e-03	
275	3.700000e+00	-7.11582e-04	-2.97985e-03	2.979845e-03	
276	3.750000e+00	-7.12603e-04	-3.02885e-03	3.028849e-03	
277	3.800000e+00	-7.13613e-04	-3.07786e-03	3.077863e-03	
278	3.850000e+00	-7.14613e-04	-3.12689e-03	3.126886e-03	
279	3.900000e+00	-7.15604e-04	-3.17592e-03	3.175917e-03	
280	3.950000e+00	-7.16584e-04	-3.22496e-03	3.224958e-03	
281	4.000000e+00	-7.17556e-04	-3.27401e-03	3.274006e-03	
282	4.050000e+00	-7.18518e-04	-3.32306e-03	3.323062e-03	
283	4.100000e+00	-7.19472e-04	-3.37213e-03	3.372126e-03	
284	4.150000e+00	-7.20418e-04	-3.42120e-03	3.421197e-03	
285	4.200000e+00	-7.21356e-04	-3.47028e-03	3.470276e-03	
286	4.250000e+00	-7.22287e-04	-3.51936e-03	3.519361e-03	

Index   v-sweep         v1#branch       v2#branch       v_u_ic1#branch  
--------------------------------------------------------------------------------
287	4.300000e+00	-7.23209e-04	-3.56845e-03	3.568453e-03	
288	4.350000e+00	-7.24125e-04	-3.61755e-03	3.617552e-03	
289	4.400000e+00	-7.25034e-04	-3.66666e-03	3.666656e-03	
290	4.450000e+00	-7.25936e-04	-3.71577e-03	3.715767e-03	
291	4.500000e+00	-7.26831e-04	-3.76488e-03	3.764884e-03	
292	4.550000e+00	-7.27720e-04	-3.81401e-03	3.814007e-03	
293	4.600000e+00	-7.28603e-04	-3.86314e-03	3.863135e-03	
294	4.650000e+00	-7.29480e-04	-3.91227e-03	3.912269e-03	
295	4.700000e+00	-7.30352e-04	-3.96141e-03	3.961408e-03	
296	4.750000e+00	-7.31218e-04	-4.01055e-03	4.010552e-03	
297	4.800000e+00	-7.32078e-04	-4.05970e-03	4.059701e-03	
298	4.850000e+00	-7.32933e-04	-4.10885e-03	4.108855e-03	
299	4.900000e+00	-7.33783e-04	-4.15801e-03	4.158013e-03	
300	4.950000e+00	-7.34628e-04	-4.20718e-03	4.207176e-03	
301	5.000000e+00	-7.35468e-04	-4.25634e-03	4.256344e-03	
302	5.050000e+00	-7.36303e-04	-4.30552e-03	4.305516e-03	
303	5.100000e+00	-7.37134e-04	-4.35469e-03	4.354692e-03	
304	5.150000e+00	-7.37960e-04	-4.40387e-03	4.403873e-03	
305	5.200000e+00	-7.38782e-04	-4.45306e-03	4.453057e-03	
306	5.250000e+00	-7.39599e-04	-4.50225e-03	4.502245e-03	
307	5.300000e+00	-7.40413e-04	-4.55144e-03	4.551438e-03	
308	5.350000e+00	-7.41222e-04	-4.60063e-03	4.600634e-03	
309	5.400000e+00	-7.42028e-04	-4.64983e-03	4.649833e-03	
310	5.450000e+00	-7.42829e-04	-4.69904e-03	4.699037e-03	
311	5.500000e+00	-7.43627e-04	-4.74824e-03	4.748243e-03	
312	5.550000e+00	-7.44421e-04	-4.79745e-03	4.797453e-03	
313	5.600000e+00	-7.45212e-04	-4.84667e-03	4.846667e-03	
314	5.650000e+00	-7.45999e-04	-4.89588e-03	4.895884e-03	
315	5.700000e+00	-7.46782e-04	-4.94510e-03	4.945104e-03	
316	5.750000e+00	-7.47563e-04	-4.99433e-03	4.994327e-03	
317	5.800000e+00	-7.48340e-04	-5.04355e-03	5.043553e-03	
318	5.850000e+00	-7.49114e-04	-5.09278e-03	5.092782e-03	
319	5.900000e+00	-7.49884e-04	-5.14201e-03	5.142014e-03	
320	5.950000e+00	-7.50652e-04	-5.19125e-03	5.191249e-03	
321	6.000000e+00	-7.51417e-04	-5.24049e-03	5.240487e-03	
322	6.050000e+00	-7.52178e-04	-5.28973e-03	5.289728e-03	
323	6.100000e+00	-7.52937e-04	-5.33897e-03	5.338971e-03	
324	6.150000e+00	-7.53693e-04	-5.38822e-03	5.388217e-03	
325	6.200000e+00	-7.54446e-04	-5.43747e-03	5.437465e-03	
326	6.250000e+00	-7.55197e-04	-5.48672e-03	5.486716e-03	
327	6.300000e+00	-7.55945e-04	-5.53597e-03	5.535970e-03	
328	6.350000e+00	-7.56690e-04	-5.58523e-03	5.585226e-03	
329	6.400000e+00	-7.57433e-04	-5.63448e-03	5.634484e-03	
330	6.450000e+00	-7.58174e-04	-5.68374e-03	5.683745e-03	
