* c:\users\mamat\onedrive\documents\final_project_files\device_modelling\2n5401\bjt_cb_config_input_char_2n5401\bjt_cb_config_input_char_2n5401.cir
DC transfer characteristic  Tue Jun 24 16:07:14  2025
--------------------------------------------------------------------------------
Index   v-sweep         ie              net-_q1-pad1_   net-_q1-pad3_   
--------------------------------------------------------------------------------
0	0.000000e+00	0.000000e+00	-1.81090e-27	1.482417e-28	
1	5.000000e-02	5.000000e-02	4.152343e-11	5.000000e-02	
2	1.000000e-01	1.000000e-01	1.004459e-09	1.000000e-01	
3	1.500000e-01	1.500000e-01	7.068822e-09	1.500000e-01	
4	2.000000e-01	2.000000e-01	4.897981e-08	1.999999e-01	
5	2.500000e-01	2.500000e-01	3.386244e-07	2.499996e-01	
6	3.000000e-01	3.000000e-01	2.340185e-06	2.999975e-01	
7	3.500000e-01	3.500000e-01	1.616434e-05	3.499833e-01	
8	4.000000e-01	4.000000e-01	1.112932e-04	3.998862e-01	
9	4.500000e-01	4.500000e-01	7.499308e-04	4.492378e-01	
10	5.000000e-01	5.000000e-01	4.479597e-03	4.954624e-01	
11	5.500000e-01	5.500000e-01	1.813890e-02	5.316570e-01	
12	6.000000e-01	6.000000e-01	4.460535e-02	5.549284e-01	
13	6.500000e-01	6.500000e-01	7.934296e-02	5.698604e-01	
14	7.000000e-01	7.000000e-01	1.185827e-01	5.802564e-01	
15	7.500000e-01	7.500000e-01	1.602665e-01	5.881911e-01	
16	8.000000e-01	8.000000e-01	2.037099e-01	5.943548e-01	
17	8.500000e-01	8.500000e-01	2.482181e-01	5.994471e-01	
18	9.000000e-01	9.000000e-01	2.934716e-01	6.037894e-01	
19	9.500000e-01	9.500000e-01	3.392911e-01	6.075605e-01	
20	1.000000e+00	1.000000e+00	3.855367e-01	6.108901e-01	
21	1.050000e+00	1.050000e+00	4.320404e-01	6.138823e-01	
22	1.100000e+00	1.100000e+00	4.782832e-01	6.166713e-01	
23	1.150000e+00	1.150000e+00	5.219937e-01	6.196138e-01	
24	1.200000e+00	1.200000e+00	5.572499e-01	6.234317e-01	
25	1.250000e+00	1.250000e+00	5.810637e-01	6.281776e-01	
26	1.300000e+00	1.300000e+00	5.968134e-01	6.331355e-01	
27	1.350000e+00	1.350000e+00	6.080448e-01	6.378495e-01	
28	1.400000e+00	1.400000e+00	6.167543e-01	6.421876e-01	
29	1.450000e+00	1.450000e+00	6.236289e-01	6.461665e-01	
30	1.500000e+00	1.500000e+00	6.293855e-01	6.498119e-01	
31	1.550000e+00	1.550000e+00	6.343587e-01	6.531673e-01	
32	1.600000e+00	1.600000e+00	6.387337e-01	6.562744e-01	
33	1.650000e+00	1.650000e+00	6.426433e-01	6.591683e-01	
34	1.700000e+00	1.700000e+00	6.461832e-01	6.618780e-01	
35	1.750000e+00	1.750000e+00	6.494228e-01	6.644276e-01	
36	1.800000e+00	1.800000e+00	6.524141e-01	6.668372e-01	
37	1.850000e+00	1.850000e+00	6.551968e-01	6.691235e-01	
38	1.900000e+00	1.900000e+00	6.578021e-01	6.713008e-01	
39	1.950000e+00	1.950000e+00	6.602548e-01	6.733809e-01	
40	2.000000e+00	2.000000e+00	6.625747e-01	6.753740e-01	
41	2.050000e+00	2.050000e+00	6.647784e-01	6.772888e-01	
42	2.100000e+00	2.100000e+00	6.668793e-01	6.791327e-01	
43	2.150000e+00	2.150000e+00	6.688888e-01	6.809123e-01	
44	2.200000e+00	2.200000e+00	6.708165e-01	6.826333e-01	
45	2.250000e+00	2.250000e+00	6.726706e-01	6.843006e-01	
46	2.300000e+00	2.300000e+00	6.744580e-01	6.859186e-01	
47	2.350000e+00	2.350000e+00	6.761850e-01	6.874912e-01	
48	2.400000e+00	2.400000e+00	6.778566e-01	6.890218e-01	
49	2.450000e+00	2.450000e+00	6.794777e-01	6.905135e-01	
50	2.500000e+00	2.500000e+00	6.810522e-01	6.919690e-01	
51	2.550000e+00	2.550000e+00	6.825839e-01	6.933909e-01	
52	2.600000e+00	2.600000e+00	6.840758e-01	6.947814e-01	
53	2.650000e+00	2.650000e+00	6.855308e-01	6.961424e-01	
54	2.700000e+00	2.700000e+00	6.869516e-01	6.974759e-01	

Index   v-sweep         ie              net-_q1-pad1_   net-_q1-pad3_   
--------------------------------------------------------------------------------
55	2.750000e+00	2.750000e+00	6.883404e-01	6.987835e-01	
56	2.800000e+00	2.800000e+00	6.896994e-01	7.000667e-01	
57	2.850000e+00	2.850000e+00	6.910304e-01	7.013269e-01	
58	2.900000e+00	2.900000e+00	6.923351e-01	7.025654e-01	
59	2.950000e+00	2.950000e+00	6.936151e-01	7.037834e-01	
60	3.000000e+00	3.000000e+00	6.948719e-01	7.049820e-01	
61	3.050000e+00	3.050000e+00	6.961067e-01	7.061621e-01	
62	3.100000e+00	3.100000e+00	6.973208e-01	7.073248e-01	
63	3.150000e+00	3.150000e+00	6.985152e-01	7.084707e-01	
64	3.200000e+00	3.200000e+00	6.996911e-01	7.096009e-01	
65	3.250000e+00	3.250000e+00	7.008492e-01	7.107159e-01	
66	3.300000e+00	3.300000e+00	7.019906e-01	7.118166e-01	
67	3.350000e+00	3.350000e+00	7.031160e-01	7.129034e-01	
68	3.400000e+00	3.400000e+00	7.042262e-01	7.139772e-01	
69	3.450000e+00	3.450000e+00	7.053218e-01	7.150383e-01	
70	3.500000e+00	3.500000e+00	7.064036e-01	7.160873e-01	
71	3.550000e+00	3.550000e+00	7.074721e-01	7.171248e-01	
72	3.600000e+00	3.600000e+00	7.085280e-01	7.181512e-01	
73	3.650000e+00	3.650000e+00	7.095717e-01	7.191670e-01	
74	3.700000e+00	3.700000e+00	7.106038e-01	7.201725e-01	
75	3.750000e+00	3.750000e+00	7.116248e-01	7.211682e-01	
76	3.800000e+00	3.800000e+00	7.126350e-01	7.221543e-01	
77	3.850000e+00	3.850000e+00	7.136349e-01	7.231314e-01	
78	3.900000e+00	3.900000e+00	7.146249e-01	7.240996e-01	
79	3.950000e+00	3.950000e+00	7.156054e-01	7.250594e-01	
80	4.000000e+00	4.000000e+00	7.165767e-01	7.260109e-01	
81	4.050000e+00	4.050000e+00	7.175392e-01	7.269546e-01	
82	4.100000e+00	4.100000e+00	7.184931e-01	7.278906e-01	
83	4.150000e+00	4.150000e+00	7.194389e-01	7.288192e-01	
84	4.200000e+00	4.200000e+00	7.203766e-01	7.297407e-01	
85	4.250000e+00	4.250000e+00	7.213067e-01	7.306552e-01	
86	4.300000e+00	4.300000e+00	7.222294e-01	7.315631e-01	
87	4.350000e+00	4.350000e+00	7.231449e-01	7.324644e-01	
88	4.400000e+00	4.400000e+00	7.240535e-01	7.333595e-01	
89	4.450000e+00	4.450000e+00	7.249554e-01	7.342484e-01	
90	4.500000e+00	4.500000e+00	7.258507e-01	7.351315e-01	
91	4.550000e+00	4.550000e+00	7.267397e-01	7.360088e-01	
92	4.600000e+00	4.600000e+00	7.276226e-01	7.368805e-01	
93	4.650000e+00	4.650000e+00	7.284996e-01	7.377468e-01	
94	4.700000e+00	4.700000e+00	7.293708e-01	7.386078e-01	
95	4.750000e+00	4.750000e+00	7.302365e-01	7.394637e-01	
96	4.800000e+00	4.800000e+00	7.310966e-01	7.403146e-01	
97	4.850000e+00	4.850000e+00	7.319516e-01	7.411607e-01	
98	4.900000e+00	4.900000e+00	7.328013e-01	7.420020e-01	
99	4.950000e+00	4.950000e+00	7.336461e-01	7.428388e-01	
100	5.000000e+00	5.000000e+00	7.344860e-01	7.436711e-01	
101	5.050000e+00	5.050000e+00	7.353212e-01	7.444990e-01	
102	5.100000e+00	5.100000e+00	7.361518e-01	7.453227e-01	
103	5.150000e+00	5.150000e+00	7.369780e-01	7.461422e-01	
104	5.200000e+00	5.200000e+00	7.377997e-01	7.469577e-01	
105	5.250000e+00	5.250000e+00	7.386172e-01	7.477692e-01	
106	5.300000e+00	5.300000e+00	7.394306e-01	7.485769e-01	
107	5.350000e+00	5.350000e+00	7.402399e-01	7.493809e-01	
108	5.400000e+00	5.400000e+00	7.410453e-01	7.501812e-01	
109	5.450000e+00	5.450000e+00	7.418468e-01	7.509779e-01	
110	5.500000e+00	5.500000e+00	7.426445e-01	7.517711e-01	
111	5.550000e+00	5.550000e+00	7.434386e-01	7.525608e-01	
112	5.600000e+00	5.600000e+00	7.442291e-01	7.533473e-01	

Index   v-sweep         ie              net-_q1-pad1_   net-_q1-pad3_   
--------------------------------------------------------------------------------
113	5.650000e+00	5.650000e+00	7.450161e-01	7.541304e-01	
114	5.700000e+00	5.700000e+00	7.457997e-01	7.549104e-01	
115	5.750000e+00	5.750000e+00	7.465799e-01	7.556872e-01	
116	5.800000e+00	5.800000e+00	7.473569e-01	7.564610e-01	
117	5.850000e+00	5.850000e+00	7.481307e-01	7.572318e-01	
118	5.900000e+00	5.900000e+00	7.489013e-01	7.579997e-01	
119	5.950000e+00	5.950000e+00	7.496689e-01	7.587647e-01	
120	6.000000e+00	6.000000e+00	7.504335e-01	7.595268e-01	
121	6.050000e+00	6.050000e+00	7.511952e-01	7.602863e-01	
122	6.100000e+00	6.100000e+00	7.519539e-01	7.610430e-01	
123	6.150000e+00	6.150000e+00	7.527099e-01	7.617971e-01	
124	6.200000e+00	6.200000e+00	7.534632e-01	7.625486e-01	
125	6.250000e+00	6.250000e+00	7.542137e-01	7.632975e-01	
126	6.300000e+00	6.300000e+00	7.549616e-01	7.640440e-01	
127	6.350000e+00	6.350000e+00	7.557069e-01	7.647880e-01	
128	6.400000e+00	6.400000e+00	7.564497e-01	7.655296e-01	
129	6.450000e+00	6.450000e+00	7.571899e-01	7.662689e-01	
130	6.500000e+00	6.500000e+00	7.579278e-01	7.670058e-01	
131	6.550000e+00	6.550000e+00	7.586632e-01	7.677405e-01	
132	6.600000e+00	6.600000e+00	7.593963e-01	7.684730e-01	
133	6.650000e+00	6.650000e+00	7.601271e-01	7.692033e-01	
134	6.700000e+00	6.700000e+00	7.608556e-01	7.699314e-01	
135	6.750000e+00	6.750000e+00	7.615819e-01	7.706575e-01	
136	6.800000e+00	6.800000e+00	7.623061e-01	7.713815e-01	
137	6.850000e+00	6.850000e+00	7.630281e-01	7.721034e-01	
138	6.900000e+00	6.900000e+00	7.637480e-01	7.728234e-01	
139	6.950000e+00	6.950000e+00	7.644658e-01	7.735414e-01	
140	7.000000e+00	7.000000e+00	7.651816e-01	7.742574e-01	
141	7.050000e+00	7.050000e+00	7.658954e-01	7.749716e-01	
142	7.100000e+00	7.100000e+00	7.666073e-01	7.756839e-01	
143	7.150000e+00	7.150000e+00	7.673172e-01	7.763944e-01	
144	7.200000e+00	7.200000e+00	7.680252e-01	7.771031e-01	
145	7.250000e+00	7.250000e+00	7.687314e-01	7.778100e-01	
146	7.300000e+00	7.300000e+00	7.694358e-01	7.785151e-01	
147	7.350000e+00	7.350000e+00	7.701383e-01	7.792186e-01	
148	7.400000e+00	7.400000e+00	7.708391e-01	7.799203e-01	
149	7.450000e+00	7.450000e+00	7.715382e-01	7.806204e-01	
150	7.500000e+00	7.500000e+00	7.722355e-01	7.813189e-01	
151	7.550000e+00	7.550000e+00	7.729312e-01	7.820157e-01	
152	7.600000e+00	7.600000e+00	7.736252e-01	7.827110e-01	
153	7.650000e+00	7.650000e+00	7.743176e-01	7.834047e-01	
154	7.700000e+00	7.700000e+00	7.750083e-01	7.840969e-01	
155	7.750000e+00	7.750000e+00	7.756975e-01	7.847876e-01	
156	7.800000e+00	7.800000e+00	7.763852e-01	7.854768e-01	
157	7.850000e+00	7.850000e+00	7.770713e-01	7.861645e-01	
158	7.900000e+00	7.900000e+00	7.777559e-01	7.868507e-01	
159	7.950000e+00	7.950000e+00	7.784390e-01	7.875356e-01	
160	8.000000e+00	8.000000e+00	7.791206e-01	7.882190e-01	
161	8.050000e+00	8.050000e+00	7.798008e-01	7.889011e-01	
162	8.100000e+00	8.100000e+00	7.804796e-01	7.895818e-01	
163	8.150000e+00	8.150000e+00	7.811570e-01	7.902611e-01	
164	8.200000e+00	8.200000e+00	7.818331e-01	7.909391e-01	
165	8.250000e+00	8.250000e+00	7.825077e-01	7.916158e-01	
166	8.300000e+00	8.300000e+00	7.831810e-01	7.922913e-01	
167	8.350000e+00	8.350000e+00	7.838530e-01	7.929654e-01	
168	8.400000e+00	8.400000e+00	7.845238e-01	7.936384e-01	
169	8.450000e+00	8.450000e+00	7.851932e-01	7.943100e-01	
170	8.500000e+00	8.500000e+00	7.858613e-01	7.949805e-01	

Index   v-sweep         ie              net-_q1-pad1_   net-_q1-pad3_   
--------------------------------------------------------------------------------
171	8.550000e+00	8.550000e+00	7.865282e-01	7.956497e-01	
172	8.600000e+00	8.600000e+00	7.871939e-01	7.963178e-01	
173	8.650000e+00	8.650000e+00	7.878584e-01	7.969847e-01	
174	8.700000e+00	8.700000e+00	7.885217e-01	7.976505e-01	
175	8.750000e+00	8.750000e+00	7.891838e-01	7.983151e-01	
176	8.800000e+00	8.800000e+00	7.898447e-01	7.989786e-01	
177	8.850000e+00	8.850000e+00	7.905045e-01	7.996410e-01	
178	8.900000e+00	8.900000e+00	7.911631e-01	8.003022e-01	
179	8.950000e+00	8.950000e+00	7.918206e-01	8.009624e-01	
180	9.000000e+00	9.000000e+00	7.924771e-01	8.016216e-01	
181	9.050000e+00	9.050000e+00	7.931324e-01	8.022797e-01	
182	9.100000e+00	9.100000e+00	7.937867e-01	8.029367e-01	
183	9.150000e+00	9.150000e+00	7.944399e-01	8.035927e-01	
184	9.200000e+00	9.200000e+00	7.950920e-01	8.042477e-01	
185	9.250000e+00	9.250000e+00	7.957431e-01	8.049017e-01	
186	9.300000e+00	9.300000e+00	7.963932e-01	8.055547e-01	
187	9.350000e+00	9.350000e+00	7.970423e-01	8.062068e-01	
188	9.400000e+00	9.400000e+00	7.976904e-01	8.068578e-01	
189	9.450000e+00	9.450000e+00	7.983375e-01	8.075079e-01	
190	9.500000e+00	9.500000e+00	7.989836e-01	8.081571e-01	
191	9.550000e+00	9.550000e+00	7.996288e-01	8.088054e-01	
192	9.600000e+00	9.600000e+00	8.002730e-01	8.094527e-01	
193	9.650000e+00	9.650000e+00	8.009163e-01	8.100991e-01	
194	9.700000e+00	9.700000e+00	8.015587e-01	8.107446e-01	
195	9.750000e+00	9.750000e+00	8.022001e-01	8.113892e-01	
196	9.800000e+00	9.800000e+00	8.028407e-01	8.120330e-01	
197	9.850000e+00	9.850000e+00	8.034803e-01	8.126758e-01	
198	9.900000e+00	9.900000e+00	8.041191e-01	8.133179e-01	
199	9.950000e+00	9.950000e+00	8.047570e-01	8.139590e-01	
200	1.000000e+01	1.000000e+01	8.053940e-01	8.145994e-01	
201	0.000000e+00	0.000000e+00	-1.00000e-03	-8.14628e-13	
202	5.000000e-02	5.000000e-02	-1.00000e-03	5.000000e-02	
203	1.000000e-01	1.000000e-01	-9.99999e-04	1.000000e-01	
204	1.500000e-01	1.500000e-01	-9.99993e-04	1.500000e-01	
205	2.000000e-01	2.000000e-01	-9.99951e-04	1.999999e-01	
206	2.500000e-01	2.500000e-01	-9.99661e-04	2.499996e-01	
207	3.000000e-01	3.000000e-01	-9.97660e-04	2.999975e-01	
208	3.500000e-01	3.500000e-01	-9.83835e-04	3.499833e-01	
209	4.000000e-01	4.000000e-01	-8.88706e-04	3.998862e-01	
210	4.500000e-01	4.500000e-01	-2.50062e-04	4.492378e-01	
211	5.000000e-01	5.000000e-01	3.479635e-03	4.954623e-01	
212	5.500000e-01	5.500000e-01	1.713901e-02	5.316569e-01	
213	6.000000e-01	6.000000e-01	4.360551e-02	5.549282e-01	
214	6.500000e-01	6.500000e-01	7.834316e-02	5.698602e-01	
215	7.000000e-01	7.000000e-01	1.175829e-01	5.802561e-01	
216	7.500000e-01	7.500000e-01	1.592668e-01	5.881908e-01	
217	8.000000e-01	8.000000e-01	2.027101e-01	5.943546e-01	
218	8.500000e-01	8.500000e-01	2.472183e-01	5.994469e-01	
219	9.000000e-01	9.000000e-01	2.924719e-01	6.037892e-01	
220	9.500000e-01	9.500000e-01	3.382915e-01	6.075602e-01	
221	1.000000e+00	1.000000e+00	3.845378e-01	6.108897e-01	
222	1.050000e+00	1.050000e+00	4.310458e-01	6.138812e-01	
223	1.100000e+00	1.100000e+00	4.773126e-01	6.166665e-01	
224	1.150000e+00	1.150000e+00	5.211306e-01	6.195936e-01	
225	1.200000e+00	1.200000e+00	5.566310e-01	6.233819e-01	
226	1.250000e+00	1.250000e+00	5.806633e-01	6.281094e-01	
227	1.300000e+00	1.300000e+00	5.965403e-01	6.330638e-01	
228	1.350000e+00	1.350000e+00	6.078425e-01	6.377808e-01	

Index   v-sweep         ie              net-_q1-pad1_   net-_q1-pad3_   
--------------------------------------------------------------------------------
229	1.400000e+00	1.400000e+00	6.165975e-01	6.421233e-01	
230	1.450000e+00	1.450000e+00	6.234992e-01	6.461070e-01	
231	1.500000e+00	1.500000e+00	6.292747e-01	6.497569e-01	
232	1.550000e+00	1.550000e+00	6.342621e-01	6.531161e-01	
233	1.600000e+00	1.600000e+00	6.386479e-01	6.562266e-01	
234	1.650000e+00	1.650000e+00	6.425661e-01	6.591234e-01	
235	1.700000e+00	1.700000e+00	6.461128e-01	6.618356e-01	
236	1.750000e+00	1.750000e+00	6.493580e-01	6.643874e-01	
237	1.800000e+00	1.800000e+00	6.523540e-01	6.667990e-01	
238	1.850000e+00	1.850000e+00	6.551406e-01	6.690871e-01	
239	1.900000e+00	1.900000e+00	6.577493e-01	6.712660e-01	
240	1.950000e+00	1.950000e+00	6.602049e-01	6.733475e-01	
241	2.000000e+00	2.000000e+00	6.625274e-01	6.753418e-01	
242	2.050000e+00	2.050000e+00	6.647333e-01	6.772577e-01	
243	2.100000e+00	2.100000e+00	6.668362e-01	6.791026e-01	
244	2.150000e+00	2.150000e+00	6.688474e-01	6.808832e-01	
245	2.200000e+00	2.200000e+00	6.707767e-01	6.826050e-01	
246	2.250000e+00	2.250000e+00	6.726322e-01	6.842731e-01	
247	2.300000e+00	2.300000e+00	6.744210e-01	6.858918e-01	
248	2.350000e+00	2.350000e+00	6.761491e-01	6.874651e-01	
249	2.400000e+00	2.400000e+00	6.778218e-01	6.889963e-01	
250	2.450000e+00	2.450000e+00	6.794439e-01	6.904886e-01	
251	2.500000e+00	2.500000e+00	6.810193e-01	6.919447e-01	
252	2.550000e+00	2.550000e+00	6.825518e-01	6.933671e-01	
253	2.600000e+00	2.600000e+00	6.840444e-01	6.947580e-01	
254	2.650000e+00	2.650000e+00	6.855002e-01	6.961195e-01	
255	2.700000e+00	2.700000e+00	6.869217e-01	6.974534e-01	
256	2.750000e+00	2.750000e+00	6.883111e-01	6.987614e-01	
257	2.800000e+00	2.800000e+00	6.896707e-01	7.000449e-01	
258	2.850000e+00	2.850000e+00	6.910022e-01	7.013055e-01	
259	2.900000e+00	2.900000e+00	6.923075e-01	7.025443e-01	
260	2.950000e+00	2.950000e+00	6.935880e-01	7.037626e-01	
261	3.000000e+00	3.000000e+00	6.948452e-01	7.049615e-01	
262	3.050000e+00	3.050000e+00	6.960805e-01	7.061419e-01	
263	3.100000e+00	3.100000e+00	6.972949e-01	7.073048e-01	
264	3.150000e+00	3.150000e+00	6.984898e-01	7.084510e-01	
265	3.200000e+00	3.200000e+00	6.996660e-01	7.095814e-01	
266	3.250000e+00	3.250000e+00	7.008245e-01	7.106967e-01	
267	3.300000e+00	3.300000e+00	7.019662e-01	7.117975e-01	
268	3.350000e+00	3.350000e+00	7.030919e-01	7.128846e-01	
269	3.400000e+00	3.400000e+00	7.042024e-01	7.139585e-01	
270	3.450000e+00	3.450000e+00	7.052983e-01	7.150198e-01	
271	3.500000e+00	3.500000e+00	7.063804e-01	7.160691e-01	
272	3.550000e+00	3.550000e+00	7.074492e-01	7.171068e-01	
273	3.600000e+00	3.600000e+00	7.085053e-01	7.181333e-01	
274	3.650000e+00	3.650000e+00	7.095493e-01	7.191492e-01	
275	3.700000e+00	3.700000e+00	7.105816e-01	7.201549e-01	
276	3.750000e+00	3.750000e+00	7.116027e-01	7.211507e-01	
277	3.800000e+00	3.800000e+00	7.126132e-01	7.221370e-01	
278	3.850000e+00	3.850000e+00	7.136133e-01	7.231142e-01	
279	3.900000e+00	3.900000e+00	7.146035e-01	7.240826e-01	
280	3.950000e+00	3.950000e+00	7.155842e-01	7.250425e-01	
281	4.000000e+00	4.000000e+00	7.165557e-01	7.259942e-01	
282	4.050000e+00	4.050000e+00	7.175183e-01	7.269379e-01	
283	4.100000e+00	4.100000e+00	7.184725e-01	7.278740e-01	
284	4.150000e+00	4.150000e+00	7.194183e-01	7.288028e-01	
285	4.200000e+00	4.200000e+00	7.203563e-01	7.297243e-01	
286	4.250000e+00	4.250000e+00	7.212865e-01	7.306390e-01	

Index   v-sweep         ie              net-_q1-pad1_   net-_q1-pad3_   
--------------------------------------------------------------------------------
287	4.300000e+00	4.300000e+00	7.222094e-01	7.315469e-01	
288	4.350000e+00	4.350000e+00	7.231250e-01	7.324484e-01	
289	4.400000e+00	4.400000e+00	7.240337e-01	7.333435e-01	
290	4.450000e+00	4.450000e+00	7.249357e-01	7.342326e-01	
291	4.500000e+00	4.500000e+00	7.258312e-01	7.351157e-01	
292	4.550000e+00	4.550000e+00	7.267203e-01	7.359931e-01	
293	4.600000e+00	4.600000e+00	7.276034e-01	7.368649e-01	
294	4.650000e+00	4.650000e+00	7.284805e-01	7.377313e-01	
295	4.700000e+00	4.700000e+00	7.293518e-01	7.385924e-01	
296	4.750000e+00	4.750000e+00	7.302175e-01	7.394484e-01	
297	4.800000e+00	4.800000e+00	7.310778e-01	7.402994e-01	
298	4.850000e+00	4.850000e+00	7.319328e-01	7.411455e-01	
299	4.900000e+00	4.900000e+00	7.327827e-01	7.419869e-01	
300	4.950000e+00	4.950000e+00	7.336276e-01	7.428237e-01	
301	5.000000e+00	5.000000e+00	7.344676e-01	7.436561e-01	
302	5.050000e+00	5.050000e+00	7.353029e-01	7.444841e-01	
303	5.100000e+00	5.100000e+00	7.361336e-01	7.453078e-01	
304	5.150000e+00	5.150000e+00	7.369598e-01	7.461274e-01	
305	5.200000e+00	5.200000e+00	7.377817e-01	7.469430e-01	
306	5.250000e+00	5.250000e+00	7.385993e-01	7.477546e-01	
307	5.300000e+00	5.300000e+00	7.394127e-01	7.485623e-01	
308	5.350000e+00	5.350000e+00	7.402221e-01	7.493663e-01	
309	5.400000e+00	5.400000e+00	7.410275e-01	7.501667e-01	
310	5.450000e+00	5.450000e+00	7.418291e-01	7.509634e-01	
311	5.500000e+00	5.500000e+00	7.426270e-01	7.517567e-01	
312	5.550000e+00	5.550000e+00	7.434211e-01	7.525465e-01	
313	5.600000e+00	5.600000e+00	7.442117e-01	7.533330e-01	
314	5.650000e+00	5.650000e+00	7.449988e-01	7.541162e-01	
315	5.700000e+00	5.700000e+00	7.457824e-01	7.548962e-01	
316	5.750000e+00	5.750000e+00	7.465627e-01	7.556731e-01	
317	5.800000e+00	5.800000e+00	7.473397e-01	7.564470e-01	
318	5.850000e+00	5.850000e+00	7.481136e-01	7.572178e-01	
319	5.900000e+00	5.900000e+00	7.488843e-01	7.579857e-01	
320	5.950000e+00	5.950000e+00	7.496519e-01	7.587507e-01	
321	6.000000e+00	6.000000e+00	7.504166e-01	7.595129e-01	
322	6.050000e+00	6.050000e+00	7.511783e-01	7.602724e-01	
323	6.100000e+00	6.100000e+00	7.519372e-01	7.610292e-01	
324	6.150000e+00	6.150000e+00	7.526932e-01	7.617833e-01	
325	6.200000e+00	6.200000e+00	7.534465e-01	7.625348e-01	
326	6.250000e+00	6.250000e+00	7.541971e-01	7.632838e-01	
327	6.300000e+00	6.300000e+00	7.549450e-01	7.640303e-01	
328	6.350000e+00	6.350000e+00	7.556904e-01	7.647744e-01	
329	6.400000e+00	6.400000e+00	7.564332e-01	7.655160e-01	
330	6.450000e+00	6.450000e+00	7.571735e-01	7.662553e-01	
