* c:\users\mamat\esim-workspace\bjt_ce_config_input_char_ztx1048a\bjt_ce_config_input_char_ztx1048a.cir
DC transfer characteristic  Tue Jun 24 19:45:46  2025
--------------------------------------------------------------------------------
Index   v-sweep         v1#branch       v2#branch       v_u_ic1#branch  
--------------------------------------------------------------------------------
0	0.000000e+00	8.019925e-25	4.814864e-25	-4.81486e-25	
1	5.000000e-02	5.208366e-08	-5.43273e-08	5.432734e-08	
2	1.000000e-01	3.867414e-07	-4.18416e-07	4.184162e-07	
3	1.500000e-01	1.947650e-06	-2.55841e-06	2.558408e-06	
4	2.000000e-01	4.865499e-06	-1.13289e-05	1.132894e-05	
5	2.500000e-01	6.680581e-06	-3.24096e-05	3.240957e-05	
6	3.000000e-01	7.385912e-06	-6.40820e-05	6.408199e-05	
7	3.500000e-01	7.690743e-06	-1.01789e-04	1.017892e-04	
8	4.000000e-01	7.846309e-06	-1.42847e-04	1.428471e-04	
9	4.500000e-01	7.943584e-06	-1.85843e-04	1.858427e-04	
10	5.000000e-01	8.002213e-06	-2.30244e-04	2.302443e-04	
11	5.500000e-01	8.043483e-06	-2.75545e-04	2.755450e-04	
12	6.000000e-01	8.074777e-06	-3.21496e-04	3.214962e-04	
13	6.500000e-01	8.099048e-06	-3.67948e-04	3.679482e-04	
14	7.000000e-01	8.118396e-06	-4.14794e-04	4.147941e-04	
15	7.500000e-01	8.134223e-06	-4.61957e-04	4.619565e-04	
16	8.000000e-01	8.147448e-06	-5.09379e-04	5.093787e-04	
17	8.500000e-01	8.158701e-06	-5.57017e-04	5.570173e-04	
18	9.000000e-01	8.168424e-06	-6.04839e-04	6.048392e-04	
19	9.500000e-01	8.176940e-06	-6.52818e-04	6.528180e-04	
20	1.000000e+00	8.184486e-06	-7.00933e-04	7.009327e-04	
21	1.050000e+00	8.191242e-06	-7.49166e-04	7.491660e-04	
22	1.100000e+00	8.197347e-06	-7.97504e-04	7.975039e-04	
23	1.150000e+00	8.202909e-06	-8.45935e-04	8.459345e-04	
24	1.200000e+00	8.208012e-06	-8.94448e-04	8.944481e-04	
25	1.250000e+00	8.212726e-06	-9.43036e-04	9.430361e-04	
26	1.300000e+00	8.217107e-06	-9.91691e-04	9.916913e-04	
27	1.350000e+00	8.221200e-06	-1.04041e-03	1.040408e-03	
28	1.400000e+00	8.225043e-06	-1.08918e-03	1.089180e-03	
29	1.450000e+00	8.228666e-06	-1.13800e-03	1.138002e-03	
30	1.500000e+00	8.232097e-06	-1.18687e-03	1.186872e-03	
31	1.550000e+00	8.235358e-06	-1.23578e-03	1.235785e-03	
32	1.600000e+00	8.238468e-06	-1.28474e-03	1.284737e-03	
33	1.650000e+00	8.241443e-06	-1.33373e-03	1.333727e-03	
34	1.700000e+00	8.244297e-06	-1.38275e-03	1.382751e-03	
35	1.750000e+00	8.247042e-06	-1.43181e-03	1.431807e-03	
36	1.800000e+00	8.249689e-06	-1.48089e-03	1.480893e-03	
37	1.850000e+00	8.252248e-06	-1.53001e-03	1.530007e-03	
38	1.900000e+00	8.254726e-06	-1.57915e-03	1.579147e-03	
39	1.950000e+00	8.257130e-06	-1.62831e-03	1.628312e-03	
40	2.000000e+00	8.259467e-06	-1.67750e-03	1.677500e-03	
41	2.050000e+00	8.261742e-06	-1.72671e-03	1.726710e-03	
42	2.100000e+00	8.263961e-06	-1.77594e-03	1.775941e-03	
43	2.150000e+00	8.266128e-06	-1.82519e-03	1.825191e-03	
44	2.200000e+00	8.268247e-06	-1.87446e-03	1.874460e-03	
45	2.250000e+00	8.270322e-06	-1.92375e-03	1.923747e-03	
46	2.300000e+00	8.272355e-06	-1.97305e-03	1.973051e-03	
47	2.350000e+00	8.274351e-06	-2.02237e-03	2.022370e-03	
48	2.400000e+00	8.276311e-06	-2.07171e-03	2.071705e-03	
49	2.450000e+00	8.278237e-06	-2.12105e-03	2.121055e-03	
50	2.500000e+00	8.280133e-06	-2.17042e-03	2.170418e-03	
51	2.550000e+00	8.282000e-06	-2.21979e-03	2.219794e-03	
52	2.600000e+00	8.283840e-06	-2.26918e-03	2.269183e-03	
53	2.650000e+00	8.285655e-06	-2.31858e-03	2.318584e-03	
54	2.700000e+00	8.287446e-06	-2.36800e-03	2.367997e-03	

Index   v-sweep         v1#branch       v2#branch       v_u_ic1#branch  
--------------------------------------------------------------------------------
55	2.750000e+00	8.289215e-06	-2.41742e-03	2.417421e-03	
56	2.800000e+00	8.290962e-06	-2.46686e-03	2.466856e-03	
57	2.850000e+00	8.292690e-06	-2.51630e-03	2.516301e-03	
58	2.900000e+00	8.294399e-06	-2.56576e-03	2.565756e-03	
59	2.950000e+00	8.296091e-06	-2.61522e-03	2.615220e-03	
60	3.000000e+00	8.297766e-06	-2.66469e-03	2.664694e-03	
61	3.050000e+00	8.299425e-06	-2.71418e-03	2.714176e-03	
62	3.100000e+00	8.301069e-06	-2.76367e-03	2.763667e-03	
63	3.150000e+00	8.302698e-06	-2.81317e-03	2.813166e-03	
64	3.200000e+00	8.304315e-06	-2.86267e-03	2.862674e-03	
65	3.250000e+00	8.305918e-06	-2.91219e-03	2.912188e-03	
66	3.300000e+00	8.307509e-06	-2.96171e-03	2.961711e-03	
67	3.350000e+00	8.309089e-06	-3.01124e-03	3.011240e-03	
68	3.400000e+00	8.310657e-06	-3.06078e-03	3.060776e-03	
69	3.450000e+00	8.312215e-06	-3.11032e-03	3.110319e-03	
70	3.500000e+00	8.313763e-06	-3.15987e-03	3.159869e-03	
71	3.550000e+00	8.315301e-06	-3.20942e-03	3.209425e-03	
72	3.600000e+00	8.316830e-06	-3.25899e-03	3.258987e-03	
73	3.650000e+00	8.318351e-06	-3.30855e-03	3.308555e-03	
74	3.700000e+00	8.319862e-06	-3.35813e-03	3.358129e-03	
75	3.750000e+00	8.321366e-06	-3.40771e-03	3.407708e-03	
76	3.800000e+00	8.322862e-06	-3.45729e-03	3.457293e-03	
77	3.850000e+00	8.324350e-06	-3.50688e-03	3.506883e-03	
78	3.900000e+00	8.325831e-06	-3.55648e-03	3.556478e-03	
79	3.950000e+00	8.327306e-06	-3.60608e-03	3.606078e-03	
80	4.000000e+00	8.328774e-06	-3.65568e-03	3.655683e-03	
81	4.050000e+00	8.330235e-06	-3.70529e-03	3.705293e-03	
82	4.100000e+00	8.331691e-06	-3.75491e-03	3.754907e-03	
83	4.150000e+00	8.333140e-06	-3.80453e-03	3.804526e-03	
84	4.200000e+00	8.334584e-06	-3.85415e-03	3.854150e-03	
85	4.250000e+00	8.336022e-06	-3.90378e-03	3.903777e-03	
86	4.300000e+00	8.337455e-06	-3.95341e-03	3.953409e-03	
87	4.350000e+00	8.338883e-06	-4.00304e-03	4.003044e-03	
88	4.400000e+00	8.340306e-06	-4.05268e-03	4.052684e-03	
89	4.450000e+00	8.341724e-06	-4.10233e-03	4.102328e-03	
90	4.500000e+00	8.343138e-06	-4.15197e-03	4.151975e-03	
91	4.550000e+00	8.344547e-06	-4.20163e-03	4.201626e-03	
92	4.600000e+00	8.345952e-06	-4.25128e-03	4.251280e-03	
93	4.650000e+00	8.347353e-06	-4.30094e-03	4.300939e-03	
94	4.700000e+00	8.348750e-06	-4.35060e-03	4.350600e-03	
95	4.750000e+00	8.350142e-06	-4.40026e-03	4.400265e-03	
96	4.800000e+00	8.351531e-06	-4.44993e-03	4.449933e-03	
97	4.850000e+00	8.352917e-06	-4.49960e-03	4.499604e-03	
98	4.900000e+00	8.354299e-06	-4.54928e-03	4.549279e-03	
99	4.950000e+00	8.355677e-06	-4.59896e-03	4.598956e-03	
100	5.000000e+00	8.357052e-06	-4.64864e-03	4.648637e-03	
101	5.050000e+00	8.358424e-06	-4.69832e-03	4.698320e-03	
102	5.100000e+00	8.359792e-06	-4.74801e-03	4.748007e-03	
103	5.150000e+00	8.361158e-06	-4.79770e-03	4.797696e-03	
104	5.200000e+00	8.362520e-06	-4.84739e-03	4.847388e-03	
105	5.250000e+00	8.363880e-06	-4.89708e-03	4.897082e-03	
106	5.300000e+00	8.365236e-06	-4.94678e-03	4.946780e-03	
107	5.350000e+00	8.366590e-06	-4.99648e-03	4.996480e-03	
108	5.400000e+00	8.367942e-06	-5.04618e-03	5.046182e-03	
109	5.450000e+00	8.369290e-06	-5.09589e-03	5.095887e-03	
110	5.500000e+00	8.370636e-06	-5.14559e-03	5.145594e-03	
111	5.550000e+00	8.371980e-06	-5.19530e-03	5.195304e-03	
112	5.600000e+00	8.373321e-06	-5.24502e-03	5.245016e-03	

Index   v-sweep         v1#branch       v2#branch       v_u_ic1#branch  
--------------------------------------------------------------------------------
113	5.650000e+00	8.374660e-06	-5.29473e-03	5.294731e-03	
114	5.700000e+00	8.375996e-06	-5.34445e-03	5.344447e-03	
115	5.750000e+00	8.377331e-06	-5.39417e-03	5.394166e-03	
116	5.800000e+00	8.378663e-06	-5.44389e-03	5.443888e-03	
117	5.850000e+00	8.379992e-06	-5.49361e-03	5.493611e-03	
118	5.900000e+00	8.381320e-06	-5.54334e-03	5.543336e-03	
119	5.950000e+00	8.382646e-06	-5.59306e-03	5.593064e-03	
120	6.000000e+00	8.383970e-06	-5.64279e-03	5.642793e-03	
121	6.050000e+00	8.385291e-06	-5.69252e-03	5.692525e-03	
122	6.100000e+00	8.386611e-06	-5.74226e-03	5.742258e-03	
123	6.150000e+00	8.387929e-06	-5.79199e-03	5.791994e-03	
124	6.200000e+00	8.389245e-06	-5.84173e-03	5.841731e-03	
125	6.250000e+00	8.390559e-06	-5.89147e-03	5.891470e-03	
126	6.300000e+00	8.391872e-06	-5.94121e-03	5.941211e-03	
127	6.350000e+00	8.393183e-06	-5.99095e-03	5.990954e-03	
128	6.400000e+00	8.394492e-06	-6.04070e-03	6.040698e-03	
129	6.450000e+00	8.395799e-06	-6.09044e-03	6.090445e-03	
130	6.500000e+00	8.397105e-06	-6.14019e-03	6.140193e-03	
131	6.550000e+00	8.398409e-06	-6.18994e-03	6.189943e-03	
132	6.600000e+00	8.399712e-06	-6.23969e-03	6.239694e-03	
133	6.650000e+00	8.401013e-06	-6.28945e-03	6.289447e-03	
134	6.700000e+00	8.402312e-06	-6.33920e-03	6.339202e-03	
135	6.750000e+00	8.403611e-06	-6.38896e-03	6.388958e-03	
136	6.800000e+00	8.404907e-06	-6.43872e-03	6.438716e-03	
137	6.850000e+00	8.406202e-06	-6.48848e-03	6.488475e-03	
138	6.900000e+00	8.407496e-06	-6.53824e-03	6.538236e-03	
139	6.950000e+00	8.408789e-06	-6.58800e-03	6.587998e-03	
140	7.000000e+00	8.410080e-06	-6.63776e-03	6.637762e-03	
141	7.050000e+00	8.411370e-06	-6.68753e-03	6.687527e-03	
142	7.100000e+00	8.412658e-06	-6.73729e-03	6.737294e-03	
143	7.150000e+00	8.413945e-06	-6.78706e-03	6.787062e-03	
144	7.200000e+00	8.415231e-06	-6.83683e-03	6.836832e-03	
145	7.250000e+00	8.416516e-06	-6.88660e-03	6.886602e-03	
146	7.300000e+00	8.417799e-06	-6.93637e-03	6.936375e-03	
147	7.350000e+00	8.419081e-06	-6.98615e-03	6.986148e-03	
148	7.400000e+00	8.420363e-06	-7.03592e-03	7.035923e-03	
149	7.450000e+00	8.421642e-06	-7.08570e-03	7.085699e-03	
150	7.500000e+00	8.422921e-06	-7.13548e-03	7.135477e-03	
151	7.550000e+00	8.424199e-06	-7.18526e-03	7.185255e-03	
152	7.600000e+00	8.425475e-06	-7.23504e-03	7.235035e-03	
153	7.650000e+00	8.426751e-06	-7.28482e-03	7.284816e-03	
154	7.700000e+00	8.428025e-06	-7.33460e-03	7.334598e-03	
155	7.750000e+00	8.429298e-06	-7.38438e-03	7.384382e-03	
156	7.800000e+00	8.430570e-06	-7.43417e-03	7.434167e-03	
157	7.850000e+00	8.431842e-06	-7.48395e-03	7.483952e-03	
158	7.900000e+00	8.433112e-06	-7.53374e-03	7.533739e-03	
159	7.950000e+00	8.434381e-06	-7.58353e-03	7.583528e-03	
160	8.000000e+00	8.435649e-06	-7.63332e-03	7.633317e-03	
161	8.050000e+00	8.436916e-06	-7.68311e-03	7.683107e-03	
162	8.100000e+00	8.438182e-06	-7.73290e-03	7.732898e-03	
163	8.150000e+00	8.439447e-06	-7.78269e-03	7.782691e-03	
164	8.200000e+00	8.440712e-06	-7.83248e-03	7.832484e-03	
165	8.250000e+00	8.441975e-06	-7.88228e-03	7.882279e-03	
166	8.300000e+00	8.443238e-06	-7.93207e-03	7.932074e-03	
167	8.350000e+00	8.444499e-06	-7.98187e-03	7.981871e-03	
168	8.400000e+00	8.445760e-06	-8.03167e-03	8.031669e-03	
169	8.450000e+00	8.447019e-06	-8.08147e-03	8.081467e-03	
170	8.500000e+00	8.448278e-06	-8.13127e-03	8.131267e-03	

Index   v-sweep         v1#branch       v2#branch       v_u_ic1#branch  
--------------------------------------------------------------------------------
171	8.550000e+00	8.449536e-06	-8.18107e-03	8.181067e-03	
172	8.600000e+00	8.450793e-06	-8.23087e-03	8.230869e-03	
173	8.650000e+00	8.452050e-06	-8.28067e-03	8.280671e-03	
174	8.700000e+00	8.453305e-06	-8.33047e-03	8.330475e-03	
175	8.750000e+00	8.454560e-06	-8.38028e-03	8.380279e-03	
176	8.800000e+00	8.455814e-06	-8.43008e-03	8.430084e-03	
177	8.850000e+00	8.457067e-06	-8.47989e-03	8.479890e-03	
178	8.900000e+00	8.458319e-06	-8.52970e-03	8.529697e-03	
179	8.950000e+00	8.459570e-06	-8.57951e-03	8.579505e-03	
180	9.000000e+00	8.460821e-06	-8.62931e-03	8.629314e-03	
181	9.050000e+00	8.462071e-06	-8.67912e-03	8.679123e-03	
182	9.100000e+00	8.463320e-06	-8.72893e-03	8.728934e-03	
183	9.150000e+00	8.464568e-06	-8.77875e-03	8.778745e-03	
184	9.200000e+00	8.465816e-06	-8.82856e-03	8.828557e-03	
185	9.250000e+00	8.467063e-06	-8.87837e-03	8.878370e-03	
186	9.300000e+00	8.468309e-06	-8.92818e-03	8.928184e-03	
187	9.350000e+00	8.469554e-06	-8.97800e-03	8.977998e-03	
188	9.400000e+00	8.470799e-06	-9.02781e-03	9.027814e-03	
189	9.450000e+00	8.472043e-06	-9.07763e-03	9.077630e-03	
190	9.500000e+00	8.473286e-06	-9.12745e-03	9.127447e-03	
191	9.550000e+00	8.474529e-06	-9.17726e-03	9.177265e-03	
192	9.600000e+00	8.475771e-06	-9.22708e-03	9.227083e-03	
193	9.650000e+00	8.477012e-06	-9.27690e-03	9.276902e-03	
194	9.700000e+00	8.478253e-06	-9.32672e-03	9.326722e-03	
195	9.750000e+00	8.479492e-06	-9.37654e-03	9.376543e-03	
196	9.800000e+00	8.480732e-06	-9.42636e-03	9.426364e-03	
197	9.850000e+00	8.481970e-06	-9.47619e-03	9.476186e-03	
198	9.900000e+00	8.483208e-06	-9.52601e-03	9.526009e-03	
199	9.950000e+00	8.484445e-06	-9.57583e-03	9.575833e-03	
200	1.000000e+01	8.485682e-06	-9.62566e-03	9.625657e-03	
201	0.000000e+00	-3.26580e-08	8.929662e-09	-8.92966e-09	
202	5.000000e-02	-1.72786e-07	7.010001e-09	-7.01000e-09	
203	1.000000e-01	-1.14065e-06	-6.24848e-09	6.248475e-09	
204	1.500000e-01	-7.80249e-06	-9.75076e-08	9.750757e-08	
205	2.000000e-01	-5.25936e-05	-7.11122e-07	7.111215e-07	
206	2.500000e-01	-3.16026e-04	-4.32111e-06	4.321110e-06	
207	3.000000e-01	-1.29606e-03	-1.77679e-05	1.776787e-05	
208	3.500000e-01	-3.21670e-03	-4.41967e-05	4.419669e-05	
209	4.000000e-01	-5.74173e-03	-7.90953e-05	7.909535e-05	
210	4.500000e-01	-8.58490e-03	-1.18601e-04	1.186014e-04	
211	5.000000e-01	-1.15915e-02	-1.60598e-04	1.605983e-04	
212	5.500000e-01	-1.47059e-02	-2.04387e-04	2.043873e-04	
213	6.000000e-01	-1.78774e-02	-2.49257e-04	2.492571e-04	
214	6.500000e-01	-1.98422e-02	-2.96405e-04	2.964053e-04	
215	7.000000e-01	-1.98748e-02	-3.46099e-04	3.460994e-04	
216	7.500000e-01	-1.98886e-02	-3.95819e-04	3.958192e-04	
217	8.000000e-01	-1.98975e-02	-4.45547e-04	4.455472e-04	
218	8.500000e-01	-1.99040e-02	-4.95280e-04	4.952802e-04	
219	9.000000e-01	-1.99091e-02	-5.45017e-04	5.450167e-04	
220	9.500000e-01	-1.99133e-02	-5.94756e-04	5.947562e-04	
221	1.000000e+00	-1.99168e-02	-6.44498e-04	6.444983e-04	
222	1.050000e+00	-1.99199e-02	-6.94243e-04	6.942427e-04	
223	1.100000e+00	-1.99226e-02	-7.43989e-04	7.439893e-04	
224	1.150000e+00	-1.99250e-02	-7.93738e-04	7.937380e-04	
225	1.200000e+00	-1.99272e-02	-8.43489e-04	8.434886e-04	
226	1.250000e+00	-1.99291e-02	-8.93241e-04	8.932411e-04	
227	1.300000e+00	-1.99310e-02	-9.42995e-04	9.429953e-04	
228	1.350000e+00	-1.99326e-02	-9.92751e-04	9.927514e-04	

Index   v-sweep         v1#branch       v2#branch       v_u_ic1#branch  
--------------------------------------------------------------------------------
229	1.400000e+00	-1.99342e-02	-1.04251e-03	1.042509e-03	
230	1.450000e+00	-1.99356e-02	-1.09227e-03	1.092269e-03	
231	1.500000e+00	-1.99369e-02	-1.14203e-03	1.142030e-03	
232	1.550000e+00	-1.99382e-02	-1.19179e-03	1.191792e-03	
233	1.600000e+00	-1.99393e-02	-1.24156e-03	1.241556e-03	
234	1.650000e+00	-1.99405e-02	-1.29132e-03	1.291322e-03	
235	1.700000e+00	-1.99415e-02	-1.34109e-03	1.341089e-03	
236	1.750000e+00	-1.99425e-02	-1.39086e-03	1.390858e-03	
237	1.800000e+00	-1.99434e-02	-1.44063e-03	1.440628e-03	
238	1.850000e+00	-1.99443e-02	-1.49040e-03	1.490399e-03	
239	1.900000e+00	-1.99452e-02	-1.54017e-03	1.540172e-03	
240	1.950000e+00	-1.99460e-02	-1.58995e-03	1.589946e-03	
241	2.000000e+00	-1.99468e-02	-1.63972e-03	1.639722e-03	
242	2.050000e+00	-1.99475e-02	-1.68950e-03	1.689499e-03	
243	2.100000e+00	-1.99482e-02	-1.73928e-03	1.739277e-03	
244	2.150000e+00	-1.99489e-02	-1.78906e-03	1.789056e-03	
245	2.200000e+00	-1.99496e-02	-1.83884e-03	1.838837e-03	
246	2.250000e+00	-1.99502e-02	-1.88862e-03	1.888619e-03	
247	2.300000e+00	-1.99508e-02	-1.93840e-03	1.938402e-03	
248	2.350000e+00	-1.99514e-02	-1.98819e-03	1.988186e-03	
249	2.400000e+00	-1.99520e-02	-2.03797e-03	2.037972e-03	
250	2.450000e+00	-1.99525e-02	-2.08776e-03	2.087758e-03	
251	2.500000e+00	-1.99531e-02	-2.13755e-03	2.137546e-03	
252	2.550000e+00	-1.99536e-02	-2.18734e-03	2.187335e-03	
253	2.600000e+00	-1.99541e-02	-2.23713e-03	2.237125e-03	
254	2.650000e+00	-1.99546e-02	-2.28692e-03	2.286916e-03	
255	2.700000e+00	-1.99550e-02	-2.33671e-03	2.336709e-03	
256	2.750000e+00	-1.99555e-02	-2.38650e-03	2.386502e-03	
257	2.800000e+00	-1.99559e-02	-2.43630e-03	2.436296e-03	
258	2.850000e+00	-1.99563e-02	-2.48609e-03	2.486092e-03	
259	2.900000e+00	-1.99568e-02	-2.53589e-03	2.535888e-03	
260	2.950000e+00	-1.99572e-02	-2.58569e-03	2.585686e-03	
261	3.000000e+00	-1.99576e-02	-2.63548e-03	2.635484e-03	
262	3.050000e+00	-1.99579e-02	-2.68528e-03	2.685283e-03	
263	3.100000e+00	-1.99583e-02	-2.73508e-03	2.735084e-03	
264	3.150000e+00	-1.99587e-02	-2.78489e-03	2.784885e-03	
265	3.200000e+00	-1.99590e-02	-2.83469e-03	2.834688e-03	
266	3.250000e+00	-1.99594e-02	-2.88449e-03	2.884491e-03	
267	3.300000e+00	-1.99597e-02	-2.93430e-03	2.934295e-03	
268	3.350000e+00	-1.99600e-02	-2.98410e-03	2.984100e-03	
269	3.400000e+00	-1.99603e-02	-3.03391e-03	3.033906e-03	
270	3.450000e+00	-1.99606e-02	-3.08371e-03	3.083713e-03	
271	3.500000e+00	-1.99609e-02	-3.13352e-03	3.133521e-03	
272	3.550000e+00	-1.99612e-02	-3.18333e-03	3.183330e-03	
273	3.600000e+00	-1.99615e-02	-3.23314e-03	3.233139e-03	
274	3.650000e+00	-1.99618e-02	-3.28295e-03	3.282950e-03	
275	3.700000e+00	-1.99621e-02	-3.33276e-03	3.332761e-03	
276	3.750000e+00	-1.99624e-02	-3.38257e-03	3.382573e-03	
277	3.800000e+00	-1.99626e-02	-3.43239e-03	3.432386e-03	
278	3.850000e+00	-1.99629e-02	-3.48220e-03	3.482200e-03	
279	3.900000e+00	-1.99631e-02	-3.53201e-03	3.532014e-03	
280	3.950000e+00	-1.99634e-02	-3.58183e-03	3.581830e-03	
281	4.000000e+00	-1.99636e-02	-3.63165e-03	3.631646e-03	
282	4.050000e+00	-1.99639e-02	-3.68146e-03	3.681463e-03	
283	4.100000e+00	-1.99641e-02	-3.73128e-03	3.731281e-03	
284	4.150000e+00	-1.99643e-02	-3.78110e-03	3.781099e-03	
285	4.200000e+00	-1.99646e-02	-3.83092e-03	3.830918e-03	
286	4.250000e+00	-1.99648e-02	-3.88074e-03	3.880738e-03	

Index   v-sweep         v1#branch       v2#branch       v_u_ic1#branch  
--------------------------------------------------------------------------------
287	4.300000e+00	-1.99650e-02	-3.93056e-03	3.930559e-03	
288	4.350000e+00	-1.99652e-02	-3.98038e-03	3.980380e-03	
289	4.400000e+00	-1.99654e-02	-4.03020e-03	4.030203e-03	
290	4.450000e+00	-1.99656e-02	-4.08003e-03	4.080025e-03	
291	4.500000e+00	-1.99658e-02	-4.12985e-03	4.129849e-03	
292	4.550000e+00	-1.99660e-02	-4.17967e-03	4.179673e-03	
293	4.600000e+00	-1.99662e-02	-4.22950e-03	4.229498e-03	
294	4.650000e+00	-1.99664e-02	-4.27932e-03	4.279324e-03	
295	4.700000e+00	-1.99666e-02	-4.32915e-03	4.329150e-03	
296	4.750000e+00	-1.99668e-02	-4.37898e-03	4.378977e-03	
297	4.800000e+00	-1.99670e-02	-4.42881e-03	4.428805e-03	
298	4.850000e+00	-1.99671e-02	-4.47863e-03	4.478633e-03	
299	4.900000e+00	-1.99673e-02	-4.52846e-03	4.528462e-03	
300	4.950000e+00	-1.99675e-02	-4.57829e-03	4.578292e-03	
301	5.000000e+00	-1.99676e-02	-4.62812e-03	4.628122e-03	
302	5.050000e+00	-1.99678e-02	-4.67795e-03	4.677953e-03	
303	5.100000e+00	-1.99680e-02	-4.72778e-03	4.727785e-03	
304	5.150000e+00	-1.99681e-02	-4.77762e-03	4.777617e-03	
305	5.200000e+00	-1.99683e-02	-4.82745e-03	4.827450e-03	
306	5.250000e+00	-1.99685e-02	-4.87728e-03	4.877283e-03	
307	5.300000e+00	-1.99686e-02	-4.92712e-03	4.927117e-03	
308	5.350000e+00	-1.99688e-02	-4.97695e-03	4.976952e-03	
309	5.400000e+00	-1.99689e-02	-5.02679e-03	5.026787e-03	
310	5.450000e+00	-1.99690e-02	-5.07662e-03	5.076623e-03	
311	5.500000e+00	-1.99692e-02	-5.12646e-03	5.126459e-03	
312	5.550000e+00	-1.99693e-02	-5.17630e-03	5.176296e-03	
313	5.600000e+00	-1.99695e-02	-5.22613e-03	5.226133e-03	
314	5.650000e+00	-1.99696e-02	-5.27597e-03	5.275971e-03	
315	5.700000e+00	-1.99697e-02	-5.32581e-03	5.325810e-03	
316	5.750000e+00	-1.99699e-02	-5.37565e-03	5.375649e-03	
317	5.800000e+00	-1.99700e-02	-5.42549e-03	5.425489e-03	
318	5.850000e+00	-1.99701e-02	-5.47533e-03	5.475329e-03	
319	5.900000e+00	-1.99703e-02	-5.52517e-03	5.525170e-03	
320	5.950000e+00	-1.99704e-02	-5.57501e-03	5.575011e-03	
321	6.000000e+00	-1.99705e-02	-5.62485e-03	5.624853e-03	
322	6.050000e+00	-1.99706e-02	-5.67470e-03	5.674695e-03	
323	6.100000e+00	-1.99708e-02	-5.72454e-03	5.724538e-03	
324	6.150000e+00	-1.99709e-02	-5.77438e-03	5.774382e-03	
325	6.200000e+00	-1.99710e-02	-5.82423e-03	5.824226e-03	
326	6.250000e+00	-1.99711e-02	-5.87407e-03	5.874070e-03	
327	6.300000e+00	-1.99712e-02	-5.92391e-03	5.923915e-03	
328	6.350000e+00	-1.99713e-02	-5.97376e-03	5.973760e-03	
329	6.400000e+00	-1.99715e-02	-6.02361e-03	6.023606e-03	
330	6.450000e+00	-1.99716e-02	-6.07345e-03	6.073453e-03	
331	6.500000e+00	-1.99717e-02	-6.12330e-03	6.123300e-03	
