* c:\users\mamat\esim-workspace\bjt_cb_config_ztx1048a\bjt_cb_config_ztx1048a.cir
DC transfer characteristic  Tue Jun 24 15:20:33  2025
--------------------------------------------------------------------------------
Index   v-sweep         v1#branch       v_u_ic1#branch  
--------------------------------------------------------------------------------
0	-1.00000e+00	8.852362e-04	-8.85236e-04	
1	-9.80000e-01	8.691310e-04	-8.69131e-04	
2	-9.60000e-01	8.526793e-04	-8.52679e-04	
3	-9.40000e-01	8.360063e-04	-8.36006e-04	
4	-9.20000e-01	8.190079e-04	-8.19008e-04	
5	-9.00000e-01	8.019486e-04	-8.01949e-04	
6	-8.80000e-01	7.847013e-04	-7.84701e-04	
7	-8.60000e-01	7.672169e-04	-7.67217e-04	
8	-8.40000e-01	7.498085e-04	-7.49809e-04	
9	-8.20000e-01	7.320902e-04	-7.32090e-04	
10	-8.00000e-01	7.143514e-04	-7.14351e-04	
11	-7.80000e-01	6.966186e-04	-6.96619e-04	
12	-7.60000e-01	6.787262e-04	-6.78726e-04	
13	-7.40000e-01	6.609173e-04	-6.60917e-04	
14	-7.20000e-01	6.430373e-04	-6.43037e-04	
15	-7.00000e-01	6.249197e-04	-6.24920e-04	
16	-6.80000e-01	6.068789e-04	-6.06879e-04	
17	-6.60000e-01	5.887769e-04	-5.88777e-04	
18	-6.40000e-01	5.708079e-04	-5.70808e-04	
19	-6.20000e-01	5.526964e-04	-5.52696e-04	
20	-6.00000e-01	5.345575e-04	-5.34557e-04	
21	-5.80000e-01	5.164090e-04	-5.16409e-04	
22	-5.60000e-01	4.983428e-04	-4.98343e-04	
23	-5.40000e-01	4.801325e-04	-4.80132e-04	
24	-5.20000e-01	4.621118e-04	-4.62112e-04	
25	-5.00000e-01	4.440247e-04	-4.44025e-04	
26	-4.80000e-01	4.258550e-04	-4.25855e-04	
27	-4.60000e-01	4.078346e-04	-4.07835e-04	
28	-4.40000e-01	3.897571e-04	-3.89757e-04	
29	-4.20000e-01	3.716769e-04	-3.71677e-04	
30	-4.00000e-01	3.537639e-04	-3.53764e-04	
31	-3.80000e-01	3.358403e-04	-3.35840e-04	
32	-3.60000e-01	3.179858e-04	-3.17986e-04	
33	-3.40000e-01	3.001184e-04	-3.00118e-04	
34	-3.20000e-01	2.822370e-04	-2.82237e-04	
35	-3.00000e-01	2.645736e-04	-2.64574e-04	
36	-2.80000e-01	2.470283e-04	-2.47028e-04	
37	-2.60000e-01	2.295131e-04	-2.29513e-04	
38	-2.40000e-01	2.121118e-04	-2.12112e-04	
39	-2.20000e-01	1.948883e-04	-1.94888e-04	
40	-2.00000e-01	1.777403e-04	-1.77740e-04	
41	-1.80000e-01	1.609025e-04	-1.60902e-04	
42	-1.60000e-01	1.442096e-04	-1.44210e-04	
43	-1.40000e-01	1.278133e-04	-1.27813e-04	
44	-1.20000e-01	1.117676e-04	-1.11768e-04	
45	-1.00000e-01	9.615200e-05	-9.61520e-05	
46	-8.00000e-02	8.106962e-05	-8.10696e-05	
47	-6.00000e-02	6.653283e-05	-6.65328e-05	
48	-4.00000e-02	5.283208e-05	-5.28321e-05	
49	-2.00000e-02	4.023120e-05	-4.02312e-05	
50	7.910339e-16	2.902869e-05	-2.90287e-05	
51	2.000000e-02	1.949928e-05	-1.94993e-05	
52	4.000000e-02	1.207554e-05	-1.20755e-05	
53	6.000000e-02	6.865040e-06	-6.86504e-06	
54	8.000000e-02	3.621625e-06	-3.62163e-06	

Index   v-sweep         v1#branch       v_u_ic1#branch  
--------------------------------------------------------------------------------
55	1.000000e-01	2.007971e-06	-2.00797e-06	
56	1.200000e-01	1.196245e-06	-1.19624e-06	
57	1.400000e-01	7.635188e-07	-7.63519e-07	
58	1.600000e-01	5.148069e-07	-5.14807e-07	
59	1.800000e-01	3.627948e-07	-3.62795e-07	
60	2.000000e-01	2.649810e-07	-2.64981e-07	
61	2.200000e-01	1.993067e-07	-1.99307e-07	
62	2.400000e-01	1.536215e-07	-1.53621e-07	
63	2.600000e-01	1.208789e-07	-1.20879e-07	
64	2.800000e-01	9.680856e-08	-9.68086e-08	
65	3.000000e-01	7.872257e-08	-7.87226e-08	
66	3.200000e-01	6.487253e-08	-6.48725e-08	
67	3.400000e-01	5.408834e-08	-5.40883e-08	
68	3.600000e-01	4.556698e-08	-4.55670e-08	
69	3.800000e-01	3.874500e-08	-3.87450e-08	
70	4.000000e-01	3.321919e-08	-3.32192e-08	
71	4.200000e-01	2.869586e-08	-2.86959e-08	
72	4.400000e-01	2.495767e-08	-2.49577e-08	
73	4.600000e-01	2.184141e-08	-2.18414e-08	
74	4.800000e-01	1.922298e-08	-1.92230e-08	
75	5.000000e-01	1.700681e-08	-1.70068e-08	
76	5.200000e-01	1.511853e-08	-1.51185e-08	
77	5.400000e-01	1.349970e-08	-1.34997e-08	
78	5.600000e-01	1.210391e-08	-1.21039e-08	
79	5.800000e-01	1.089404e-08	-1.08940e-08	
80	6.000000e-01	9.840141e-09	-9.84014e-09	
81	6.200000e-01	8.917861e-09	-8.91786e-09	
82	6.400000e-01	8.107289e-09	-8.10729e-09	
83	6.600000e-01	7.392004e-09	-7.39200e-09	
84	6.800000e-01	6.758413e-09	-6.75841e-09	
85	7.000000e-01	6.195168e-09	-6.19517e-09	
86	7.200000e-01	5.692773e-09	-5.69277e-09	
87	7.400000e-01	5.243233e-09	-5.24323e-09	
88	7.600000e-01	4.839774e-09	-4.83977e-09	
89	7.800000e-01	4.476640e-09	-4.47664e-09	
90	8.000000e-01	4.148912e-09	-4.14891e-09	
91	8.200000e-01	3.852370e-09	-3.85237e-09	
92	8.400000e-01	3.583412e-09	-3.58341e-09	
93	8.600000e-01	3.338885e-09	-3.33889e-09	
94	8.800000e-01	3.116080e-09	-3.11608e-09	
95	9.000000e-01	2.912652e-09	-2.91265e-09	
96	9.200000e-01	2.726519e-09	-2.72652e-09	
97	9.400000e-01	2.555895e-09	-2.55590e-09	
98	9.600000e-01	2.399190e-09	-2.39919e-09	
99	9.800000e-01	2.255012e-09	-2.25501e-09	
100	1.000000e+00	2.122133e-09	-2.12213e-09	
101	1.020000e+00	1.999470e-09	-1.99947e-09	
102	1.040000e+00	1.886074e-09	-1.88607e-09	
103	1.060000e+00	1.781055e-09	-1.78105e-09	
104	1.080000e+00	1.683677e-09	-1.68368e-09	
105	1.100000e+00	1.593245e-09	-1.59325e-09	
106	1.120000e+00	1.509160e-09	-1.50916e-09	
107	1.140000e+00	1.430874e-09	-1.43087e-09	
108	1.160000e+00	1.357887e-09	-1.35789e-09	
109	1.180000e+00	1.289769e-09	-1.28977e-09	
110	1.200000e+00	1.226105e-09	-1.22610e-09	
111	1.220000e+00	1.166557e-09	-1.16656e-09	
112	1.240000e+00	1.110771e-09	-1.11077e-09	

Index   v-sweep         v1#branch       v_u_ic1#branch  
--------------------------------------------------------------------------------
113	1.260000e+00	1.058479e-09	-1.05848e-09	
114	1.280000e+00	1.009405e-09	-1.00940e-09	
115	1.300000e+00	9.632859e-10	-9.63286e-10	
116	1.320000e+00	9.199263e-10	-9.19926e-10	
117	1.340000e+00	8.791204e-10	-8.79120e-10	
118	1.360000e+00	8.406719e-10	-8.40672e-10	
119	1.380000e+00	8.044350e-10	-8.04435e-10	
120	1.400000e+00	7.702035e-10	-7.70203e-10	
121	1.420000e+00	7.378938e-10	-7.37894e-10	
122	1.440000e+00	7.073578e-10	-7.07358e-10	
123	1.460000e+00	6.784494e-10	-6.78449e-10	
124	1.480000e+00	6.510997e-10	-6.51100e-10	
125	1.500000e+00	6.251850e-10	-6.25185e-10	
126	1.520000e+00	6.006019e-10	-6.00602e-10	
127	1.540000e+00	5.772834e-10	-5.77283e-10	
128	1.560000e+00	5.551505e-10	-5.55151e-10	
129	1.580000e+00	5.341060e-10	-5.34106e-10	
130	1.600000e+00	5.141185e-10	-5.14119e-10	
131	1.620000e+00	4.950845e-10	-4.95085e-10	
132	1.640000e+00	4.769822e-10	-4.76982e-10	
133	1.660000e+00	4.597317e-10	-4.59732e-10	
134	1.680000e+00	4.432831e-10	-4.43283e-10	
135	1.700000e+00	4.276156e-10	-4.27616e-10	
136	1.720000e+00	4.126626e-10	-4.12663e-10	
137	1.740000e+00	3.983809e-10	-3.98381e-10	
138	1.760000e+00	3.847249e-10	-3.84725e-10	
139	1.780000e+00	3.716944e-10	-3.71694e-10	
140	1.800000e+00	3.592332e-10	-3.59233e-10	
141	1.820000e+00	3.473020e-10	-3.47302e-10	
142	1.840000e+00	3.359033e-10	-3.35903e-10	
143	1.860000e+00	3.249770e-10	-3.24977e-10	
144	1.880000e+00	3.145023e-10	-3.14502e-10	
145	1.900000e+00	3.044714e-10	-3.04471e-10	
146	1.920000e+00	2.948348e-10	-2.94835e-10	
147	1.940000e+00	2.856081e-10	-2.85608e-10	
148	1.960000e+00	2.767354e-10	-2.76735e-10	
149	1.980000e+00	2.682251e-10	-2.68225e-10	
150	2.000000e+00	2.600672e-10	-2.60067e-10	
151	2.020000e+00	2.522032e-10	-2.52203e-10	
152	2.040000e+00	2.446674e-10	-2.44667e-10	
153	2.060000e+00	2.373864e-10	-2.37386e-10	
154	2.080000e+00	2.304095e-10	-2.30409e-10	
155	2.100000e+00	2.236754e-10	-2.23675e-10	
156	2.120000e+00	2.172173e-10	-2.17217e-10	
157	2.140000e+00	2.109843e-10	-2.10984e-10	
158	2.160000e+00	2.049600e-10	-2.04960e-10	
159	2.180000e+00	1.991636e-10	-1.99164e-10	
160	2.200000e+00	1.935886e-10	-1.93589e-10	
161	2.220000e+00	1.882015e-10	-1.88202e-10	
162	2.240000e+00	1.830037e-10	-1.83004e-10	
163	2.260000e+00	1.780004e-10	-1.78000e-10	
164	2.280000e+00	1.731365e-10	-1.73136e-10	
165	2.300000e+00	1.684561e-10	-1.68456e-10	
166	2.320000e+00	1.639428e-10	-1.63943e-10	
167	2.340000e+00	1.595823e-10	-1.59582e-10	
168	2.360000e+00	1.553632e-10	-1.55363e-10	
169	2.380000e+00	1.512762e-10	-1.51276e-10	
170	2.400000e+00	1.473144e-10	-1.47314e-10	

Index   v-sweep         v1#branch       v_u_ic1#branch  
--------------------------------------------------------------------------------
171	2.420000e+00	1.435077e-10	-1.43508e-10	
172	2.440000e+00	1.398200e-10	-1.39820e-10	
173	2.460000e+00	1.362160e-10	-1.36216e-10	
174	2.480000e+00	1.327672e-10	-1.32767e-10	
175	2.500000e+00	1.294074e-10	-1.29407e-10	
176	2.520000e+00	1.261415e-10	-1.26142e-10	
177	2.540000e+00	1.230128e-10	-1.23013e-10	
178	2.560000e+00	1.199580e-10	-1.19958e-10	
179	2.580000e+00	1.169871e-10	-1.16987e-10	
180	2.600000e+00	1.141118e-10	-1.14112e-10	
181	2.620000e+00	1.113084e-10	-1.11308e-10	
182	2.640000e+00	1.086286e-10	-1.08629e-10	
183	2.660000e+00	1.059762e-10	-1.05976e-10	
184	2.680000e+00	1.034432e-10	-1.03443e-10	
185	2.700000e+00	1.009724e-10	-1.00972e-10	
186	2.720000e+00	9.854446e-11	-9.85445e-11	
187	2.740000e+00	9.621846e-11	-9.62185e-11	
188	2.760000e+00	9.393847e-11	-9.39385e-11	
189	2.780000e+00	9.172690e-11	-9.17269e-11	
190	2.800000e+00	8.960766e-11	-8.96077e-11	
191	2.820000e+00	8.752607e-11	-8.75261e-11	
192	2.840000e+00	8.546701e-11	-8.54670e-11	
193	2.860000e+00	8.349699e-11	-8.34970e-11	
194	2.880000e+00	8.160328e-11	-8.16033e-11	
195	2.900000e+00	7.973226e-11	-7.97323e-11	
196	2.920000e+00	7.791244e-11	-7.79124e-11	
197	2.940000e+00	7.613198e-11	-7.61320e-11	
198	2.960000e+00	7.442138e-11	-7.44214e-11	
199	2.980000e+00	7.272783e-11	-7.27278e-11	
200	3.000000e+00	7.108290e-11	-7.10829e-11	
201	3.020000e+00	6.951954e-11	-6.95195e-11	
202	3.040000e+00	6.794243e-11	-6.79424e-11	
203	3.060000e+00	6.642817e-11	-6.64282e-11	
204	3.080000e+00	6.496827e-11	-6.49683e-11	
205	3.100000e+00	6.351038e-11	-6.35104e-11	
206	3.120000e+00	6.213423e-11	-6.21342e-11	
207	3.140000e+00	6.074351e-11	-6.07435e-11	
208	3.160000e+00	5.941943e-11	-5.94194e-11	
209	3.180000e+00	5.811006e-11	-5.81101e-11	
210	3.200000e+00	5.685343e-11	-5.68534e-11	
211	3.220000e+00	5.559737e-11	-5.55974e-11	
212	3.240000e+00	5.438077e-11	-5.43808e-11	
213	3.260000e+00	5.319747e-11	-5.31975e-11	
214	3.280000e+00	5.204146e-11	-5.20415e-11	
215	3.300000e+00	5.090684e-11	-5.09068e-11	
216	3.320000e+00	4.983502e-11	-4.98350e-11	
217	3.340000e+00	4.872624e-11	-4.87262e-11	
218	3.360000e+00	4.766962e-11	-4.76696e-11	
219	3.380000e+00	4.666055e-11	-4.66606e-11	
220	3.400000e+00	4.564623e-11	-4.56462e-11	
221	3.420000e+00	4.467001e-11	-4.46700e-11	
222	3.440000e+00	4.372758e-11	-4.37276e-11	
223	3.460000e+00	4.276557e-11	-4.27656e-11	
224	3.480000e+00	4.182846e-11	-4.18285e-11	
225	3.500000e+00	4.096193e-11	-4.09619e-11	
226	3.520000e+00	4.006283e-11	-4.00628e-11	
227	3.540000e+00	3.922703e-11	-3.92270e-11	
228	3.560000e+00	3.835039e-11	-3.83504e-11	

Index   v-sweep         v1#branch       v_u_ic1#branch  
--------------------------------------------------------------------------------
229	3.580000e+00	3.753006e-11	-3.75301e-11	
230	3.600000e+00	3.671207e-11	-3.67121e-11	
231	3.620000e+00	3.594422e-11	-3.59442e-11	
232	3.640000e+00	3.517212e-11	-3.51721e-11	
233	3.660000e+00	3.439226e-11	-3.43923e-11	
234	3.680000e+00	3.365351e-11	-3.36535e-11	
235	3.700000e+00	3.295335e-11	-3.29533e-11	
236	3.720000e+00	3.223644e-11	-3.22364e-11	
237	3.740000e+00	3.149951e-11	-3.14995e-11	
238	3.760000e+00	3.084621e-11	-3.08462e-11	
239	3.780000e+00	3.016763e-11	-3.01676e-11	
240	3.800000e+00	2.951466e-11	-2.95147e-11	
241	3.820000e+00	2.888505e-11	-2.88851e-11	
242	3.840000e+00	2.822206e-11	-2.82221e-11	
243	3.860000e+00	2.763239e-11	-2.76324e-11	
244	3.880000e+00	2.700451e-11	-2.70045e-11	
245	3.900000e+00	2.639093e-11	-2.63909e-11	
246	3.920000e+00	2.578961e-11	-2.57896e-11	
247	3.940000e+00	2.525455e-11	-2.52545e-11	
248	3.960000e+00	2.467209e-11	-2.46721e-11	
249	3.980000e+00	2.415258e-11	-2.41526e-11	
250	4.000000e+00	2.358127e-11	-2.35813e-11	
251	4.020000e+00	2.306972e-11	-2.30697e-11	
252	4.040000e+00	2.250211e-11	-2.25021e-11	
253	4.060000e+00	2.199118e-11	-2.19912e-11	
254	4.080000e+00	2.147802e-11	-2.14780e-11	
255	4.100000e+00	2.101915e-11	-2.10192e-11	
256	4.120000e+00	2.049660e-11	-2.04966e-11	
257	4.140000e+00	2.002548e-11	-2.00255e-11	
258	4.160000e+00	1.954585e-11	-1.95459e-11	
259	4.180000e+00	1.911547e-11	-1.91155e-11	
260	4.200000e+00	1.867386e-11	-1.86739e-11	
261	4.220000e+00	1.821943e-11	-1.82194e-11	
262	4.240000e+00	1.775058e-11	-1.77506e-11	
263	4.260000e+00	1.732629e-11	-1.73263e-11	
264	4.280000e+00	1.694588e-11	-1.69459e-11	
265	4.300000e+00	1.648644e-11	-1.64864e-11	
266	4.320000e+00	1.606841e-11	-1.60684e-11	
267	4.340000e+00	1.569114e-11	-1.56911e-11	
268	4.360000e+00	1.529207e-11	-1.52921e-11	
269	4.380000e+00	1.493196e-11	-1.49320e-11	
270	4.400000e+00	1.454772e-11	-1.45477e-11	
271	4.420000e+00	1.413792e-11	-1.41379e-11	
272	4.440000e+00	1.376425e-11	-1.37642e-11	
273	4.460000e+00	1.342617e-11	-1.34262e-11	
274	4.480000e+00	1.305948e-11	-1.30595e-11	
275	4.500000e+00	1.266283e-11	-1.26628e-11	
276	4.520000e+00	1.236333e-11	-1.23633e-11	
277	4.540000e+00	1.203231e-11	-1.20323e-11	
278	4.560000e+00	1.166844e-11	-1.16684e-11	
279	4.580000e+00	1.133551e-11	-1.13355e-11	
280	4.600000e+00	1.103306e-11	-1.10331e-11	
281	4.620000e+00	1.069500e-11	-1.06950e-11	
282	4.640000e+00	1.038599e-11	-1.03860e-11	
283	4.660000e+00	1.003940e-11	-1.00394e-11	
284	4.680000e+00	9.720478e-12	-9.72048e-12	
285	4.700000e+00	9.428826e-12	-9.42883e-12	
286	4.720000e+00	9.164061e-12	-9.16406e-12	

Index   v-sweep         v1#branch       v_u_ic1#branch  
--------------------------------------------------------------------------------
287	4.740000e+00	8.858454e-12	-8.85845e-12	
288	4.760000e+00	8.578426e-12	-8.57843e-12	
289	4.780000e+00	8.255700e-12	-8.25570e-12	
290	4.800000e+00	7.957286e-12	-7.95729e-12	
291	4.820000e+00	7.682846e-12	-7.68285e-12	
292	4.840000e+00	7.432050e-12	-7.43205e-12	
293	4.860000e+00	7.135513e-12	-7.13551e-12	
294	4.880000e+00	6.930763e-12	-6.93076e-12	
295	4.900000e+00	6.609453e-12	-6.60945e-12	
296	4.920000e+00	6.379326e-12	-6.37933e-12	
297	4.940000e+00	6.100548e-12	-6.10055e-12	
298	4.960000e+00	5.842458e-12	-5.84246e-12	
299	4.980000e+00	5.604785e-12	-5.60478e-12	
300	5.000000e+00	5.387256e-12	-5.38726e-12	
301	5.020000e+00	5.118269e-12	-5.11827e-12	
302	5.040000e+00	4.868336e-12	-4.86834e-12	
303	5.060000e+00	4.637204e-12	-4.63720e-12	
304	5.080000e+00	4.424626e-12	-4.42463e-12	
305	5.100000e+00	4.157891e-12	-4.15789e-12	
306	5.120000e+00	3.981425e-12	-3.98142e-12	
307	5.140000e+00	3.749768e-12	-3.74977e-12	
308	5.160000e+00	3.535168e-12	-3.53517e-12	
309	5.180000e+00	3.263800e-12	-3.26380e-12	
310	5.200000e+00	3.082382e-12	-3.08238e-12	
311	5.220000e+00	2.843202e-12	-2.84320e-12	
312	5.240000e+00	2.694135e-12	-2.69413e-12	
313	5.260000e+00	2.486331e-12	-2.48633e-12	
314	5.280000e+00	2.218746e-12	-2.21875e-12	
315	5.300000e+00	2.040969e-12	-2.04097e-12	
316	5.320000e+00	1.878066e-12	-1.87807e-12	
317	5.340000e+00	1.653970e-12	-1.65397e-12	
318	5.360000e+00	1.443818e-12	-1.44382e-12	
319	5.380000e+00	1.247441e-12	-1.24744e-12	
320	5.400000e+00	1.064663e-12	-1.06466e-12	
321	5.420000e+00	8.953203e-13	-8.95320e-13	
322	5.440000e+00	6.619427e-13	-6.61943e-13	
323	5.460000e+00	5.187014e-13	-5.18701e-13	
324	5.480000e+00	3.105424e-13	-3.10542e-13	
325	5.500000e+00	1.146201e-13	-1.14620e-13	
326	5.520000e+00	-6.92163e-14	6.921633e-14	
327	5.540000e+00	-2.41111e-13	2.411110e-13	
328	5.560000e+00	-4.01206e-13	4.012060e-13	
329	5.580000e+00	-5.49643e-13	5.496428e-13	
330	5.600000e+00	-7.66135e-13	7.661346e-13	
331	5.620000e+00	-8.91944e-13	8.919436e-13	
332	5.640000e+00	-1.08664e-12	1.086645e-12	
333	5.660000e+00	-1.27078e-12	1.270783e-12	
334	5.680000e+00	-1.36377e-12	1.363768e-12	
335	5.700000e+00	-1.52687e-12	1.526874e-12	
336	5.720000e+00	-1.67979e-12	1.679787e-12	
337	5.740000e+00	-1.90419e-12	1.904194e-12	
338	5.760000e+00	-2.03736e-12	2.037357e-12	
339	5.780000e+00	-2.16067e-12	2.160673e-12	
340	5.800000e+00	-2.35667e-12	2.356673e-12	
341	5.820000e+00	-2.46091e-12	2.460909e-12	
342	5.840000e+00	-2.63861e-12	2.638613e-12	
343	5.860000e+00	-2.80747e-12	2.807469e-12	
344	5.880000e+00	-2.96758e-12	2.967577e-12	

Index   v-sweep         v1#branch       v_u_ic1#branch  
--------------------------------------------------------------------------------
345	5.900000e+00	-3.11904e-12	3.119035e-12	
346	5.920000e+00	-3.26195e-12	3.261946e-12	
347	5.940000e+00	-3.39640e-12	3.396400e-12	
348	5.960000e+00	-3.52250e-12	3.522496e-12	
349	5.980000e+00	-3.64032e-12	3.640321e-12	
350	6.000000e+00	-3.83524e-12	3.835236e-12	
351	6.020000e+00	-3.93708e-12	3.937075e-12	
352	6.040000e+00	-4.03091e-12	4.030914e-12	
353	6.060000e+00	-4.20295e-12	4.202952e-12	
354	6.080000e+00	-4.36772e-12	4.367721e-12	
355	6.100000e+00	-4.43862e-12	4.438621e-12	
356	6.120000e+00	-4.58882e-12	4.588817e-12	
357	6.140000e+00	-4.73199e-12	4.731986e-12	
358	6.160000e+00	-4.86821e-12	4.868206e-12	
359	6.180000e+00	-4.99755e-12	4.997548e-12	
360	6.200000e+00	-5.12009e-12	5.120094e-12	
361	6.220000e+00	-5.23591e-12	5.235908e-12	
362	6.240000e+00	-5.34507e-12	5.345067e-12	
363	6.260000e+00	-5.53660e-12	5.536599e-12	
364	6.280000e+00	-5.63294e-12	5.632936e-12	
365	6.300000e+00	-5.72282e-12	5.722822e-12	
366	6.320000e+00	-5.89614e-12	5.896135e-12	
367	6.340000e+00	-5.97360e-12	5.973597e-12	
368	6.360000e+00	-6.13518e-12	6.135184e-12	
369	6.380000e+00	-6.20048e-12	6.200478e-12	
370	6.400000e+00	-6.35059e-12	6.350589e-12	
371	6.420000e+00	-6.40396e-12	6.403960e-12	
372	6.440000e+00	-6.54283e-12	6.542834e-12	
373	6.460000e+00	-6.67632e-12	6.676317e-12	
374	6.480000e+00	-6.80447e-12	6.804468e-12	
375	6.500000e+00	-6.92734e-12	6.927343e-12	
376	6.520000e+00	-7.04500e-12	7.044996e-12	
377	6.540000e+00	-7.15748e-12	7.157479e-12	
378	6.560000e+00	-7.26485e-12	7.264847e-12	
379	6.580000e+00	-7.36715e-12	7.367150e-12	
380	6.600000e+00	-7.46444e-12	7.464441e-12	
381	6.620000e+00	-7.55677e-12	7.556766e-12	
382	6.640000e+00	-7.64418e-12	7.644179e-12	
383	6.660000e+00	-7.72672e-12	7.726720e-12	
384	6.680000e+00	-7.89938e-12	7.899376e-12	
385	6.700000e+00	-7.97261e-12	7.972610e-12	
386	6.720000e+00	-8.04112e-12	8.041118e-12	
387	6.740000e+00	-8.20072e-12	8.200723e-12	
388	6.760000e+00	-8.26019e-12	8.260195e-12	
389	6.780000e+00	-8.41142e-12	8.411418e-12	
390	6.800000e+00	-8.46202e-12	8.462021e-12	
391	6.820000e+00	-8.60503e-12	8.605031e-12	
392	6.840000e+00	-8.64694e-12	8.646936e-12	
393	6.860000e+00	-8.78190e-12	8.781899e-12	
394	6.880000e+00	-8.91304e-12	8.913038e-12	
395	6.900000e+00	-8.94234e-12	8.942336e-12	
396	6.920000e+00	-9.06566e-12	9.065660e-12	
397	6.940000e+00	-9.18528e-12	9.185276e-12	
398	6.960000e+00	-9.30122e-12	9.301220e-12	
399	6.980000e+00	-9.31434e-12	9.314336e-12	
400	7.000000e+00	-9.42276e-12	9.422761e-12	
401	7.020000e+00	-9.52762e-12	9.527622e-12	
402	7.040000e+00	-9.62895e-12	9.628950e-12	

Index   v-sweep         v1#branch       v_u_ic1#branch  
--------------------------------------------------------------------------------
403	7.060000e+00	-9.72678e-12	9.726784e-12	
404	7.080000e+00	-9.82115e-12	9.821152e-12	
405	7.100000e+00	-9.91209e-12	9.912091e-12	
406	7.120000e+00	-9.99963e-12	9.999631e-12	
407	7.140000e+00	-1.00838e-11	1.008380e-11	
408	7.160000e+00	-1.01646e-11	1.016464e-11	
409	7.180000e+00	-1.02422e-11	1.024217e-11	
410	7.200000e+00	-1.03164e-11	1.031643e-11	
411	7.220000e+00	-1.03874e-11	1.038744e-11	
412	7.240000e+00	-1.05581e-11	1.055812e-11	
413	7.260000e+00	-1.06230e-11	1.062301e-11	
414	7.280000e+00	-1.06847e-11	1.068474e-11	
415	7.300000e+00	-1.07433e-11	1.074333e-11	
416	7.320000e+00	-1.09028e-11	1.090285e-11	
417	7.340000e+00	-1.09555e-11	1.095555e-11	
418	7.360000e+00	-1.10052e-11	1.100519e-11	
419	7.380000e+00	-1.11567e-11	1.115668e-11	
420	7.400000e+00	-1.12006e-11	1.120059e-11	
421	7.420000e+00	-1.12415e-11	1.124151e-11	
422	7.440000e+00	-1.13852e-11	1.138522e-11	
423	7.460000e+00	-1.14206e-11	1.142055e-11	
424	7.480000e+00	-1.15593e-11	1.155928e-11	
425	7.500000e+00	-1.15891e-11	1.158911e-11	
