* c:\users\mamat\esim-workspace\bjt_cb_config_ztx1048a\bjt_cb_config_ztx1048a.cir
DC transfer characteristic  Tue Jun 24 15:20:33  2025
--------------------------------------------------------------------------------
Index   v-sweep         ie              net-_q1-pad1_   net-_q1-pad3_   
--------------------------------------------------------------------------------
0	-1.00000e+00	1.144060e+08	-1.14764e-01	1.144060e+08	
1	-9.80000e-01	1.305756e+08	-1.10869e-01	1.305756e+08	
2	-9.60000e-01	1.469406e+08	-1.07321e-01	1.469406e+08	
3	-9.40000e-01	1.638245e+08	-1.03994e-01	1.638245e+08	
4	-9.20000e-01	1.802158e+08	-1.00992e-01	1.802158e+08	
5	-9.00000e-01	1.976964e+08	-9.80514e-02	1.976964e+08	
6	-8.80000e-01	2.151519e+08	-9.52987e-02	2.151519e+08	
7	-8.60000e-01	2.318295e+08	-9.27831e-02	2.318295e+08	
8	-8.40000e-01	2.504273e+08	-9.01915e-02	2.504273e+08	
9	-8.20000e-01	2.670374e+08	-8.79098e-02	2.670374e+08	
10	-8.00000e-01	2.843498e+08	-8.56486e-02	2.843498e+08	
11	-7.80000e-01	3.026741e+08	-8.33814e-02	3.026741e+08	
12	-7.60000e-01	3.199134e+08	-8.12738e-02	3.199134e+08	
13	-7.40000e-01	3.390290e+08	-7.90827e-02	3.390290e+08	
14	-7.20000e-01	3.580053e+08	-7.69627e-02	3.580053e+08	
15	-7.00000e-01	3.741501e+08	-7.50803e-02	3.741501e+08	
16	-6.80000e-01	3.919169e+08	-7.31211e-02	3.919169e+08	
17	-6.60000e-01	4.091483e+08	-7.12231e-02	4.091483e+08	
18	-6.40000e-01	4.290245e+08	-6.91921e-02	4.290245e+08	
19	-6.20000e-01	4.468484e+08	-6.73036e-02	4.468484e+08	
20	-6.00000e-01	4.643958e+08	-6.54425e-02	4.643958e+08	
21	-5.80000e-01	4.818863e+08	-6.35910e-02	4.818863e+08	
22	-5.60000e-01	5.010859e+08	-6.16572e-02	5.010859e+08	
23	-5.40000e-01	5.173089e+08	-5.98675e-02	5.173089e+08	
24	-5.20000e-01	5.374638e+08	-5.78882e-02	5.374638e+08	
25	-5.00000e-01	5.560243e+08	-5.59753e-02	5.560243e+08	
26	-4.80000e-01	5.723368e+08	-5.41450e-02	5.723368e+08	
27	-4.60000e-01	5.916653e+08	-5.21654e-02	5.916653e+08	
28	-4.40000e-01	6.090245e+08	-5.02429e-02	6.090245e+08	
29	-4.20000e-01	6.254768e+08	-4.83231e-02	6.254768e+08	
30	-4.00000e-01	6.453045e+08	-4.62361e-02	6.453045e+08	
31	-3.80000e-01	6.637656e+08	-4.41597e-02	6.637656e+08	
32	-3.60000e-01	6.827767e+08	-4.20142e-02	6.827767e+08	
33	-3.40000e-01	6.997466e+08	-3.98816e-02	6.997466e+08	
34	-3.20000e-01	7.141810e+08	-3.77630e-02	7.141810e+08	
35	-3.00000e-01	7.327250e+08	-3.54264e-02	7.327250e+08	
36	-2.80000e-01	7.521793e+08	-3.29717e-02	7.521793e+08	
37	-2.60000e-01	7.692655e+08	-3.04869e-02	7.692655e+08	
38	-2.40000e-01	7.860212e+08	-2.78882e-02	7.860212e+08	
39	-2.20000e-01	8.039719e+08	-2.51117e-02	8.039719e+08	
40	-2.00000e-01	8.186713e+08	-2.22597e-02	8.186713e+08	
41	-1.80000e-01	8.374113e+08	-1.90975e-02	8.374113e+08	
42	-1.60000e-01	8.528474e+08	-1.57904e-02	8.528474e+08	
43	-1.40000e-01	8.688298e+08	-1.21867e-02	8.688298e+08	
44	-1.20000e-01	8.851985e+08	-8.23236e-03	8.851985e+08	
45	-1.00000e-01	9.021301e+08	-3.84800e-03	9.021301e+08	
46	-8.00000e-02	9.198307e+08	1.069625e-03	9.198307e+08	
47	-6.00000e-02	9.323601e+08	6.532829e-03	9.323601e+08	
48	-4.00000e-02	9.445018e+08	1.283208e-02	9.445018e+08	
49	-2.00000e-02	9.573748e+08	2.023120e-02	9.573748e+08	
50	7.910339e-16	9.705996e+08	2.902869e-02	9.705996e+08	
51	2.000000e-02	9.772857e+08	3.949928e-02	9.772857e+08	
52	4.000000e-02	9.841586e+08	5.207554e-02	9.841586e+08	
53	6.000000e-02	9.911135e+08	6.686504e-02	9.911135e+08	
54	8.000000e-02	9.911076e+08	8.362163e-02	9.911076e+08	

Index   v-sweep         ie              net-_q1-pad1_   net-_q1-pad3_   
--------------------------------------------------------------------------------
55	1.000000e-01	9.981390e+08	1.020080e-01	9.981390e+08	
56	1.200000e-01	9.981628e+08	1.211962e-01	9.981628e+08	
57	1.400000e-01	9.981444e+08	1.407635e-01	9.981444e+08	
58	1.600000e-01	9.981400e+08	1.605148e-01	9.981400e+08	
59	1.800000e-01	9.981388e+08	1.803628e-01	9.981388e+08	
60	2.000000e-01	9.981384e+08	2.002650e-01	9.981384e+08	
61	2.200000e-01	9.981383e+08	2.201993e-01	9.981383e+08	
62	2.400000e-01	9.981383e+08	2.401536e-01	9.981383e+08	
63	2.600000e-01	9.981382e+08	2.601209e-01	9.981382e+08	
64	2.800000e-01	9.981382e+08	2.800968e-01	9.981382e+08	
65	3.000000e-01	9.981382e+08	3.000787e-01	9.981382e+08	
66	3.200000e-01	9.981382e+08	3.200649e-01	9.981382e+08	
67	3.400000e-01	9.981382e+08	3.400541e-01	9.981382e+08	
68	3.600000e-01	9.981382e+08	3.600456e-01	9.981382e+08	
69	3.800000e-01	9.981382e+08	3.800387e-01	9.981382e+08	
70	4.000000e-01	9.981382e+08	4.000332e-01	9.981382e+08	
71	4.200000e-01	9.981382e+08	4.200287e-01	9.981382e+08	
72	4.400000e-01	9.981382e+08	4.400250e-01	9.981382e+08	
73	4.600000e-01	9.981382e+08	4.600218e-01	9.981382e+08	
74	4.800000e-01	9.981382e+08	4.800192e-01	9.981382e+08	
75	5.000000e-01	9.981382e+08	5.000170e-01	9.981382e+08	
76	5.200000e-01	9.981382e+08	5.200151e-01	9.981382e+08	
77	5.400000e-01	9.981382e+08	5.400135e-01	9.981382e+08	
78	5.600000e-01	9.981382e+08	5.600121e-01	9.981382e+08	
79	5.800000e-01	9.981382e+08	5.800109e-01	9.981382e+08	
80	6.000000e-01	9.981382e+08	6.000098e-01	9.981382e+08	
81	6.200000e-01	9.981382e+08	6.200089e-01	9.981382e+08	
82	6.400000e-01	9.981382e+08	6.400081e-01	9.981382e+08	
83	6.600000e-01	9.981382e+08	6.600074e-01	9.981382e+08	
84	6.800000e-01	9.981382e+08	6.800068e-01	9.981382e+08	
85	7.000000e-01	9.981382e+08	7.000062e-01	9.981382e+08	
86	7.200000e-01	9.981382e+08	7.200057e-01	9.981382e+08	
87	7.400000e-01	9.981382e+08	7.400052e-01	9.981382e+08	
88	7.600000e-01	9.981382e+08	7.600048e-01	9.981382e+08	
89	7.800000e-01	9.981382e+08	7.800045e-01	9.981382e+08	
90	8.000000e-01	9.981382e+08	8.000041e-01	9.981382e+08	
91	8.200000e-01	9.981382e+08	8.200039e-01	9.981382e+08	
92	8.400000e-01	9.981382e+08	8.400036e-01	9.981382e+08	
93	8.600000e-01	9.981382e+08	8.600033e-01	9.981382e+08	
94	8.800000e-01	9.981382e+08	8.800031e-01	9.981382e+08	
95	9.000000e-01	9.981382e+08	9.000029e-01	9.981382e+08	
96	9.200000e-01	9.981382e+08	9.200027e-01	9.981382e+08	
97	9.400000e-01	9.981382e+08	9.400026e-01	9.981382e+08	
98	9.600000e-01	9.981382e+08	9.600024e-01	9.981382e+08	
99	9.800000e-01	9.981382e+08	9.800023e-01	9.981382e+08	
100	1.000000e+00	9.981382e+08	1.000002e+00	9.981382e+08	
101	1.020000e+00	9.981382e+08	1.020002e+00	9.981382e+08	
102	1.040000e+00	9.981382e+08	1.040002e+00	9.981382e+08	
103	1.060000e+00	9.981382e+08	1.060002e+00	9.981382e+08	
104	1.080000e+00	9.981382e+08	1.080002e+00	9.981382e+08	
105	1.100000e+00	9.981382e+08	1.100002e+00	9.981382e+08	
106	1.120000e+00	9.981382e+08	1.120002e+00	9.981382e+08	
107	1.140000e+00	9.981382e+08	1.140001e+00	9.981382e+08	
108	1.160000e+00	9.981382e+08	1.160001e+00	9.981382e+08	
109	1.180000e+00	9.981382e+08	1.180001e+00	9.981382e+08	
110	1.200000e+00	9.981382e+08	1.200001e+00	9.981382e+08	
111	1.220000e+00	9.981382e+08	1.220001e+00	9.981382e+08	
112	1.240000e+00	9.981382e+08	1.240001e+00	9.981382e+08	

Index   v-sweep         ie              net-_q1-pad1_   net-_q1-pad3_   
--------------------------------------------------------------------------------
113	1.260000e+00	9.981382e+08	1.260001e+00	9.981382e+08	
114	1.280000e+00	9.981382e+08	1.280001e+00	9.981382e+08	
115	1.300000e+00	9.981382e+08	1.300001e+00	9.981382e+08	
116	1.320000e+00	9.981382e+08	1.320001e+00	9.981382e+08	
117	1.340000e+00	9.981382e+08	1.340001e+00	9.981382e+08	
118	1.360000e+00	9.981382e+08	1.360001e+00	9.981382e+08	
119	1.380000e+00	9.981382e+08	1.380001e+00	9.981382e+08	
120	1.400000e+00	9.981382e+08	1.400001e+00	9.981382e+08	
121	1.420000e+00	9.981382e+08	1.420001e+00	9.981382e+08	
122	1.440000e+00	9.981382e+08	1.440001e+00	9.981382e+08	
123	1.460000e+00	9.981382e+08	1.460001e+00	9.981382e+08	
124	1.480000e+00	9.981382e+08	1.480001e+00	9.981382e+08	
125	1.500000e+00	9.981382e+08	1.500001e+00	9.981382e+08	
126	1.520000e+00	9.981382e+08	1.520001e+00	9.981382e+08	
127	1.540000e+00	9.981382e+08	1.540001e+00	9.981382e+08	
128	1.560000e+00	9.981382e+08	1.560001e+00	9.981382e+08	
129	1.580000e+00	9.981382e+08	1.580001e+00	9.981382e+08	
130	1.600000e+00	9.981382e+08	1.600001e+00	9.981382e+08	
131	1.620000e+00	9.981382e+08	1.620000e+00	9.981382e+08	
132	1.640000e+00	9.981382e+08	1.640000e+00	9.981382e+08	
133	1.660000e+00	9.981382e+08	1.660000e+00	9.981382e+08	
134	1.680000e+00	9.981382e+08	1.680000e+00	9.981382e+08	
135	1.700000e+00	9.981382e+08	1.700000e+00	9.981382e+08	
136	1.720000e+00	9.981382e+08	1.720000e+00	9.981382e+08	
137	1.740000e+00	9.981382e+08	1.740000e+00	9.981382e+08	
138	1.760000e+00	9.981382e+08	1.760000e+00	9.981382e+08	
139	1.780000e+00	9.981382e+08	1.780000e+00	9.981382e+08	
140	1.800000e+00	9.981382e+08	1.800000e+00	9.981382e+08	
141	1.820000e+00	9.981382e+08	1.820000e+00	9.981382e+08	
142	1.840000e+00	9.981382e+08	1.840000e+00	9.981382e+08	
143	1.860000e+00	9.981382e+08	1.860000e+00	9.981382e+08	
144	1.880000e+00	9.981382e+08	1.880000e+00	9.981382e+08	
145	1.900000e+00	9.981382e+08	1.900000e+00	9.981382e+08	
146	1.920000e+00	9.981382e+08	1.920000e+00	9.981382e+08	
147	1.940000e+00	9.981382e+08	1.940000e+00	9.981382e+08	
148	1.960000e+00	9.981382e+08	1.960000e+00	9.981382e+08	
149	1.980000e+00	9.981382e+08	1.980000e+00	9.981382e+08	
150	2.000000e+00	9.981382e+08	2.000000e+00	9.981382e+08	
151	2.020000e+00	9.981382e+08	2.020000e+00	9.981382e+08	
152	2.040000e+00	9.981382e+08	2.040000e+00	9.981382e+08	
153	2.060000e+00	9.981382e+08	2.060000e+00	9.981382e+08	
154	2.080000e+00	9.981382e+08	2.080000e+00	9.981382e+08	
155	2.100000e+00	9.981382e+08	2.100000e+00	9.981382e+08	
156	2.120000e+00	9.981382e+08	2.120000e+00	9.981382e+08	
157	2.140000e+00	9.981382e+08	2.140000e+00	9.981382e+08	
158	2.160000e+00	9.981382e+08	2.160000e+00	9.981382e+08	
159	2.180000e+00	9.981382e+08	2.180000e+00	9.981382e+08	
160	2.200000e+00	9.981382e+08	2.200000e+00	9.981382e+08	
161	2.220000e+00	9.981382e+08	2.220000e+00	9.981382e+08	
162	2.240000e+00	9.981382e+08	2.240000e+00	9.981382e+08	
163	2.260000e+00	9.981382e+08	2.260000e+00	9.981382e+08	
164	2.280000e+00	9.981382e+08	2.280000e+00	9.981382e+08	
165	2.300000e+00	9.981382e+08	2.300000e+00	9.981382e+08	
166	2.320000e+00	9.981382e+08	2.320000e+00	9.981382e+08	
167	2.340000e+00	9.981382e+08	2.340000e+00	9.981382e+08	
168	2.360000e+00	9.981382e+08	2.360000e+00	9.981382e+08	
169	2.380000e+00	9.981382e+08	2.380000e+00	9.981382e+08	
170	2.400000e+00	9.981382e+08	2.400000e+00	9.981382e+08	

Index   v-sweep         ie              net-_q1-pad1_   net-_q1-pad3_   
--------------------------------------------------------------------------------
171	2.420000e+00	9.981382e+08	2.420000e+00	9.981382e+08	
172	2.440000e+00	9.981382e+08	2.440000e+00	9.981382e+08	
173	2.460000e+00	9.981382e+08	2.460000e+00	9.981382e+08	
174	2.480000e+00	9.981382e+08	2.480000e+00	9.981382e+08	
175	2.500000e+00	9.981382e+08	2.500000e+00	9.981382e+08	
176	2.520000e+00	9.981382e+08	2.520000e+00	9.981382e+08	
177	2.540000e+00	9.981382e+08	2.540000e+00	9.981382e+08	
178	2.560000e+00	9.981382e+08	2.560000e+00	9.981382e+08	
179	2.580000e+00	9.981382e+08	2.580000e+00	9.981382e+08	
180	2.600000e+00	9.981382e+08	2.600000e+00	9.981382e+08	
181	2.620000e+00	9.981382e+08	2.620000e+00	9.981382e+08	
182	2.640000e+00	9.981382e+08	2.640000e+00	9.981382e+08	
183	2.660000e+00	9.981382e+08	2.660000e+00	9.981382e+08	
184	2.680000e+00	9.981382e+08	2.680000e+00	9.981382e+08	
185	2.700000e+00	9.981382e+08	2.700000e+00	9.981382e+08	
186	2.720000e+00	9.981382e+08	2.720000e+00	9.981382e+08	
187	2.740000e+00	9.981382e+08	2.740000e+00	9.981382e+08	
188	2.760000e+00	9.981382e+08	2.760000e+00	9.981382e+08	
189	2.780000e+00	9.981382e+08	2.780000e+00	9.981382e+08	
190	2.800000e+00	9.981382e+08	2.800000e+00	9.981382e+08	
191	2.820000e+00	9.981382e+08	2.820000e+00	9.981382e+08	
192	2.840000e+00	9.981382e+08	2.840000e+00	9.981382e+08	
193	2.860000e+00	9.981382e+08	2.860000e+00	9.981382e+08	
194	2.880000e+00	9.981382e+08	2.880000e+00	9.981382e+08	
195	2.900000e+00	9.981382e+08	2.900000e+00	9.981382e+08	
196	2.920000e+00	9.981382e+08	2.920000e+00	9.981382e+08	
197	2.940000e+00	9.981382e+08	2.940000e+00	9.981382e+08	
198	2.960000e+00	9.981382e+08	2.960000e+00	9.981382e+08	
199	2.980000e+00	9.981382e+08	2.980000e+00	9.981382e+08	
200	3.000000e+00	9.981382e+08	3.000000e+00	9.981382e+08	
201	3.020000e+00	9.981382e+08	3.020000e+00	9.981382e+08	
202	3.040000e+00	9.981382e+08	3.040000e+00	9.981382e+08	
203	3.060000e+00	9.981382e+08	3.060000e+00	9.981382e+08	
204	3.080000e+00	9.981382e+08	3.080000e+00	9.981382e+08	
205	3.100000e+00	9.981382e+08	3.100000e+00	9.981382e+08	
206	3.120000e+00	9.981382e+08	3.120000e+00	9.981382e+08	
207	3.140000e+00	9.981382e+08	3.140000e+00	9.981382e+08	
208	3.160000e+00	9.981382e+08	3.160000e+00	9.981382e+08	
209	3.180000e+00	9.981382e+08	3.180000e+00	9.981382e+08	
210	3.200000e+00	9.981382e+08	3.200000e+00	9.981382e+08	
211	3.220000e+00	9.981382e+08	3.220000e+00	9.981382e+08	
212	3.240000e+00	9.981382e+08	3.240000e+00	9.981382e+08	
213	3.260000e+00	9.981382e+08	3.260000e+00	9.981382e+08	
214	3.280000e+00	9.981382e+08	3.280000e+00	9.981382e+08	
215	3.300000e+00	9.981382e+08	3.300000e+00	9.981382e+08	
216	3.320000e+00	9.981382e+08	3.320000e+00	9.981382e+08	
217	3.340000e+00	9.981382e+08	3.340000e+00	9.981382e+08	
218	3.360000e+00	9.981382e+08	3.360000e+00	9.981382e+08	
219	3.380000e+00	9.981382e+08	3.380000e+00	9.981382e+08	
220	3.400000e+00	9.981382e+08	3.400000e+00	9.981382e+08	
221	3.420000e+00	9.981382e+08	3.420000e+00	9.981382e+08	
222	3.440000e+00	9.981382e+08	3.440000e+00	9.981382e+08	
223	3.460000e+00	9.981382e+08	3.460000e+00	9.981382e+08	
224	3.480000e+00	9.981382e+08	3.480000e+00	9.981382e+08	
225	3.500000e+00	9.981382e+08	3.500000e+00	9.981382e+08	
226	3.520000e+00	9.981382e+08	3.520000e+00	9.981382e+08	
227	3.540000e+00	9.981382e+08	3.540000e+00	9.981382e+08	
228	3.560000e+00	9.981382e+08	3.560000e+00	9.981382e+08	

Index   v-sweep         ie              net-_q1-pad1_   net-_q1-pad3_   
--------------------------------------------------------------------------------
229	3.580000e+00	9.981382e+08	3.580000e+00	9.981382e+08	
230	3.600000e+00	9.981382e+08	3.600000e+00	9.981382e+08	
231	3.620000e+00	9.981382e+08	3.620000e+00	9.981382e+08	
232	3.640000e+00	9.981382e+08	3.640000e+00	9.981382e+08	
233	3.660000e+00	9.981382e+08	3.660000e+00	9.981382e+08	
234	3.680000e+00	9.981382e+08	3.680000e+00	9.981382e+08	
235	3.700000e+00	9.981382e+08	3.700000e+00	9.981382e+08	
236	3.720000e+00	9.981382e+08	3.720000e+00	9.981382e+08	
237	3.740000e+00	9.981382e+08	3.740000e+00	9.981382e+08	
238	3.760000e+00	9.981382e+08	3.760000e+00	9.981382e+08	
239	3.780000e+00	9.981382e+08	3.780000e+00	9.981382e+08	
240	3.800000e+00	9.981382e+08	3.800000e+00	9.981382e+08	
241	3.820000e+00	9.981382e+08	3.820000e+00	9.981382e+08	
242	3.840000e+00	9.981382e+08	3.840000e+00	9.981382e+08	
243	3.860000e+00	9.981382e+08	3.860000e+00	9.981382e+08	
244	3.880000e+00	9.981382e+08	3.880000e+00	9.981382e+08	
245	3.900000e+00	9.981382e+08	3.900000e+00	9.981382e+08	
246	3.920000e+00	9.981382e+08	3.920000e+00	9.981382e+08	
247	3.940000e+00	9.981382e+08	3.940000e+00	9.981382e+08	
248	3.960000e+00	9.981382e+08	3.960000e+00	9.981382e+08	
249	3.980000e+00	9.981382e+08	3.980000e+00	9.981382e+08	
250	4.000000e+00	9.981382e+08	4.000000e+00	9.981382e+08	
251	4.020000e+00	9.981382e+08	4.020000e+00	9.981382e+08	
252	4.040000e+00	9.981382e+08	4.040000e+00	9.981382e+08	
253	4.060000e+00	9.981382e+08	4.060000e+00	9.981382e+08	
254	4.080000e+00	9.981382e+08	4.080000e+00	9.981382e+08	
255	4.100000e+00	9.981382e+08	4.100000e+00	9.981382e+08	
256	4.120000e+00	9.981382e+08	4.120000e+00	9.981382e+08	
257	4.140000e+00	9.981382e+08	4.140000e+00	9.981382e+08	
258	4.160000e+00	9.981382e+08	4.160000e+00	9.981382e+08	
259	4.180000e+00	9.981382e+08	4.180000e+00	9.981382e+08	
260	4.200000e+00	9.981382e+08	4.200000e+00	9.981382e+08	
261	4.220000e+00	9.981382e+08	4.220000e+00	9.981382e+08	
262	4.240000e+00	9.981382e+08	4.240000e+00	9.981382e+08	
263	4.260000e+00	9.981382e+08	4.260000e+00	9.981382e+08	
264	4.280000e+00	9.981382e+08	4.280000e+00	9.981382e+08	
265	4.300000e+00	9.981382e+08	4.300000e+00	9.981382e+08	
266	4.320000e+00	9.981382e+08	4.320000e+00	9.981382e+08	
267	4.340000e+00	9.981382e+08	4.340000e+00	9.981382e+08	
268	4.360000e+00	9.981382e+08	4.360000e+00	9.981382e+08	
269	4.380000e+00	9.981382e+08	4.380000e+00	9.981382e+08	
270	4.400000e+00	9.981382e+08	4.400000e+00	9.981382e+08	
271	4.420000e+00	9.981382e+08	4.420000e+00	9.981382e+08	
272	4.440000e+00	9.981382e+08	4.440000e+00	9.981382e+08	
273	4.460000e+00	9.981382e+08	4.460000e+00	9.981382e+08	
274	4.480000e+00	9.981382e+08	4.480000e+00	9.981382e+08	
275	4.500000e+00	9.981382e+08	4.500000e+00	9.981382e+08	
276	4.520000e+00	9.981382e+08	4.520000e+00	9.981382e+08	
277	4.540000e+00	9.981382e+08	4.540000e+00	9.981382e+08	
278	4.560000e+00	9.981382e+08	4.560000e+00	9.981382e+08	
279	4.580000e+00	9.981382e+08	4.580000e+00	9.981382e+08	
280	4.600000e+00	9.981382e+08	4.600000e+00	9.981382e+08	
281	4.620000e+00	9.981382e+08	4.620000e+00	9.981382e+08	
282	4.640000e+00	9.981382e+08	4.640000e+00	9.981382e+08	
283	4.660000e+00	9.981382e+08	4.660000e+00	9.981382e+08	
284	4.680000e+00	9.981382e+08	4.680000e+00	9.981382e+08	
285	4.700000e+00	9.981382e+08	4.700000e+00	9.981382e+08	
286	4.720000e+00	9.981382e+08	4.720000e+00	9.981382e+08	

Index   v-sweep         ie              net-_q1-pad1_   net-_q1-pad3_   
--------------------------------------------------------------------------------
287	4.740000e+00	9.981382e+08	4.740000e+00	9.981382e+08	
288	4.760000e+00	9.981382e+08	4.760000e+00	9.981382e+08	
289	4.780000e+00	9.981382e+08	4.780000e+00	9.981382e+08	
290	4.800000e+00	9.981382e+08	4.800000e+00	9.981382e+08	
291	4.820000e+00	9.981382e+08	4.820000e+00	9.981382e+08	
292	4.840000e+00	9.981382e+08	4.840000e+00	9.981382e+08	
293	4.860000e+00	9.981382e+08	4.860000e+00	9.981382e+08	
294	4.880000e+00	9.981382e+08	4.880000e+00	9.981382e+08	
295	4.900000e+00	9.981382e+08	4.900000e+00	9.981382e+08	
296	4.920000e+00	9.981382e+08	4.920000e+00	9.981382e+08	
297	4.940000e+00	9.981382e+08	4.940000e+00	9.981382e+08	
298	4.960000e+00	9.981382e+08	4.960000e+00	9.981382e+08	
299	4.980000e+00	9.981382e+08	4.980000e+00	9.981382e+08	
300	5.000000e+00	9.981382e+08	5.000000e+00	9.981382e+08	
301	5.020000e+00	9.981382e+08	5.020000e+00	9.981382e+08	
302	5.040000e+00	9.981382e+08	5.040000e+00	9.981382e+08	
303	5.060000e+00	9.981382e+08	5.060000e+00	9.981382e+08	
304	5.080000e+00	9.981382e+08	5.080000e+00	9.981382e+08	
305	5.100000e+00	9.981382e+08	5.100000e+00	9.981382e+08	
306	5.120000e+00	9.981382e+08	5.120000e+00	9.981382e+08	
307	5.140000e+00	9.981382e+08	5.140000e+00	9.981382e+08	
308	5.160000e+00	9.981382e+08	5.160000e+00	9.981382e+08	
309	5.180000e+00	9.981382e+08	5.180000e+00	9.981382e+08	
310	5.200000e+00	9.981382e+08	5.200000e+00	9.981382e+08	
311	5.220000e+00	9.981382e+08	5.220000e+00	9.981382e+08	
312	5.240000e+00	9.981382e+08	5.240000e+00	9.981382e+08	
313	5.260000e+00	9.981382e+08	5.260000e+00	9.981382e+08	
314	5.280000e+00	9.981382e+08	5.280000e+00	9.981382e+08	
315	5.300000e+00	9.981382e+08	5.300000e+00	9.981382e+08	
316	5.320000e+00	9.981382e+08	5.320000e+00	9.981382e+08	
317	5.340000e+00	9.981382e+08	5.340000e+00	9.981382e+08	
318	5.360000e+00	9.981382e+08	5.360000e+00	9.981382e+08	
319	5.380000e+00	9.981382e+08	5.380000e+00	9.981382e+08	
320	5.400000e+00	9.981382e+08	5.400000e+00	9.981382e+08	
321	5.420000e+00	9.981382e+08	5.420000e+00	9.981382e+08	
322	5.440000e+00	9.981382e+08	5.440000e+00	9.981382e+08	
323	5.460000e+00	9.981382e+08	5.460000e+00	9.981382e+08	
324	5.480000e+00	9.981382e+08	5.480000e+00	9.981382e+08	
325	5.500000e+00	9.981382e+08	5.500000e+00	9.981382e+08	
326	5.520000e+00	9.981382e+08	5.520000e+00	9.981382e+08	
327	5.540000e+00	9.981382e+08	5.540000e+00	9.981382e+08	
328	5.560000e+00	9.981382e+08	5.560000e+00	9.981382e+08	
329	5.580000e+00	9.981382e+08	5.580000e+00	9.981382e+08	
330	5.600000e+00	9.981382e+08	5.600000e+00	9.981382e+08	
331	5.620000e+00	9.981382e+08	5.620000e+00	9.981382e+08	
