        * c:\users\mamat\esim-workspace\cbtl02043a_ic\cbtl02043a_ic.cir
        Transient Analysis  Mon Jun 16 17:15:58  2025
--------------------------------------------------------------------------------
Index   time            a.x1.a.x1.a2#br a.x1.a.x2.a2#br a.x1.a.x3.a2#br 
--------------------------------------------------------------------------------
0	0.000000e+00	0.000000e+00	0.000000e+00	0.000000e+00	
1	1.000000e+00	3.306412e-10	3.306412e-10	-3.30642e-10	
2	1.002175e+00	4.991580e-14	4.991580e-14	-3.29985e-17	
3	1.006524e+00	-7.07757e-14	-7.07757e-14	-8.30327e-12	
4	1.007273e+00	3.210604e-13	3.210604e-13	5.951170e-09	
5	1.007589e+00	-2.44341e-06	-2.44341e-06	-4.46196e-07	
6	1.007683e+00	2.192297e-06	2.192297e-06	5.069514e-07	
7	1.007714e+00	-1.60206e-06	-1.60206e-06	-6.31327e-07	
8	1.007725e+00	4.504518e-07	4.504518e-07	6.068204e-07	
9	1.007728e+00	-5.65262e-07	-5.65262e-07	-6.25955e-07	
10	1.007729e+00	4.609696e-07	4.609696e-07	6.079322e-07	
11	1.007731e+00	-5.59111e-07	-5.59111e-07	-6.25238e-07	
12	1.007732e+00	4.664170e-07	4.664170e-07	6.085898e-07	
13	1.007735e+00	-5.51824e-07	-5.51824e-07	-6.24276e-07	
14	1.007739e+00	4.764755e-07	4.764755e-07	6.100338e-07	
15	1.007745e+00	-5.40513e-07	-5.40513e-07	-6.22425e-07	
16	1.007754e+00	4.880147e-07	4.880147e-07	6.122145e-07	
17	1.007767e+00	-5.29650e-07	-5.29650e-07	-6.20039e-07	
18	1.007789e+00	5.001426e-07	5.001426e-07	6.145997e-07	
19	1.007824e+00	-5.12408e-07	-5.12408e-07	-6.17985e-07	
20	1.007892e+00	5.088252e-07	5.088252e-07	6.161587e-07	
21	1.007976e+00	-5.10094e-07	-5.10094e-07	-6.17056e-07	
22	1.008060e+00	5.094481e-07	5.094481e-07	6.165884e-07	
23	1.008228e+00	-5.09791e-07	-5.09791e-07	-6.16730e-07	
24	1.008565e+00	5.096824e-07	5.096824e-07	6.167141e-07	
25	1.009237e+00	-5.09692e-07	-5.09692e-07	-6.16728e-07	
26	1.010583e+00	5.096892e-07	5.096892e-07	6.167146e-07	
27	1.013274e+00	-5.09691e-07	-5.09691e-07	-6.16728e-07	
28	1.018657e+00	5.096894e-07	5.096894e-07	6.167154e-07	
29	1.029423e+00	-5.09691e-07	-5.09691e-07	-6.16726e-07	
30	1.050953e+00	5.096897e-07	5.096897e-07	6.167176e-07	
31	1.094015e+00	-5.09690e-07	-5.09690e-07	-6.16722e-07	
32	1.180139e+00	5.096902e-07	5.096902e-07	6.167223e-07	
33	1.352386e+00	-5.09690e-07	-5.09690e-07	-6.16722e-07	
34	1.696880e+00	5.096902e-07	5.096902e-07	6.167223e-07	
35	2.385868e+00	-5.09690e-07	-5.09690e-07	-6.16722e-07	
36	3.763844e+00	5.096902e-07	5.096902e-07	6.167223e-07	
37	6.519796e+00	-5.09690e-07	-5.09690e-07	-6.16722e-07	
38	1.203170e+01	5.096902e-07	5.096902e-07	6.167222e-07	
39	1.845316e+01	-5.09690e-07	-5.09690e-07	-6.16722e-07	
40	2.487462e+01	5.096902e-07	5.096902e-07	6.167222e-07	
41	3.129608e+01	-5.09690e-07	-5.09690e-07	-6.16722e-07	
42	3.771754e+01	5.096902e-07	5.096902e-07	6.167222e-07	
43	4.413900e+01	-5.09690e-07	-5.09690e-07	-6.16722e-07	
44	5.056046e+01	5.096902e-07	5.096902e-07	6.167222e-07	
45	5.698192e+01	-5.09690e-07	-5.09690e-07	-6.16722e-07	
46	6.340338e+01	5.096902e-07	5.096902e-07	6.167222e-07	
47	6.982484e+01	-5.09690e-07	-5.09690e-07	-6.16722e-07	
48	7.624631e+01	5.096902e-07	5.096902e-07	6.167222e-07	
49	8.266777e+01	-5.09690e-07	-5.09690e-07	-6.16722e-07	
50	8.908923e+01	5.096902e-07	5.096902e-07	6.167222e-07	
51	9.551069e+01	-5.09690e-07	-5.09690e-07	-6.16722e-07	
52	1.019321e+02	5.096902e-07	5.096902e-07	6.167222e-07	
53	1.083536e+02	-5.09690e-07	-5.09690e-07	-6.16722e-07	
54	1.147751e+02	5.096902e-07	5.096902e-07	6.167222e-07	

Index   time            a.x1.a.x1.a2#br a.x1.a.x2.a2#br a.x1.a.x3.a2#br 
--------------------------------------------------------------------------------
55	1.211965e+02	-5.09690e-07	-5.09690e-07	-6.16722e-07	
56	1.276180e+02	5.096902e-07	5.096902e-07	6.167222e-07	
57	1.340394e+02	-5.09690e-07	-5.09690e-07	-6.16722e-07	
58	1.404609e+02	5.096902e-07	5.096902e-07	6.167222e-07	
59	1.468824e+02	-5.09690e-07	-5.09690e-07	-6.16722e-07	
60	1.533038e+02	5.096902e-07	5.096902e-07	6.167222e-07	
61	1.597253e+02	-5.09690e-07	-5.09690e-07	-6.16722e-07	
62	1.661468e+02	5.096902e-07	5.096902e-07	6.167222e-07	
63	1.725682e+02	-5.09690e-07	-5.09690e-07	-6.16722e-07	
64	1.789897e+02	5.096902e-07	5.096902e-07	6.167222e-07	
65	1.854111e+02	-5.09690e-07	-5.09690e-07	-6.16722e-07	
66	1.918326e+02	5.096902e-07	5.096902e-07	6.167222e-07	
67	1.982541e+02	-5.09690e-07	-5.09690e-07	-6.16722e-07	
68	2.046755e+02	5.096902e-07	5.096902e-07	6.167222e-07	
69	2.110970e+02	-5.09690e-07	-5.09690e-07	-6.16722e-07	
70	2.175184e+02	5.096902e-07	5.096902e-07	6.167222e-07	
71	2.239399e+02	-5.09690e-07	-5.09690e-07	-6.16722e-07	
72	2.303614e+02	5.096902e-07	5.096902e-07	6.167222e-07	
73	2.367828e+02	-5.09690e-07	-5.09690e-07	-6.16722e-07	
74	2.432043e+02	5.096902e-07	5.096902e-07	6.167222e-07	
75	2.496257e+02	-5.09690e-07	-5.09690e-07	-6.16722e-07	
76	2.560472e+02	5.096902e-07	5.096902e-07	6.167222e-07	
77	2.624687e+02	-5.09690e-07	-5.09690e-07	-6.16722e-07	
78	2.688901e+02	5.096902e-07	5.096902e-07	6.167222e-07	
79	2.753116e+02	-5.09690e-07	-5.09690e-07	-6.16722e-07	
80	2.817330e+02	5.096902e-07	5.096902e-07	6.167222e-07	
81	2.881545e+02	-5.09690e-07	-5.09690e-07	-6.16722e-07	
82	2.945760e+02	5.096902e-07	5.096902e-07	6.167222e-07	
83	3.009974e+02	-5.09690e-07	-5.09690e-07	-6.16722e-07	
84	3.074189e+02	5.096902e-07	5.096902e-07	6.167222e-07	
85	3.138403e+02	-5.09690e-07	-5.09690e-07	-6.16722e-07	
86	3.202618e+02	5.096902e-07	5.096902e-07	6.167222e-07	
87	3.266833e+02	-5.09690e-07	-5.09690e-07	-6.16722e-07	
88	3.331047e+02	5.096902e-07	5.096902e-07	6.167222e-07	
89	3.395262e+02	-5.09690e-07	-5.09690e-07	-6.16722e-07	
90	3.459476e+02	5.096902e-07	5.096902e-07	6.167222e-07	
91	3.523691e+02	-5.09690e-07	-5.09690e-07	-6.16722e-07	
92	3.587906e+02	5.096902e-07	5.096902e-07	6.167222e-07	
93	3.652120e+02	-5.09690e-07	-5.09690e-07	-6.16722e-07	
94	3.716335e+02	5.096902e-07	5.096902e-07	6.167222e-07	
95	3.780549e+02	-5.09690e-07	-5.09690e-07	-6.16722e-07	
96	3.844764e+02	5.096902e-07	5.096902e-07	6.167222e-07	
97	3.908979e+02	-5.09690e-07	-5.09690e-07	-6.16722e-07	
98	3.973193e+02	5.096902e-07	5.096902e-07	6.167222e-07	
99	4.037408e+02	-5.09690e-07	-5.09690e-07	-6.16722e-07	
100	4.101623e+02	5.096902e-07	5.096902e-07	6.167222e-07	
101	4.165837e+02	-5.09690e-07	-5.09690e-07	-6.16722e-07	
102	4.230052e+02	5.096902e-07	5.096902e-07	6.167222e-07	
103	4.294266e+02	-5.09690e-07	-5.09690e-07	-6.16722e-07	
104	4.358481e+02	5.096902e-07	5.096902e-07	6.167222e-07	
105	4.422696e+02	-5.09690e-07	-5.09690e-07	-6.16722e-07	
106	4.486910e+02	5.096902e-07	5.096902e-07	6.167222e-07	
107	4.551125e+02	-5.09690e-07	-5.09690e-07	-6.16722e-07	
108	4.615339e+02	5.096902e-07	5.096902e-07	6.167222e-07	
109	4.679554e+02	-5.09690e-07	-5.09690e-07	-6.16722e-07	
110	4.743769e+02	5.096902e-07	5.096902e-07	6.167222e-07	
111	4.807983e+02	-5.09690e-07	-5.09690e-07	-6.16722e-07	
112	4.872198e+02	5.096902e-07	5.096902e-07	6.167222e-07	

Index   time            a.x1.a.x1.a2#br a.x1.a.x2.a2#br a.x1.a.x3.a2#br 
--------------------------------------------------------------------------------
113	4.936412e+02	-5.09690e-07	-5.09690e-07	-6.16722e-07	
114	5.000627e+02	5.096902e-07	5.096902e-07	6.167222e-07	
115	5.064842e+02	-5.09690e-07	-5.09690e-07	-6.16722e-07	
116	5.129056e+02	5.096902e-07	5.096902e-07	6.167222e-07	
117	5.193271e+02	-5.09690e-07	-5.09690e-07	-6.16722e-07	
118	5.257485e+02	5.096902e-07	5.096902e-07	6.167222e-07	
119	5.321700e+02	-5.09690e-07	-5.09690e-07	-6.16722e-07	
120	5.385915e+02	5.096902e-07	5.096902e-07	6.167222e-07	
121	5.450129e+02	-5.09690e-07	-5.09690e-07	-6.16722e-07	
122	5.514344e+02	5.096902e-07	5.096902e-07	6.167222e-07	
123	5.578558e+02	-5.09690e-07	-5.09690e-07	-6.16722e-07	
124	5.642773e+02	5.096902e-07	5.096902e-07	6.167222e-07	
125	5.706988e+02	-5.09690e-07	-5.09690e-07	-6.16722e-07	
126	5.771202e+02	5.096902e-07	5.096902e-07	6.167222e-07	
127	5.835417e+02	-5.09690e-07	-5.09690e-07	-6.16722e-07	
128	5.899631e+02	5.096902e-07	5.096902e-07	6.167222e-07	
129	5.963846e+02	-5.09690e-07	-5.09690e-07	-6.16722e-07	
130	6.028061e+02	5.096902e-07	5.096900e-07	6.167222e-07	
131	6.092275e+02	-5.09690e-07	-5.09690e-07	-6.16722e-07	
132	6.156490e+02	5.096902e-07	5.096900e-07	6.167222e-07	
133	6.220704e+02	-5.09690e-07	-5.09690e-07	-6.16722e-07	
134	6.284919e+02	5.096902e-07	5.096900e-07	6.167222e-07	
135	6.349134e+02	-5.09690e-07	-5.09690e-07	-6.16722e-07	
136	6.413348e+02	5.096902e-07	5.096900e-07	6.167222e-07	
137	6.477563e+02	-5.09690e-07	-5.09690e-07	-6.16722e-07	
138	6.541777e+02	5.096902e-07	5.096900e-07	6.167222e-07	
139	6.605992e+02	-5.09690e-07	-5.09690e-07	-6.16722e-07	
140	6.670207e+02	5.096902e-07	5.096900e-07	6.167222e-07	
141	6.734421e+02	-5.09690e-07	-5.09690e-07	-6.16722e-07	
142	6.798636e+02	5.096902e-07	5.096900e-07	6.167222e-07	
143	6.862850e+02	-5.09690e-07	-5.09690e-07	-6.16722e-07	
144	6.927065e+02	5.096902e-07	5.096900e-07	6.167222e-07	
145	6.991280e+02	-5.09690e-07	-5.09690e-07	-6.16722e-07	
146	7.055494e+02	5.096902e-07	5.096900e-07	6.167224e-07	
147	7.119709e+02	-5.09690e-07	-5.09690e-07	-6.16722e-07	
148	7.183923e+02	5.096902e-07	5.096900e-07	6.167223e-07	
149	7.248138e+02	-5.09690e-07	-5.09690e-07	-6.16722e-07	
150	7.312353e+02	5.096902e-07	5.096900e-07	6.167222e-07	
151	7.376567e+02	-5.09690e-07	-5.09690e-07	-6.16722e-07	
152	7.440782e+02	5.096902e-07	5.096900e-07	6.167222e-07	
153	7.504996e+02	-5.09690e-07	-5.09690e-07	-6.16722e-07	
154	7.569211e+02	5.096904e-07	5.096900e-07	6.167221e-07	
155	7.633426e+02	-5.09690e-07	-5.09690e-07	-6.16722e-07	
156	7.697640e+02	5.096904e-07	5.096900e-07	6.167220e-07	
157	7.761855e+02	-5.09690e-07	-5.09690e-07	-6.16722e-07	
158	7.826069e+02	5.096904e-07	5.096900e-07	6.167220e-07	
159	7.890284e+02	-5.09690e-07	-5.09690e-07	-6.16722e-07	
160	7.954499e+02	5.096904e-07	5.096900e-07	6.167219e-07	
161	8.018713e+02	-5.09690e-07	-5.09690e-07	-6.16722e-07	
162	8.082928e+02	5.096904e-07	5.096900e-07	6.167219e-07	
163	8.147142e+02	-5.09690e-07	-5.09690e-07	-6.16722e-07	
164	8.211357e+02	5.096904e-07	5.096900e-07	6.167218e-07	
165	8.275571e+02	-5.09690e-07	-5.09690e-07	-6.16722e-07	
166	8.339786e+02	5.096904e-07	5.096900e-07	6.167218e-07	
167	8.404001e+02	-5.09690e-07	-5.09690e-07	-6.16722e-07	
168	8.468215e+02	5.096904e-07	5.096900e-07	6.167218e-07	
169	8.532430e+02	-5.09690e-07	-5.09690e-07	-6.16722e-07	
170	8.596644e+02	5.096904e-07	5.096900e-07	6.167217e-07	

Index   time            a.x1.a.x1.a2#br a.x1.a.x2.a2#br a.x1.a.x3.a2#br 
--------------------------------------------------------------------------------
171	8.660859e+02	-5.09690e-07	-5.09690e-07	-6.16722e-07	
172	8.725074e+02	5.096904e-07	5.096900e-07	6.167217e-07	
173	8.789288e+02	-5.09690e-07	-5.09690e-07	-6.16722e-07	
174	8.853503e+02	5.096904e-07	5.096900e-07	6.167217e-07	
175	8.917717e+02	-5.09690e-07	-5.09690e-07	-6.16722e-07	
176	8.981932e+02	5.096904e-07	5.096900e-07	6.167217e-07	
177	9.046147e+02	-5.09690e-07	-5.09690e-07	-6.16722e-07	
178	9.110361e+02	5.096904e-07	5.096900e-07	6.167216e-07	
179	9.174576e+02	-5.09690e-07	-5.09690e-07	-6.16722e-07	
180	9.238790e+02	5.096904e-07	5.096900e-07	6.167216e-07	
181	9.303005e+02	-5.09690e-07	-5.09690e-07	-6.16722e-07	
182	9.367220e+02	5.096904e-07	5.096900e-07	6.167216e-07	
183	9.431434e+02	-5.09690e-07	-5.09690e-07	-6.16722e-07	
184	9.495649e+02	5.096904e-07	5.096900e-07	6.167216e-07	
185	9.559863e+02	-5.09690e-07	-5.09690e-07	-6.16722e-07	
186	9.624078e+02	5.096904e-07	5.096900e-07	6.167216e-07	
187	9.688293e+02	-5.09690e-07	-5.09690e-07	-6.16722e-07	
188	9.752507e+02	5.096904e-07	5.096900e-07	6.167216e-07	
189	9.816722e+02	-5.09690e-07	-5.09690e-07	-6.16722e-07	
190	9.880936e+02	5.096904e-07	5.096900e-07	6.167215e-07	
191	9.945151e+02	-5.09690e-07	-5.09690e-07	-6.16722e-07	
192	1.000937e+03	5.096906e-07	5.096900e-07	6.167215e-07	
193	1.007358e+03	-5.09691e-07	-5.09690e-07	-6.16722e-07	
194	1.013779e+03	5.096906e-07	5.096900e-07	6.167215e-07	
195	1.020201e+03	-5.09691e-07	-5.09690e-07	-6.16722e-07	
196	1.026622e+03	5.096905e-07	5.096900e-07	6.167215e-07	
197	1.033044e+03	-5.09691e-07	-5.09690e-07	-6.16721e-07	
198	1.039465e+03	5.096905e-07	5.096900e-07	6.167215e-07	
199	1.045887e+03	-5.09691e-07	-5.09690e-07	-6.16721e-07	
200	1.052308e+03	5.096905e-07	5.096900e-07	6.167215e-07	
201	1.058730e+03	-5.09691e-07	-5.09690e-07	-6.16721e-07	
202	1.065151e+03	5.096905e-07	5.096900e-07	6.167215e-07	
203	1.071573e+03	-5.09691e-07	-5.09690e-07	-6.16721e-07	
204	1.077994e+03	5.096905e-07	5.096900e-07	6.167215e-07	
205	1.084416e+03	-5.09691e-07	-5.09690e-07	-6.16721e-07	
206	1.090837e+03	5.096905e-07	5.096900e-07	6.167215e-07	
207	1.097258e+03	-5.09690e-07	-5.09690e-07	-6.16721e-07	
208	1.103680e+03	5.096905e-07	5.096900e-07	6.167215e-07	
209	1.110101e+03	-5.09690e-07	-5.09690e-07	-6.16721e-07	
210	1.116523e+03	5.096905e-07	5.096900e-07	6.167214e-07	
211	1.122944e+03	-5.09690e-07	-5.09690e-07	-6.16721e-07	
212	1.129366e+03	5.096905e-07	5.096900e-07	6.167214e-07	
213	1.135787e+03	-5.09690e-07	-5.09690e-07	-6.16721e-07	
214	1.142209e+03	5.096905e-07	5.096900e-07	6.167214e-07	
215	1.148630e+03	-5.09690e-07	-5.09690e-07	-6.16721e-07	
216	1.155052e+03	5.096905e-07	5.096900e-07	6.167214e-07	
217	1.161473e+03	-5.09690e-07	-5.09690e-07	-6.16721e-07	
218	1.167894e+03	5.096905e-07	5.096900e-07	6.167214e-07	
219	1.174316e+03	-5.09690e-07	-5.09690e-07	-6.16721e-07	
220	1.180737e+03	5.096905e-07	5.096900e-07	6.167214e-07	
221	1.187159e+03	-5.09690e-07	-5.09690e-07	-6.16721e-07	
222	1.193580e+03	5.096905e-07	5.096900e-07	6.167214e-07	
223	1.200002e+03	-5.09690e-07	-5.09690e-07	-6.16721e-07	
224	1.206423e+03	5.096905e-07	5.096900e-07	6.167214e-07	
225	1.212845e+03	-5.09690e-07	-5.09690e-07	-6.16721e-07	
226	1.219266e+03	5.096904e-07	5.096900e-07	6.167214e-07	
227	1.225688e+03	-5.09690e-07	-5.09690e-07	-6.16721e-07	
228	1.232109e+03	5.096904e-07	5.096900e-07	6.167214e-07	

Index   time            a.x1.a.x1.a2#br a.x1.a.x2.a2#br a.x1.a.x3.a2#br 
--------------------------------------------------------------------------------
229	1.238531e+03	-5.09690e-07	-5.09690e-07	-6.16721e-07	
230	1.244952e+03	5.096904e-07	5.096900e-07	6.167214e-07	
231	1.251373e+03	-5.09690e-07	-5.09690e-07	-6.16721e-07	
232	1.257795e+03	5.096904e-07	5.096900e-07	6.167214e-07	
233	1.264216e+03	-5.09690e-07	-5.09690e-07	-6.16721e-07	
234	1.270638e+03	5.096904e-07	5.096900e-07	6.167214e-07	
235	1.277059e+03	-5.09690e-07	-5.09690e-07	-6.16721e-07	
236	1.283481e+03	5.096904e-07	5.096900e-07	6.167214e-07	
237	1.289902e+03	-5.09690e-07	-5.09690e-07	-6.16721e-07	
238	1.296324e+03	5.096904e-07	5.096900e-07	6.167214e-07	
239	1.302745e+03	-5.09690e-07	-5.09690e-07	-6.16721e-07	
240	1.309167e+03	5.096904e-07	5.096900e-07	6.167214e-07	
241	1.315588e+03	-5.09690e-07	-5.09690e-07	-6.16721e-07	
242	1.322010e+03	5.096904e-07	5.096900e-07	6.167214e-07	
243	1.328431e+03	-5.09690e-07	-5.09690e-07	-6.16721e-07	
244	1.334852e+03	5.096904e-07	5.096900e-07	6.167214e-07	
245	1.341274e+03	-5.09690e-07	-5.09690e-07	-6.16721e-07	
246	1.347695e+03	5.096904e-07	5.096900e-07	6.167214e-07	
247	1.354117e+03	-5.09690e-07	-5.09690e-07	-6.16721e-07	
248	1.360538e+03	5.096904e-07	5.096900e-07	6.167214e-07	
249	1.366960e+03	-5.09690e-07	-5.09690e-07	-6.16721e-07	
250	1.373381e+03	5.096904e-07	5.096900e-07	6.167214e-07	
251	1.379803e+03	-5.09690e-07	-5.09690e-07	-6.16721e-07	
252	1.386224e+03	5.096904e-07	5.096900e-07	6.167214e-07	
253	1.392646e+03	-5.09690e-07	-5.09690e-07	-6.16721e-07	
254	1.399067e+03	5.096904e-07	5.096900e-07	6.167214e-07	
255	1.405488e+03	-5.09690e-07	-5.09690e-07	-6.16721e-07	
256	1.411910e+03	5.096904e-07	5.096900e-07	6.167214e-07	
257	1.418331e+03	-5.09690e-07	-5.09690e-07	-6.16721e-07	
258	1.424753e+03	5.096904e-07	5.096900e-07	6.167214e-07	
259	1.431174e+03	-5.09690e-07	-5.09690e-07	-6.16721e-07	
260	1.437596e+03	5.096904e-07	5.096900e-07	6.167214e-07	
261	1.444017e+03	-5.09690e-07	-5.09690e-07	-6.16721e-07	
262	1.450439e+03	5.096904e-07	5.096900e-07	6.167214e-07	
263	1.456860e+03	-5.09690e-07	-5.09690e-07	-6.16721e-07	
264	1.463282e+03	5.096904e-07	5.096900e-07	6.167214e-07	
265	1.469703e+03	-5.09690e-07	-5.09690e-07	-6.16721e-07	
266	1.476125e+03	5.096904e-07	5.096900e-07	6.167214e-07	
267	1.482546e+03	-5.09690e-07	-5.09690e-07	-6.16721e-07	
268	1.488967e+03	5.096904e-07	5.096900e-07	6.167214e-07	
269	1.495389e+03	-5.09690e-07	-5.09690e-07	-6.16721e-07	
270	1.501810e+03	5.096904e-07	5.096902e-07	6.167214e-07	
271	1.508232e+03	-5.09690e-07	-5.09690e-07	-6.16721e-07	
272	1.514653e+03	5.096904e-07	5.096902e-07	6.167214e-07	
273	1.521075e+03	-5.09690e-07	-5.09690e-07	-6.16721e-07	
274	1.527496e+03	5.096904e-07	5.096902e-07	6.167214e-07	
275	1.533918e+03	-5.09690e-07	-5.09690e-07	-6.16721e-07	
276	1.540339e+03	5.096904e-07	5.096902e-07	6.167214e-07	
277	1.546761e+03	-5.09690e-07	-5.09690e-07	-6.16721e-07	
278	1.553182e+03	5.096904e-07	5.096902e-07	6.167214e-07	
279	1.559604e+03	-5.09690e-07	-5.09690e-07	-6.16721e-07	
280	1.566025e+03	5.096904e-07	5.096902e-07	6.167214e-07	
281	1.572446e+03	-5.09690e-07	-5.09690e-07	-6.16721e-07	
282	1.578868e+03	5.096904e-07	5.096902e-07	6.167214e-07	
283	1.585289e+03	-5.09690e-07	-5.09690e-07	-6.16721e-07	
284	1.591711e+03	5.096904e-07	5.096902e-07	6.167214e-07	
285	1.598132e+03	-5.09690e-07	-5.09690e-07	-6.16721e-07	
286	1.604554e+03	5.096904e-07	5.096902e-07	6.167214e-07	

Index   time            a.x1.a.x1.a2#br a.x1.a.x2.a2#br a.x1.a.x3.a2#br 
--------------------------------------------------------------------------------
287	1.610975e+03	-5.09690e-07	-5.09690e-07	-6.16721e-07	
288	1.617397e+03	5.096904e-07	5.096902e-07	6.167214e-07	
289	1.623818e+03	-5.09690e-07	-5.09690e-07	-6.16721e-07	
290	1.630240e+03	5.096904e-07	5.096902e-07	6.167214e-07	
291	1.636661e+03	-5.09690e-07	-5.09690e-07	-6.16721e-07	
292	1.643082e+03	5.096904e-07	5.096902e-07	6.167214e-07	
293	1.649504e+03	-5.09690e-07	-5.09690e-07	-6.16721e-07	
294	1.655925e+03	5.096904e-07	5.096902e-07	6.167214e-07	
295	1.662347e+03	-5.09690e-07	-5.09690e-07	-6.16721e-07	
296	1.668768e+03	5.096904e-07	5.096902e-07	6.167214e-07	
297	1.675190e+03	-5.09690e-07	-5.09690e-07	-6.16721e-07	
298	1.681611e+03	5.096904e-07	5.096902e-07	6.167214e-07	
299	1.688033e+03	-5.09690e-07	-5.09690e-07	-6.16721e-07	
300	1.694454e+03	5.096904e-07	5.096902e-07	6.167214e-07	
301	1.700876e+03	-5.09690e-07	-5.09690e-07	-6.16721e-07	
302	1.707297e+03	5.096904e-07	5.096902e-07	6.167214e-07	
303	1.713719e+03	-5.09690e-07	-5.09690e-07	-6.16721e-07	
304	1.720140e+03	5.096904e-07	5.096902e-07	6.167214e-07	
305	1.726561e+03	-5.09690e-07	-5.09690e-07	-6.16721e-07	
306	1.732983e+03	5.096904e-07	5.096902e-07	6.167214e-07	
307	1.739404e+03	-5.09690e-07	-5.09690e-07	-6.16721e-07	
308	1.745826e+03	5.096904e-07	5.096902e-07	6.167214e-07	
309	1.752247e+03	-5.09691e-07	-5.09690e-07	-6.16721e-07	
310	1.758669e+03	5.096906e-07	5.096902e-07	6.167214e-07	
311	1.765090e+03	-5.09691e-07	-5.09690e-07	-6.16721e-07	
312	1.771512e+03	5.096906e-07	5.096902e-07	6.167214e-07	
313	1.777933e+03	-5.09691e-07	-5.09690e-07	-6.16721e-07	
314	1.784355e+03	5.096906e-07	5.096902e-07	6.167214e-07	
315	1.790776e+03	-5.09691e-07	-5.09690e-07	-6.16721e-07	
316	1.797197e+03	5.096906e-07	5.096902e-07	6.167214e-07	
317	1.803619e+03	-5.09691e-07	-5.09690e-07	-6.16721e-07	
318	1.810040e+03	5.096906e-07	5.096902e-07	6.167214e-07	
319	1.816462e+03	-5.09691e-07	-5.09690e-07	-6.16721e-07	
320	1.822883e+03	5.096906e-07	5.096902e-07	6.167214e-07	
321	1.829305e+03	-5.09691e-07	-5.09690e-07	-6.16721e-07	
322	1.835726e+03	5.096906e-07	5.096902e-07	6.167214e-07	
323	1.842148e+03	-5.09691e-07	-5.09690e-07	-6.16721e-07	
324	1.848569e+03	5.096906e-07	5.096902e-07	6.167214e-07	
325	1.854991e+03	-5.09691e-07	-5.09690e-07	-6.16721e-07	
326	1.861412e+03	5.096906e-07	5.096902e-07	6.167214e-07	
327	1.867834e+03	-5.09691e-07	-5.09690e-07	-6.16721e-07	
328	1.874255e+03	5.096906e-07	5.096902e-07	6.167214e-07	
329	1.880676e+03	-5.09691e-07	-5.09690e-07	-6.16721e-07	
330	1.887098e+03	5.096906e-07	5.096902e-07	6.167214e-07	
331	1.893519e+03	-5.09691e-07	-5.09690e-07	-6.16721e-07	
