* c:\users\mamat\onedrive\documents\final_project_files\device_modelling\pmeg2005eb\diode_char_pmeg2005eb\diode_char_pmeg2005eb.cir
DC transfer characteristic  Tue Jun 24 15:34:21  2025
--------------------------------------------------------------------------------
Index   v-sweep         v1#branch       v_u1#branch     
--------------------------------------------------------------------------------
0	-1.00000e+00	8.381369e-04	-8.38137e-04	
1	-9.90000e-01	8.284173e-04	-8.28417e-04	
2	-9.80000e-01	8.187039e-04	-8.18704e-04	
3	-9.70000e-01	8.089921e-04	-8.08992e-04	
4	-9.60000e-01	7.992837e-04	-7.99284e-04	
5	-9.50000e-01	7.895788e-04	-7.89579e-04	
6	-9.40000e-01	7.798773e-04	-7.79877e-04	
7	-9.30000e-01	7.701795e-04	-7.70179e-04	
8	-9.20000e-01	7.604853e-04	-7.60485e-04	
9	-9.10000e-01	7.507949e-04	-7.50795e-04	
10	-9.00000e-01	7.411083e-04	-7.41108e-04	
11	-8.90000e-01	7.314257e-04	-7.31426e-04	
12	-8.80000e-01	7.217472e-04	-7.21747e-04	
13	-8.70000e-01	7.120729e-04	-7.12073e-04	
14	-8.60000e-01	7.024028e-04	-7.02403e-04	
15	-8.50000e-01	6.927371e-04	-6.92737e-04	
16	-8.40000e-01	6.830759e-04	-6.83076e-04	
17	-8.30000e-01	6.734193e-04	-6.73419e-04	
18	-8.20000e-01	6.637675e-04	-6.63767e-04	
19	-8.10000e-01	6.541205e-04	-6.54121e-04	
20	-8.00000e-01	6.444786e-04	-6.44479e-04	
21	-7.90000e-01	6.348418e-04	-6.34842e-04	
22	-7.80000e-01	6.252104e-04	-6.25210e-04	
23	-7.70000e-01	6.155844e-04	-6.15584e-04	
24	-7.60000e-01	6.059640e-04	-6.05964e-04	
25	-7.50000e-01	5.963495e-04	-5.96349e-04	
26	-7.40000e-01	5.867409e-04	-5.86741e-04	
27	-7.30000e-01	5.771385e-04	-5.77138e-04	
28	-7.20000e-01	5.675424e-04	-5.67542e-04	
29	-7.10000e-01	5.579529e-04	-5.57953e-04	
30	-7.00000e-01	5.483702e-04	-5.48370e-04	
31	-6.90000e-01	5.387944e-04	-5.38794e-04	
32	-6.80000e-01	5.292259e-04	-5.29226e-04	
33	-6.70000e-01	5.196649e-04	-5.19665e-04	
34	-6.60000e-01	5.101116e-04	-5.10112e-04	
35	-6.50000e-01	5.005663e-04	-5.00566e-04	
36	-6.40000e-01	4.910293e-04	-4.91029e-04	
37	-6.30000e-01	4.815008e-04	-4.81501e-04	
38	-6.20000e-01	4.719813e-04	-4.71981e-04	
39	-6.10000e-01	4.624711e-04	-4.62471e-04	
40	-6.00000e-01	4.529704e-04	-4.52970e-04	
41	-5.90000e-01	4.434797e-04	-4.43480e-04	
42	-5.80000e-01	4.339994e-04	-4.33999e-04	
43	-5.70000e-01	4.245299e-04	-4.24530e-04	
44	-5.60000e-01	4.150717e-04	-4.15072e-04	
45	-5.50000e-01	4.056251e-04	-4.05625e-04	
46	-5.40000e-01	3.961908e-04	-3.96191e-04	
47	-5.30000e-01	3.867692e-04	-3.86769e-04	
48	-5.20000e-01	3.773610e-04	-3.77361e-04	
49	-5.10000e-01	3.679666e-04	-3.67967e-04	
50	-5.00000e-01	3.585869e-04	-3.58587e-04	
51	-4.90000e-01	3.492225e-04	-3.49223e-04	
52	-4.80000e-01	3.398741e-04	-3.39874e-04	
53	-4.70000e-01	3.305426e-04	-3.30543e-04	
54	-4.60000e-01	3.212288e-04	-3.21229e-04	

Index   v-sweep         v1#branch       v_u1#branch     
--------------------------------------------------------------------------------
55	-4.50000e-01	3.119336e-04	-3.11934e-04	
56	-4.40000e-01	3.026580e-04	-3.02658e-04	
57	-4.30000e-01	2.934032e-04	-2.93403e-04	
58	-4.20000e-01	2.841702e-04	-2.84170e-04	
59	-4.10000e-01	2.749604e-04	-2.74960e-04	
60	-4.00000e-01	2.657752e-04	-2.65775e-04	
61	-3.90000e-01	2.566160e-04	-2.56616e-04	
62	-3.80000e-01	2.474845e-04	-2.47484e-04	
63	-3.70000e-01	2.383824e-04	-2.38382e-04	
64	-3.60000e-01	2.293119e-04	-2.29312e-04	
65	-3.50000e-01	2.202749e-04	-2.20275e-04	
66	-3.40000e-01	2.112740e-04	-2.11274e-04	
67	-3.30000e-01	2.023116e-04	-2.02312e-04	
68	-3.20000e-01	1.933909e-04	-1.93391e-04	
69	-3.10000e-01	1.845149e-04	-1.84515e-04	
70	-3.00000e-01	1.756874e-04	-1.75687e-04	
71	-2.90000e-01	1.669124e-04	-1.66912e-04	
72	-2.80000e-01	1.581944e-04	-1.58194e-04	
73	-2.70000e-01	1.495386e-04	-1.49539e-04	
74	-2.60000e-01	1.409508e-04	-1.40951e-04	
75	-2.50000e-01	1.324376e-04	-1.32438e-04	
76	-2.40000e-01	1.240065e-04	-1.24006e-04	
77	-2.30000e-01	1.156662e-04	-1.15666e-04	
78	-2.20000e-01	1.074265e-04	-1.07427e-04	
79	-2.10000e-01	9.929906e-05	-9.92991e-05	
80	-2.00000e-01	9.129706e-05	-9.12971e-05	
81	-1.90000e-01	8.343605e-05	-8.34361e-05	
82	-1.80000e-01	7.573416e-05	-7.57342e-05	
83	-1.70000e-01	6.821267e-05	-6.82127e-05	
84	-1.60000e-01	6.089653e-05	-6.08965e-05	
85	-1.50000e-01	5.381509e-05	-5.38151e-05	
86	-1.40000e-01	4.700267e-05	-4.70027e-05	
87	-1.30000e-01	4.049920e-05	-4.04992e-05	
88	-1.20000e-01	3.435042e-05	-3.43504e-05	
89	-1.10000e-01	2.860758e-05	-2.86076e-05	
90	-1.00000e-01	2.332582e-05	-2.33258e-05	
91	-9.00000e-02	1.856070e-05	-1.85607e-05	
92	-8.00000e-02	1.436219e-05	-1.43622e-05	
93	-7.00000e-02	1.076608e-05	-1.07661e-05	
94	-6.00000e-02	7.784380e-06	-7.78438e-06	
95	-5.00000e-02	5.397992e-06	-5.39799e-06	
96	-4.00000e-02	3.555742e-06	-3.55574e-06	
97	-3.00000e-02	2.181521e-06	-2.18152e-06	
98	-2.00000e-02	1.187105e-06	-1.18711e-06	
99	-1.00000e-02	4.854220e-07	-4.85422e-07	
100	8.396062e-16	-1.30647e-18	1.306471e-18	
101	1.000000e-02	-3.31002e-07	3.310023e-07	
102	2.000000e-02	-5.54262e-07	5.542618e-07	
103	3.000000e-02	-7.03756e-07	7.037559e-07	
104	4.000000e-02	-8.03349e-07	8.033492e-07	
105	5.000000e-02	-8.69470e-07	8.694704e-07	
106	6.000000e-02	-9.13268e-07	9.132677e-07	
107	7.000000e-02	-9.42233e-07	9.422334e-07	
108	8.000000e-02	-9.60873e-07	9.608727e-07	
109	9.000000e-02	-9.72170e-07	9.721700e-07	
110	1.000000e-01	-9.79364e-07	9.793640e-07	
111	1.100000e-01	-9.84160e-07	9.841597e-07	
112	1.200000e-01	-9.87478e-07	9.874784e-07	

Index   v-sweep         v1#branch       v_u1#branch     
--------------------------------------------------------------------------------
113	1.300000e-01	-9.89847e-07	9.898473e-07	
114	1.400000e-01	-9.91583e-07	9.915833e-07	
115	1.500000e-01	-9.92884e-07	9.928844e-07	
116	1.600000e-01	-9.93879e-07	9.938786e-07	
117	1.700000e-01	-9.94651e-07	9.946514e-07	
118	1.800000e-01	-9.95261e-07	9.952610e-07	
119	1.900000e-01	-9.95748e-07	9.957484e-07	
120	2.000000e-01	-9.96143e-07	9.961427e-07	
121	2.100000e-01	-9.96465e-07	9.964652e-07	
122	2.200000e-01	-9.96731e-07	9.967314e-07	
123	2.300000e-01	-9.96953e-07	9.969532e-07	
124	2.400000e-01	-9.97139e-07	9.971394e-07	
125	2.500000e-01	-9.97297e-07	9.972968e-07	
126	2.600000e-01	-9.97431e-07	9.974309e-07	
127	2.700000e-01	-9.97546e-07	9.975458e-07	
128	2.800000e-01	-9.97645e-07	9.976448e-07	
129	2.900000e-01	-9.97731e-07	9.977306e-07	
130	3.000000e-01	-9.97805e-07	9.978053e-07	
131	3.100000e-01	-9.97871e-07	9.978706e-07	
132	3.200000e-01	-9.97928e-07	9.979280e-07	
133	3.300000e-01	-9.97979e-07	9.979786e-07	
134	3.400000e-01	-9.98023e-07	9.980234e-07	
135	3.500000e-01	-9.98063e-07	9.980633e-07	
136	3.600000e-01	-9.98099e-07	9.980988e-07	
137	3.700000e-01	-9.98131e-07	9.981306e-07	
138	3.800000e-01	-9.98159e-07	9.981591e-07	
139	3.900000e-01	-9.98185e-07	9.981848e-07	
140	4.000000e-01	-9.98208e-07	9.982079e-07	
141	4.100000e-01	-9.98229e-07	9.982289e-07	
142	4.200000e-01	-9.98248e-07	9.982479e-07	
143	4.300000e-01	-9.98265e-07	9.982651e-07	
144	4.400000e-01	-9.98281e-07	9.982808e-07	
145	4.500000e-01	-9.98295e-07	9.982952e-07	
146	4.600000e-01	-9.98308e-07	9.983083e-07	
147	4.700000e-01	-9.98320e-07	9.983204e-07	
148	4.800000e-01	-9.98331e-07	9.983314e-07	
149	4.900000e-01	-9.98342e-07	9.983416e-07	
150	5.000000e-01	-9.98351e-07	9.983510e-07	
151	5.100000e-01	-9.98360e-07	9.983596e-07	
152	5.200000e-01	-9.98368e-07	9.983676e-07	
153	5.300000e-01	-9.98375e-07	9.983750e-07	
154	5.400000e-01	-9.98382e-07	9.983819e-07	
155	5.500000e-01	-9.98388e-07	9.983883e-07	
156	5.600000e-01	-9.98394e-07	9.983942e-07	
157	5.700000e-01	-9.98400e-07	9.983997e-07	
158	5.800000e-01	-9.98405e-07	9.984049e-07	
159	5.900000e-01	-9.98410e-07	9.984097e-07	
160	6.000000e-01	-9.98414e-07	9.984142e-07	
161	6.100000e-01	-9.98418e-07	9.984184e-07	
162	6.200000e-01	-9.98422e-07	9.984223e-07	
163	6.300000e-01	-9.98426e-07	9.984260e-07	
164	6.400000e-01	-9.98429e-07	9.984294e-07	
165	6.500000e-01	-9.98433e-07	9.984327e-07	
166	6.600000e-01	-9.98436e-07	9.984357e-07	
167	6.700000e-01	-9.98439e-07	9.984386e-07	
168	6.800000e-01	-9.98441e-07	9.984413e-07	
169	6.900000e-01	-9.98444e-07	9.984439e-07	
170	7.000000e-01	-9.98446e-07	9.984463e-07	

Index   v-sweep         v1#branch       v_u1#branch     
--------------------------------------------------------------------------------
171	7.100000e-01	-9.98449e-07	9.984486e-07	
172	7.200000e-01	-9.98451e-07	9.984507e-07	
173	7.300000e-01	-9.98453e-07	9.984528e-07	
174	7.400000e-01	-9.98455e-07	9.984547e-07	
175	7.500000e-01	-9.98457e-07	9.984565e-07	
176	7.600000e-01	-9.98458e-07	9.984583e-07	
177	7.700000e-01	-9.98460e-07	9.984599e-07	
178	7.800000e-01	-9.98461e-07	9.984615e-07	
179	7.900000e-01	-9.98463e-07	9.984630e-07	
180	8.000000e-01	-9.98464e-07	9.984644e-07	
181	8.100000e-01	-9.98466e-07	9.984657e-07	
182	8.200000e-01	-9.98467e-07	9.984670e-07	
183	8.300000e-01	-9.98468e-07	9.984682e-07	
184	8.400000e-01	-9.98469e-07	9.984694e-07	
185	8.500000e-01	-9.98470e-07	9.984705e-07	
186	8.600000e-01	-9.98472e-07	9.984715e-07	
187	8.700000e-01	-9.98473e-07	9.984726e-07	
188	8.800000e-01	-9.98474e-07	9.984735e-07	
189	8.900000e-01	-9.98474e-07	9.984744e-07	
190	9.000000e-01	-9.98475e-07	9.984753e-07	
191	9.100000e-01	-9.98476e-07	9.984762e-07	
192	9.200000e-01	-9.98477e-07	9.984770e-07	
193	9.300000e-01	-9.98478e-07	9.984778e-07	
194	9.400000e-01	-9.98478e-07	9.984785e-07	
195	9.500000e-01	-9.98479e-07	9.984792e-07	
196	9.600000e-01	-9.98480e-07	9.984799e-07	
197	9.700000e-01	-9.98481e-07	9.984805e-07	
198	9.800000e-01	-9.98481e-07	9.984812e-07	
199	9.900000e-01	-9.98482e-07	9.984818e-07	
200	1.000000e+00	-9.98482e-07	9.984824e-07	
