* c:\users\mamat\onedrive\documents\final_project_files\device_modelling\2n5401\bjt_cb_config_output_cha_2n5401\bjt_cb_config_output_cha_2n5401.cir
DC transfer characteristic  Tue Jun 24 16:09:15  2025
--------------------------------------------------------------------------------
Index   v-sweep         v1#branch       v_u_ic1#branch  
--------------------------------------------------------------------------------
0	0.000000e+00	-7.46670e-04	7.466699e-04	
1	2.000000e-03	-7.48635e-04	7.486350e-04	
2	4.000000e-03	-7.50600e-04	7.506001e-04	
3	6.000000e-03	-7.52565e-04	7.525652e-04	
4	8.000000e-03	-7.54530e-04	7.545303e-04	
5	1.000000e-02	-7.56495e-04	7.564954e-04	
6	1.200000e-02	-7.58461e-04	7.584605e-04	
7	1.400000e-02	-7.60426e-04	7.604256e-04	
8	1.600000e-02	-7.62391e-04	7.623907e-04	
9	1.800000e-02	-7.64356e-04	7.643558e-04	
10	2.000000e-02	-7.66321e-04	7.663209e-04	
11	2.200000e-02	-7.68286e-04	7.682859e-04	
12	2.400000e-02	-7.70251e-04	7.702510e-04	
13	2.600000e-02	-7.72216e-04	7.722161e-04	
14	2.800000e-02	-7.74181e-04	7.741811e-04	
15	3.000000e-02	-7.76146e-04	7.761462e-04	
16	3.200000e-02	-7.78111e-04	7.781112e-04	
17	3.400000e-02	-7.80076e-04	7.800763e-04	
18	3.600000e-02	-7.82041e-04	7.820413e-04	
19	3.800000e-02	-7.84006e-04	7.840063e-04	
20	4.000000e-02	-7.85971e-04	7.859713e-04	
21	4.200000e-02	-7.87936e-04	7.879363e-04	
22	4.400000e-02	-7.89901e-04	7.899014e-04	
23	4.600000e-02	-7.91866e-04	7.918664e-04	
24	4.800000e-02	-7.93831e-04	7.938314e-04	
25	5.000000e-02	-7.95796e-04	7.957963e-04	
26	5.200000e-02	-7.97761e-04	7.977613e-04	
27	5.400000e-02	-7.99726e-04	7.997263e-04	
28	5.600000e-02	-8.01691e-04	8.016913e-04	
29	5.800000e-02	-8.03656e-04	8.036563e-04	
30	6.000000e-02	-8.05621e-04	8.056212e-04	
31	6.200000e-02	-8.07586e-04	8.075862e-04	
32	6.400000e-02	-8.09551e-04	8.095511e-04	
33	6.600000e-02	-8.11516e-04	8.115161e-04	
34	6.800000e-02	-8.13481e-04	8.134810e-04	
35	7.000000e-02	-8.15446e-04	8.154460e-04	
36	7.200000e-02	-8.17411e-04	8.174109e-04	
37	7.400000e-02	-8.19376e-04	8.193758e-04	
38	7.600000e-02	-8.21341e-04	8.213407e-04	
39	7.800000e-02	-8.23306e-04	8.233056e-04	
40	8.000000e-02	-8.25271e-04	8.252705e-04	
41	8.200000e-02	-8.27235e-04	8.272354e-04	
42	8.400000e-02	-8.29200e-04	8.292003e-04	
43	8.600000e-02	-8.31165e-04	8.311652e-04	
44	8.800000e-02	-8.33130e-04	8.331301e-04	
45	9.000000e-02	-8.35095e-04	8.350950e-04	
46	9.200000e-02	-8.37060e-04	8.370599e-04	
47	9.400000e-02	-8.39025e-04	8.390247e-04	
48	9.600000e-02	-8.40990e-04	8.409896e-04	
49	9.800000e-02	-8.42954e-04	8.429544e-04	
50	1.000000e-01	-8.44919e-04	8.449193e-04	
51	1.020000e-01	-8.46884e-04	8.468841e-04	
52	1.040000e-01	-8.48849e-04	8.488490e-04	
53	1.060000e-01	-8.50814e-04	8.508138e-04	
54	1.080000e-01	-8.52779e-04	8.527786e-04	

Index   v-sweep         v1#branch       v_u_ic1#branch  
--------------------------------------------------------------------------------
55	1.100000e-01	-8.54743e-04	8.547435e-04	
56	1.120000e-01	-8.56708e-04	8.567083e-04	
57	1.140000e-01	-8.58673e-04	8.586731e-04	
58	1.160000e-01	-8.60638e-04	8.606379e-04	
59	1.180000e-01	-8.62603e-04	8.626027e-04	
60	1.200000e-01	-8.64567e-04	8.645675e-04	
61	1.220000e-01	-8.66532e-04	8.665322e-04	
62	1.240000e-01	-8.68497e-04	8.684970e-04	
63	1.260000e-01	-8.70462e-04	8.704618e-04	
64	1.280000e-01	-8.72427e-04	8.724266e-04	
65	1.300000e-01	-8.74391e-04	8.743913e-04	
66	1.320000e-01	-8.76356e-04	8.763561e-04	
67	1.340000e-01	-8.78321e-04	8.783208e-04	
68	1.360000e-01	-8.80286e-04	8.802856e-04	
69	1.380000e-01	-8.82250e-04	8.822503e-04	
70	1.400000e-01	-8.84215e-04	8.842150e-04	
71	1.420000e-01	-8.86180e-04	8.861798e-04	
72	1.440000e-01	-8.88144e-04	8.881445e-04	
73	1.460000e-01	-8.90109e-04	8.901092e-04	
74	1.480000e-01	-8.92074e-04	8.920739e-04	
75	1.500000e-01	-8.94039e-04	8.940386e-04	
76	1.520000e-01	-8.96003e-04	8.960033e-04	
77	1.540000e-01	-8.97968e-04	8.979680e-04	
78	1.560000e-01	-8.99933e-04	8.999327e-04	
79	1.580000e-01	-9.01897e-04	9.018974e-04	
80	1.600000e-01	-9.03862e-04	9.038620e-04	
81	1.620000e-01	-9.05827e-04	9.058267e-04	
82	1.640000e-01	-9.07791e-04	9.077914e-04	
83	1.660000e-01	-9.09756e-04	9.097560e-04	
84	1.680000e-01	-9.11721e-04	9.117207e-04	
85	1.700000e-01	-9.13685e-04	9.136853e-04	
86	1.720000e-01	-9.15650e-04	9.156499e-04	
87	1.740000e-01	-9.17615e-04	9.176146e-04	
88	1.760000e-01	-9.19579e-04	9.195792e-04	
89	1.780000e-01	-9.21544e-04	9.215438e-04	
90	1.800000e-01	-9.23508e-04	9.235084e-04	
91	1.820000e-01	-9.25473e-04	9.254730e-04	
92	1.840000e-01	-9.27438e-04	9.274376e-04	
93	1.860000e-01	-9.29402e-04	9.294022e-04	
94	1.880000e-01	-9.31367e-04	9.313668e-04	
95	1.900000e-01	-9.33331e-04	9.333314e-04	
96	1.920000e-01	-9.35296e-04	9.352960e-04	
97	1.940000e-01	-9.37261e-04	9.372605e-04	
98	1.960000e-01	-9.39225e-04	9.392251e-04	
99	1.980000e-01	-9.41190e-04	9.411897e-04	
100	2.000000e-01	-9.43154e-04	9.431542e-04	
101	2.020000e-01	-9.45119e-04	9.451188e-04	
102	2.040000e-01	-9.47083e-04	9.470833e-04	
103	2.060000e-01	-9.49048e-04	9.490478e-04	
104	2.080000e-01	-9.51012e-04	9.510124e-04	
105	2.100000e-01	-9.52977e-04	9.529769e-04	
106	2.120000e-01	-9.54941e-04	9.549414e-04	
107	2.140000e-01	-9.56906e-04	9.569059e-04	
108	2.160000e-01	-9.58870e-04	9.588704e-04	
109	2.180000e-01	-9.60835e-04	9.608349e-04	
110	2.200000e-01	-9.62799e-04	9.627994e-04	
111	2.220000e-01	-9.64764e-04	9.647639e-04	
112	2.240000e-01	-9.66728e-04	9.667284e-04	

Index   v-sweep         v1#branch       v_u_ic1#branch  
--------------------------------------------------------------------------------
113	2.260000e-01	-9.68693e-04	9.686928e-04	
114	2.280000e-01	-9.70657e-04	9.706573e-04	
115	2.300000e-01	-9.72622e-04	9.726218e-04	
116	2.320000e-01	-9.74586e-04	9.745862e-04	
117	2.340000e-01	-9.76551e-04	9.765507e-04	
118	2.360000e-01	-9.78515e-04	9.785151e-04	
119	2.380000e-01	-9.80480e-04	9.804795e-04	
120	2.400000e-01	-9.82444e-04	9.824440e-04	
121	2.420000e-01	-9.84408e-04	9.844084e-04	
122	2.440000e-01	-9.86373e-04	9.863728e-04	
123	2.460000e-01	-9.88337e-04	9.883372e-04	
124	2.480000e-01	-9.90302e-04	9.903016e-04	
125	2.500000e-01	-9.92266e-04	9.922660e-04	
126	2.520000e-01	-9.94230e-04	9.942304e-04	
127	2.540000e-01	-9.96195e-04	9.961948e-04	
128	2.560000e-01	-9.98159e-04	9.981592e-04	
129	2.580000e-01	-1.00012e-03	1.000124e-03	
130	2.600000e-01	-1.00209e-03	1.002088e-03	
131	2.620000e-01	-1.00405e-03	1.004052e-03	
132	2.640000e-01	-1.00602e-03	1.006017e-03	
133	2.660000e-01	-1.00798e-03	1.007981e-03	
134	2.680000e-01	-1.00995e-03	1.009945e-03	
135	2.700000e-01	-1.01191e-03	1.011910e-03	
136	2.720000e-01	-1.01387e-03	1.013874e-03	
137	2.740000e-01	-1.01584e-03	1.015838e-03	
138	2.760000e-01	-1.01780e-03	1.017803e-03	
139	2.780000e-01	-1.01977e-03	1.019767e-03	
140	2.800000e-01	-1.02173e-03	1.021731e-03	
141	2.820000e-01	-1.02370e-03	1.023696e-03	
142	2.840000e-01	-1.02566e-03	1.025660e-03	
143	2.860000e-01	-1.02762e-03	1.027624e-03	
144	2.880000e-01	-1.02959e-03	1.029588e-03	
145	2.900000e-01	-1.03155e-03	1.031553e-03	
146	2.920000e-01	-1.03352e-03	1.033517e-03	
147	2.940000e-01	-1.03548e-03	1.035481e-03	
148	2.960000e-01	-1.03745e-03	1.037445e-03	
149	2.980000e-01	-1.03941e-03	1.039410e-03	
150	3.000000e-01	-1.04137e-03	1.041374e-03	
151	3.020000e-01	-1.04334e-03	1.043338e-03	
152	3.040000e-01	-1.04530e-03	1.045302e-03	
153	3.060000e-01	-1.04727e-03	1.047267e-03	
154	3.080000e-01	-1.04923e-03	1.049231e-03	
155	3.100000e-01	-1.05120e-03	1.051195e-03	
156	3.120000e-01	-1.05316e-03	1.053159e-03	
157	3.140000e-01	-1.05512e-03	1.055123e-03	
158	3.160000e-01	-1.05709e-03	1.057088e-03	
159	3.180000e-01	-1.05905e-03	1.059052e-03	
160	3.200000e-01	-1.06102e-03	1.061016e-03	
161	3.220000e-01	-1.06298e-03	1.062980e-03	
162	3.240000e-01	-1.06494e-03	1.064944e-03	
163	3.260000e-01	-1.06691e-03	1.066908e-03	
164	3.280000e-01	-1.06887e-03	1.068873e-03	
165	3.300000e-01	-1.07084e-03	1.070837e-03	
166	3.320000e-01	-1.07280e-03	1.072801e-03	
167	3.340000e-01	-1.07477e-03	1.074765e-03	
168	3.360000e-01	-1.07673e-03	1.076729e-03	
169	3.380000e-01	-1.07869e-03	1.078693e-03	
170	3.400000e-01	-1.08066e-03	1.080657e-03	

Index   v-sweep         v1#branch       v_u_ic1#branch  
--------------------------------------------------------------------------------
171	3.420000e-01	-1.08262e-03	1.082621e-03	
172	3.440000e-01	-1.08459e-03	1.084586e-03	
173	3.460000e-01	-1.08655e-03	1.086550e-03	
174	3.480000e-01	-1.08851e-03	1.088514e-03	
175	3.500000e-01	-1.09048e-03	1.090478e-03	
176	3.520000e-01	-1.09244e-03	1.092442e-03	
177	3.540000e-01	-1.09441e-03	1.094406e-03	
178	3.560000e-01	-1.09637e-03	1.096370e-03	
179	3.580000e-01	-1.09833e-03	1.098334e-03	
180	3.600000e-01	-1.10030e-03	1.100298e-03	
181	3.620000e-01	-1.10226e-03	1.102262e-03	
182	3.640000e-01	-1.10423e-03	1.104226e-03	
183	3.660000e-01	-1.10619e-03	1.106190e-03	
184	3.680000e-01	-1.10815e-03	1.108154e-03	
185	3.700000e-01	-1.11012e-03	1.110118e-03	
186	3.720000e-01	-1.11208e-03	1.112082e-03	
187	3.740000e-01	-1.11405e-03	1.114046e-03	
188	3.760000e-01	-1.11601e-03	1.116010e-03	
189	3.780000e-01	-1.11797e-03	1.117974e-03	
190	3.800000e-01	-1.11994e-03	1.119938e-03	
191	3.820000e-01	-1.12190e-03	1.121902e-03	
192	3.840000e-01	-1.12387e-03	1.123866e-03	
193	3.860000e-01	-1.12583e-03	1.125830e-03	
194	3.880000e-01	-1.12779e-03	1.127794e-03	
195	3.900000e-01	-1.12976e-03	1.129758e-03	
196	3.920000e-01	-1.13172e-03	1.131722e-03	
197	3.940000e-01	-1.13369e-03	1.133686e-03	
198	3.960000e-01	-1.13565e-03	1.135650e-03	
199	3.980000e-01	-1.13761e-03	1.137614e-03	
200	4.000000e-01	-1.13958e-03	1.139578e-03	
201	4.020000e-01	-1.14154e-03	1.141542e-03	
202	4.040000e-01	-1.14351e-03	1.143505e-03	
203	4.060000e-01	-1.14547e-03	1.145469e-03	
204	4.080000e-01	-1.14743e-03	1.147433e-03	
205	4.100000e-01	-1.14940e-03	1.149397e-03	
206	4.120000e-01	-1.15136e-03	1.151361e-03	
207	4.140000e-01	-1.15332e-03	1.153325e-03	
208	4.160000e-01	-1.15529e-03	1.155289e-03	
209	4.180000e-01	-1.15725e-03	1.157253e-03	
210	4.200000e-01	-1.15922e-03	1.159216e-03	
211	4.220000e-01	-1.16118e-03	1.161180e-03	
212	4.240000e-01	-1.16314e-03	1.163144e-03	
213	4.260000e-01	-1.16511e-03	1.165108e-03	
214	4.280000e-01	-1.16707e-03	1.167072e-03	
215	4.300000e-01	-1.16904e-03	1.169036e-03	
216	4.320000e-01	-1.17100e-03	1.170999e-03	
217	4.340000e-01	-1.17296e-03	1.172963e-03	
218	4.360000e-01	-1.17493e-03	1.174927e-03	
219	4.380000e-01	-1.17689e-03	1.176891e-03	
220	4.400000e-01	-1.17885e-03	1.178854e-03	
221	4.420000e-01	-1.18082e-03	1.180818e-03	
222	4.440000e-01	-1.18278e-03	1.182782e-03	
223	4.460000e-01	-1.18475e-03	1.184746e-03	
224	4.480000e-01	-1.18671e-03	1.186710e-03	
225	4.500000e-01	-1.18867e-03	1.188673e-03	
226	4.520000e-01	-1.19064e-03	1.190637e-03	
227	4.540000e-01	-1.19260e-03	1.192601e-03	
228	4.560000e-01	-1.19456e-03	1.194564e-03	

Index   v-sweep         v1#branch       v_u_ic1#branch  
--------------------------------------------------------------------------------
229	4.580000e-01	-1.19653e-03	1.196528e-03	
230	4.600000e-01	-1.19849e-03	1.198492e-03	
231	4.620000e-01	-1.20046e-03	1.200456e-03	
232	4.640000e-01	-1.20242e-03	1.202419e-03	
233	4.660000e-01	-1.20438e-03	1.204383e-03	
234	4.680000e-01	-1.20635e-03	1.206347e-03	
235	4.700000e-01	-1.20831e-03	1.208310e-03	
236	4.720000e-01	-1.21027e-03	1.210274e-03	
237	4.740000e-01	-1.21224e-03	1.212238e-03	
238	4.760000e-01	-1.21420e-03	1.214201e-03	
239	4.780000e-01	-1.21616e-03	1.216165e-03	
240	4.800000e-01	-1.21813e-03	1.218129e-03	
241	4.820000e-01	-1.22009e-03	1.220092e-03	
242	4.840000e-01	-1.22206e-03	1.222056e-03	
243	4.860000e-01	-1.22402e-03	1.224019e-03	
244	4.880000e-01	-1.22598e-03	1.225983e-03	
245	4.900000e-01	-1.22795e-03	1.227947e-03	
246	4.920000e-01	-1.22991e-03	1.229910e-03	
247	4.940000e-01	-1.23187e-03	1.231874e-03	
248	4.960000e-01	-1.23384e-03	1.233837e-03	
249	4.980000e-01	-1.23580e-03	1.235801e-03	
250	5.000000e-01	-1.23776e-03	1.237765e-03	
251	5.020000e-01	-1.23973e-03	1.239728e-03	
252	5.040000e-01	-1.24169e-03	1.241692e-03	
253	5.060000e-01	-1.24366e-03	1.243655e-03	
254	5.080000e-01	-1.24562e-03	1.245619e-03	
255	5.100000e-01	-1.24758e-03	1.247582e-03	
256	5.120000e-01	-1.24955e-03	1.249546e-03	
257	5.140000e-01	-1.25151e-03	1.251509e-03	
258	5.160000e-01	-1.25347e-03	1.253473e-03	
259	5.180000e-01	-1.25544e-03	1.255436e-03	
260	5.200000e-01	-1.25740e-03	1.257400e-03	
261	5.220000e-01	-1.25936e-03	1.259363e-03	
262	5.240000e-01	-1.26133e-03	1.261327e-03	
263	5.260000e-01	-1.26329e-03	1.263290e-03	
264	5.280000e-01	-1.26525e-03	1.265254e-03	
265	5.300000e-01	-1.26722e-03	1.267217e-03	
266	5.320000e-01	-1.26918e-03	1.269181e-03	
267	5.340000e-01	-1.27114e-03	1.271144e-03	
268	5.360000e-01	-1.27311e-03	1.273108e-03	
269	5.380000e-01	-1.27507e-03	1.275071e-03	
270	5.400000e-01	-1.27703e-03	1.277034e-03	
271	5.420000e-01	-1.27900e-03	1.278998e-03	
272	5.440000e-01	-1.28096e-03	1.280961e-03	
273	5.460000e-01	-1.28292e-03	1.282925e-03	
274	5.480000e-01	-1.28489e-03	1.284888e-03	
275	5.500000e-01	-1.28685e-03	1.286851e-03	
276	5.520000e-01	-1.28881e-03	1.288815e-03	
277	5.540000e-01	-1.29078e-03	1.290778e-03	
278	5.560000e-01	-1.29274e-03	1.292742e-03	
279	5.580000e-01	-1.29470e-03	1.294705e-03	
280	5.600000e-01	-1.29667e-03	1.296668e-03	
281	5.620000e-01	-1.29863e-03	1.298632e-03	
282	5.640000e-01	-1.30059e-03	1.300595e-03	
283	5.660000e-01	-1.30256e-03	1.302558e-03	
284	5.680000e-01	-1.30452e-03	1.304522e-03	
285	5.700000e-01	-1.30648e-03	1.306485e-03	
286	5.720000e-01	-1.30845e-03	1.308448e-03	

Index   v-sweep         v1#branch       v_u_ic1#branch  
--------------------------------------------------------------------------------
287	5.740000e-01	-1.31041e-03	1.310412e-03	
288	5.760000e-01	-1.31237e-03	1.312375e-03	
289	5.780000e-01	-1.31434e-03	1.314338e-03	
290	5.800000e-01	-1.31630e-03	1.316301e-03	
291	5.820000e-01	-1.31826e-03	1.318265e-03	
292	5.840000e-01	-1.32023e-03	1.320228e-03	
293	5.860000e-01	-1.32219e-03	1.322191e-03	
294	5.880000e-01	-1.32415e-03	1.324154e-03	
295	5.900000e-01	-1.32612e-03	1.326118e-03	
296	5.920000e-01	-1.32808e-03	1.328081e-03	
297	5.940000e-01	-1.33004e-03	1.330044e-03	
298	5.960000e-01	-1.33201e-03	1.332007e-03	
299	5.980000e-01	-1.33397e-03	1.333971e-03	
300	6.000000e-01	-1.33593e-03	1.335934e-03	
301	6.020000e-01	-1.33790e-03	1.337897e-03	
302	6.040000e-01	-1.33986e-03	1.339860e-03	
303	6.060000e-01	-1.34182e-03	1.341823e-03	
304	6.080000e-01	-1.34379e-03	1.343786e-03	
305	6.100000e-01	-1.34575e-03	1.345750e-03	
306	6.120000e-01	-1.34771e-03	1.347713e-03	
307	6.140000e-01	-1.34968e-03	1.349676e-03	
308	6.160000e-01	-1.35164e-03	1.351639e-03	
309	6.180000e-01	-1.35360e-03	1.353602e-03	
310	6.200000e-01	-1.35557e-03	1.355565e-03	
311	6.220000e-01	-1.35753e-03	1.357528e-03	
312	6.240000e-01	-1.35949e-03	1.359492e-03	
313	6.260000e-01	-1.36145e-03	1.361455e-03	
314	6.280000e-01	-1.36342e-03	1.363418e-03	
315	6.300000e-01	-1.36538e-03	1.365381e-03	
316	6.320000e-01	-1.36734e-03	1.367344e-03	
317	6.340000e-01	-1.36931e-03	1.369307e-03	
318	6.360000e-01	-1.37127e-03	1.371270e-03	
319	6.380000e-01	-1.37323e-03	1.373233e-03	
320	6.400000e-01	-1.37520e-03	1.375196e-03	
321	6.420000e-01	-1.37716e-03	1.377159e-03	
322	6.440000e-01	-1.37912e-03	1.379122e-03	
323	6.460000e-01	-1.38109e-03	1.381085e-03	
324	6.480000e-01	-1.38305e-03	1.383048e-03	
325	6.500000e-01	-1.38501e-03	1.385011e-03	
326	6.520000e-01	-1.38697e-03	1.386974e-03	
327	6.540000e-01	-1.38894e-03	1.388937e-03	
328	6.560000e-01	-1.39090e-03	1.390900e-03	
329	6.580000e-01	-1.39286e-03	1.392863e-03	
330	6.600000e-01	-1.39483e-03	1.394826e-03	
331	6.620000e-01	-1.39679e-03	1.396789e-03	
332	6.640000e-01	-1.39875e-03	1.398752e-03	
333	6.660000e-01	-1.40072e-03	1.400715e-03	
334	6.680000e-01	-1.40268e-03	1.402678e-03	
335	6.700000e-01	-1.40464e-03	1.404641e-03	
336	6.720000e-01	-1.40660e-03	1.406604e-03	
337	6.740000e-01	-1.40857e-03	1.408567e-03	
338	6.760000e-01	-1.41053e-03	1.410530e-03	
339	6.780000e-01	-1.41249e-03	1.412493e-03	
340	6.800000e-01	-1.41446e-03	1.414456e-03	
341	6.820000e-01	-1.41642e-03	1.416419e-03	
342	6.840000e-01	-1.41838e-03	1.418381e-03	
343	6.860000e-01	-1.42034e-03	1.420344e-03	
344	6.880000e-01	-1.42231e-03	1.422307e-03	

Index   v-sweep         v1#branch       v_u_ic1#branch  
--------------------------------------------------------------------------------
345	6.900000e-01	-1.42427e-03	1.424270e-03	
346	6.920000e-01	-1.42623e-03	1.426233e-03	
347	6.940000e-01	-1.42820e-03	1.428196e-03	
348	6.960000e-01	-1.43016e-03	1.430159e-03	
349	6.980000e-01	-1.43212e-03	1.432121e-03	
350	7.000000e-01	-1.43408e-03	1.434084e-03	
351	7.020000e-01	-1.43605e-03	1.436047e-03	
352	7.040000e-01	-1.43801e-03	1.438010e-03	
353	7.060000e-01	-1.43997e-03	1.439973e-03	
354	7.080000e-01	-1.44194e-03	1.441935e-03	
355	7.100000e-01	-1.44390e-03	1.443898e-03	
356	7.120000e-01	-1.44586e-03	1.445861e-03	
357	7.140000e-01	-1.44782e-03	1.447824e-03	
358	7.160000e-01	-1.44979e-03	1.449787e-03	
359	7.180000e-01	-1.45175e-03	1.451749e-03	
360	7.200000e-01	-1.45371e-03	1.453712e-03	
361	7.220000e-01	-1.45567e-03	1.455675e-03	
362	7.240000e-01	-1.45764e-03	1.457638e-03	
363	7.260000e-01	-1.45960e-03	1.459600e-03	
364	7.280000e-01	-1.46156e-03	1.461563e-03	
365	7.300000e-01	-1.46353e-03	1.463526e-03	
366	7.320000e-01	-1.46549e-03	1.465488e-03	
367	7.340000e-01	-1.46745e-03	1.467451e-03	
368	7.360000e-01	-1.46941e-03	1.469414e-03	
369	7.380000e-01	-1.47138e-03	1.471376e-03	
370	7.400000e-01	-1.47334e-03	1.473339e-03	
371	7.420000e-01	-1.47530e-03	1.475302e-03	
372	7.440000e-01	-1.47726e-03	1.477264e-03	
373	7.460000e-01	-1.47923e-03	1.479227e-03	
374	7.480000e-01	-1.48119e-03	1.481190e-03	
375	7.500000e-01	-1.48315e-03	1.483152e-03	
376	7.520000e-01	-1.48511e-03	1.485115e-03	
377	7.540000e-01	-1.48708e-03	1.487077e-03	
378	7.560000e-01	-1.48904e-03	1.489040e-03	
379	7.580000e-01	-1.49100e-03	1.491003e-03	
380	7.600000e-01	-1.49297e-03	1.492965e-03	
381	7.620000e-01	-1.49493e-03	1.494928e-03	
382	7.640000e-01	-1.49689e-03	1.496890e-03	
383	7.660000e-01	-1.49885e-03	1.498853e-03	
384	7.680000e-01	-1.50082e-03	1.500815e-03	
385	7.700000e-01	-1.50278e-03	1.502778e-03	
386	7.720000e-01	-1.50474e-03	1.504741e-03	
387	7.740000e-01	-1.50670e-03	1.506703e-03	
388	7.760000e-01	-1.50867e-03	1.508666e-03	
389	7.780000e-01	-1.51063e-03	1.510628e-03	
390	7.800000e-01	-1.51259e-03	1.512591e-03	
391	7.820000e-01	-1.51455e-03	1.514553e-03	
392	7.840000e-01	-1.51652e-03	1.516516e-03	
393	7.860000e-01	-1.51848e-03	1.518478e-03	
394	7.880000e-01	-1.52044e-03	1.520440e-03	
395	7.900000e-01	-1.52240e-03	1.522403e-03	
396	7.920000e-01	-1.52437e-03	1.524365e-03	
397	7.940000e-01	-1.52633e-03	1.526328e-03	
398	7.960000e-01	-1.52829e-03	1.528290e-03	
399	7.980000e-01	-1.53025e-03	1.530253e-03	
400	8.000000e-01	-1.53222e-03	1.532215e-03	
401	8.020000e-01	-1.53418e-03	1.534178e-03	
402	8.040000e-01	-1.53614e-03	1.536140e-03	

Index   v-sweep         v1#branch       v_u_ic1#branch  
--------------------------------------------------------------------------------
403	8.060000e-01	-1.53810e-03	1.538102e-03	
404	8.080000e-01	-1.54006e-03	1.540065e-03	
405	8.100000e-01	-1.54203e-03	1.542027e-03	
406	8.120000e-01	-1.54399e-03	1.543989e-03	
407	8.140000e-01	-1.54595e-03	1.545952e-03	
408	8.160000e-01	-1.54791e-03	1.547914e-03	
409	8.180000e-01	-1.54988e-03	1.549876e-03	
410	8.200000e-01	-1.55184e-03	1.551839e-03	
411	8.220000e-01	-1.55380e-03	1.553801e-03	
412	8.240000e-01	-1.55576e-03	1.555763e-03	
413	8.260000e-01	-1.55773e-03	1.557726e-03	
414	8.280000e-01	-1.55969e-03	1.559688e-03	
415	8.300000e-01	-1.56165e-03	1.561650e-03	
416	8.320000e-01	-1.56361e-03	1.563613e-03	
417	8.340000e-01	-1.56557e-03	1.565575e-03	
418	8.360000e-01	-1.56754e-03	1.567537e-03	
419	8.380000e-01	-1.56950e-03	1.569499e-03	
420	8.400000e-01	-1.57146e-03	1.571462e-03	
421	8.420000e-01	-1.57342e-03	1.573424e-03	
422	8.440000e-01	-1.57539e-03	1.575386e-03	
423	8.460000e-01	-1.57735e-03	1.577348e-03	
424	8.480000e-01	-1.57931e-03	1.579311e-03	
