        * c:\users\mamat\esim-workspace\bjt_ce_config\bjt_ce_config.cir
        DC transfer characteristic  Tue Jun 24 19:47:36  2025
--------------------------------------------------------------------------------
Index   v-sweep         ib              net-_q1-pad1_   net-_q1-pad2_   
--------------------------------------------------------------------------------
0	0.000000e+00	3.455217e-17	-1.16333e-21	3.455217e-17	
1	5.000000e-03	4.801926e-03	4.994923e-03	4.801926e-03	
2	1.000000e-02	9.563746e-03	9.988865e-03	9.563746e-03	
3	1.500000e-02	1.427781e-02	1.498166e-02	1.427781e-02	
4	2.000000e-02	1.893528e-02	1.997314e-02	1.893528e-02	
5	2.500000e-02	2.352598e-02	2.496308e-02	2.352598e-02	
6	3.000000e-02	2.803830e-02	2.995130e-02	2.803830e-02	
7	3.500000e-02	3.245921e-02	3.493759e-02	3.245921e-02	
8	4.000000e-02	3.677427e-02	3.992174e-02	3.677427e-02	
9	4.500000e-02	4.096779e-02	4.490358e-02	4.096779e-02	
10	5.000000e-02	4.502307e-02	4.988299e-02	4.502307e-02	
11	5.500000e-02	4.892280e-02	5.485990e-02	4.892280e-02	
12	6.000000e-02	5.264959e-02	5.983433e-02	5.264959e-02	
13	6.500000e-02	5.618667e-02	6.480641e-02	5.618667e-02	
14	7.000000e-02	5.951861e-02	6.977637e-02	5.951861e-02	
15	7.500000e-02	6.263217e-02	7.474459e-02	6.263217e-02	
16	8.000000e-02	6.551706e-02	7.971151e-02	6.551706e-02	
17	8.500000e-02	6.816657e-02	8.467771e-02	6.816657e-02	
18	9.000000e-02	7.057806e-02	8.964378e-02	7.057806e-02	
19	9.500000e-02	7.275311e-02	9.461035e-02	7.275311e-02	
20	1.000000e-01	7.469740e-02	9.957799e-02	7.469740e-02	
21	1.050000e-01	7.642037e-02	1.045472e-01	7.642037e-02	
22	1.100000e-01	7.793458e-02	1.095184e-01	7.793458e-02	
23	1.150000e-01	7.925496e-02	1.144919e-01	7.925496e-02	
24	1.200000e-01	8.039804e-02	1.194678e-01	8.039804e-02	
25	1.250000e-01	8.138110e-02	1.244462e-01	8.138110e-02	
26	1.300000e-01	8.222153e-02	1.294271e-01	8.222153e-02	
27	1.350000e-01	8.293622e-02	1.344103e-01	8.293622e-02	
28	1.400000e-01	8.354114e-02	1.393958e-01	8.354114e-02	
29	1.450000e-01	8.405109e-02	1.443833e-01	8.405109e-02	
30	1.500000e-01	8.447944e-02	1.493725e-01	8.447944e-02	
31	1.550000e-01	8.483818e-02	1.543634e-01	8.483818e-02	
32	1.600000e-01	8.513784e-02	1.593557e-01	8.513784e-02	
33	1.650000e-01	8.538705e-02	1.643492e-01	8.538705e-02	
34	1.700000e-01	8.558655e-02	1.693440e-01	8.558655e-02	
35	1.750000e-01	8.574528e-02	1.743398e-01	8.574528e-02	
36	1.800000e-01	8.587287e-02	1.793364e-01	8.587287e-02	
37	1.850000e-01	8.597645e-02	1.843337e-01	8.597645e-02	
38	1.900000e-01	8.606132e-02	1.893314e-01	8.606132e-02	
39	1.950000e-01	8.613145e-02	1.943295e-01	8.613145e-02	
40	2.000000e-01	8.618988e-02	1.993279e-01	8.618988e-02	
41	2.050000e-01	8.623892e-02	2.043266e-01	8.623892e-02	
42	2.100000e-01	8.628038e-02	2.093255e-01	8.628038e-02	
43	2.150000e-01	8.631566e-02	2.143245e-01	8.631566e-02	
44	2.200000e-01	8.634585e-02	2.193237e-01	8.634585e-02	
45	2.250000e-01	8.637185e-02	2.243230e-01	8.637185e-02	
46	2.300000e-01	8.639435e-02	2.293224e-01	8.639435e-02	
47	2.350000e-01	8.641392e-02	2.343219e-01	8.641392e-02	
48	2.400000e-01	8.643102e-02	2.393214e-01	8.643102e-02	
49	2.450000e-01	8.644603e-02	2.443210e-01	8.644603e-02	
50	2.500000e-01	8.645925e-02	2.493206e-01	8.645925e-02	
51	2.550000e-01	8.647095e-02	2.543203e-01	8.647095e-02	
52	2.600000e-01	8.648134e-02	2.593200e-01	8.648134e-02	
53	2.650000e-01	8.649059e-02	2.643198e-01	8.649059e-02	
54	2.700000e-01	8.649886e-02	2.693196e-01	8.649886e-02	

Index   v-sweep         ib              net-_q1-pad1_   net-_q1-pad2_   
--------------------------------------------------------------------------------
55	2.750000e-01	8.650628e-02	2.743194e-01	8.650628e-02	
56	2.800000e-01	8.651295e-02	2.793192e-01	8.651295e-02	
57	2.850000e-01	8.651896e-02	2.843190e-01	8.651896e-02	
58	2.900000e-01	8.652440e-02	2.893189e-01	8.652440e-02	
59	2.950000e-01	8.652932e-02	2.943187e-01	8.652932e-02	
60	3.000000e-01	8.653380e-02	2.993186e-01	8.653380e-02	
61	3.050000e-01	8.653787e-02	3.043185e-01	8.653787e-02	
62	3.100000e-01	8.654159e-02	3.093184e-01	8.654159e-02	
63	3.150000e-01	8.654499e-02	3.143183e-01	8.654499e-02	
64	3.200000e-01	8.654811e-02	3.193182e-01	8.654811e-02	
65	3.250000e-01	8.655097e-02	3.243181e-01	8.655097e-02	
66	3.300000e-01	8.655360e-02	3.293181e-01	8.655360e-02	
67	3.350000e-01	8.655602e-02	3.343180e-01	8.655602e-02	
68	3.400000e-01	8.655826e-02	3.393179e-01	8.655826e-02	
69	3.450000e-01	8.656033e-02	3.443179e-01	8.656033e-02	
70	3.500000e-01	8.656224e-02	3.493178e-01	8.656224e-02	
71	3.550000e-01	8.656401e-02	3.543178e-01	8.656401e-02	
72	3.600000e-01	8.656566e-02	3.593177e-01	8.656566e-02	
73	3.650000e-01	8.656720e-02	3.643177e-01	8.656720e-02	
74	3.700000e-01	8.656862e-02	3.693177e-01	8.656862e-02	
75	3.750000e-01	8.656995e-02	3.743176e-01	8.656995e-02	
76	3.800000e-01	8.657119e-02	3.793176e-01	8.657119e-02	
77	3.850000e-01	8.657236e-02	3.843176e-01	8.657236e-02	
78	3.900000e-01	8.657344e-02	3.893175e-01	8.657344e-02	
79	3.950000e-01	8.657446e-02	3.943175e-01	8.657446e-02	
80	4.000000e-01	8.657541e-02	3.993175e-01	8.657541e-02	
81	4.050000e-01	8.657631e-02	4.043175e-01	8.657631e-02	
82	4.100000e-01	8.657715e-02	4.093174e-01	8.657715e-02	
83	4.150000e-01	8.657795e-02	4.143174e-01	8.657795e-02	
84	4.200000e-01	8.657869e-02	4.193174e-01	8.657869e-02	
85	4.250000e-01	8.657940e-02	4.243174e-01	8.657940e-02	
86	4.300000e-01	8.658006e-02	4.293174e-01	8.658006e-02	
87	4.350000e-01	8.658069e-02	4.343173e-01	8.658069e-02	
88	4.400000e-01	8.658128e-02	4.393173e-01	8.658128e-02	
89	4.450000e-01	8.658184e-02	4.443173e-01	8.658184e-02	
90	4.500000e-01	8.658237e-02	4.493173e-01	8.658237e-02	
91	4.550000e-01	8.658288e-02	4.543173e-01	8.658288e-02	
92	4.600000e-01	8.658335e-02	4.593173e-01	8.658335e-02	
93	4.650000e-01	8.658381e-02	4.643172e-01	8.658381e-02	
94	4.700000e-01	8.658424e-02	4.693172e-01	8.658424e-02	
95	4.750000e-01	8.658465e-02	4.743172e-01	8.658465e-02	
96	4.800000e-01	8.658504e-02	4.793172e-01	8.658504e-02	
97	4.850000e-01	8.658541e-02	4.843172e-01	8.658541e-02	
98	4.900000e-01	8.658576e-02	4.893172e-01	8.658576e-02	
99	4.950000e-01	8.658610e-02	4.943172e-01	8.658610e-02	
100	5.000000e-01	8.658642e-02	4.993172e-01	8.658642e-02	
101	5.050000e-01	8.658673e-02	5.043172e-01	8.658673e-02	
102	5.100000e-01	8.658702e-02	5.093172e-01	8.658702e-02	
103	5.150000e-01	8.658730e-02	5.143172e-01	8.658730e-02	
104	5.200000e-01	8.658757e-02	5.193171e-01	8.658757e-02	
105	5.250000e-01	8.658783e-02	5.243171e-01	8.658783e-02	
106	5.300000e-01	8.658807e-02	5.293171e-01	8.658807e-02	
107	5.350000e-01	8.658831e-02	5.343171e-01	8.658831e-02	
108	5.400000e-01	8.658853e-02	5.393171e-01	8.658853e-02	
109	5.450000e-01	8.658875e-02	5.443171e-01	8.658875e-02	
110	5.500000e-01	8.658896e-02	5.493171e-01	8.658896e-02	
111	5.550000e-01	8.658916e-02	5.543171e-01	8.658916e-02	
112	5.600000e-01	8.658935e-02	5.593171e-01	8.658935e-02	

Index   v-sweep         ib              net-_q1-pad1_   net-_q1-pad2_   
--------------------------------------------------------------------------------
113	5.650000e-01	8.658954e-02	5.643171e-01	8.658954e-02	
114	5.700000e-01	8.658971e-02	5.693171e-01	8.658971e-02	
115	5.750000e-01	8.658988e-02	5.743171e-01	8.658988e-02	
116	5.800000e-01	8.659005e-02	5.793171e-01	8.659005e-02	
117	5.850000e-01	8.659021e-02	5.843171e-01	8.659021e-02	
118	5.900000e-01	8.659036e-02	5.893171e-01	8.659036e-02	
119	5.950000e-01	8.659051e-02	5.943171e-01	8.659051e-02	
120	6.000000e-01	8.659065e-02	5.993171e-01	8.659065e-02	
121	6.050000e-01	8.659079e-02	6.043171e-01	8.659079e-02	
122	6.100000e-01	8.659092e-02	6.093171e-01	8.659092e-02	
123	6.150000e-01	8.659105e-02	6.143171e-01	8.659105e-02	
124	6.200000e-01	8.659117e-02	6.193170e-01	8.659117e-02	
125	6.250000e-01	8.659129e-02	6.243170e-01	8.659129e-02	
126	6.300000e-01	8.659141e-02	6.293170e-01	8.659141e-02	
127	6.350000e-01	8.659152e-02	6.343170e-01	8.659152e-02	
128	6.400000e-01	8.659163e-02	6.393170e-01	8.659163e-02	
129	6.450000e-01	8.659174e-02	6.443170e-01	8.659174e-02	
130	6.500000e-01	8.659184e-02	6.493170e-01	8.659184e-02	
131	6.550000e-01	8.659194e-02	6.543170e-01	8.659194e-02	
132	6.600000e-01	8.659204e-02	6.593170e-01	8.659204e-02	
133	6.650000e-01	8.659213e-02	6.643170e-01	8.659213e-02	
134	6.700000e-01	8.659222e-02	6.693170e-01	8.659222e-02	
135	6.750000e-01	8.659231e-02	6.743170e-01	8.659231e-02	
136	6.800000e-01	8.659239e-02	6.793170e-01	8.659239e-02	
137	6.850000e-01	8.659248e-02	6.843170e-01	8.659248e-02	
138	6.900000e-01	8.659256e-02	6.893170e-01	8.659256e-02	
139	6.950000e-01	8.659264e-02	6.943170e-01	8.659264e-02	
140	7.000000e-01	8.659271e-02	6.993170e-01	8.659271e-02	
141	7.050000e-01	8.659279e-02	7.043170e-01	8.659279e-02	
142	7.100000e-01	8.659286e-02	7.093170e-01	8.659286e-02	
143	7.150000e-01	8.659293e-02	7.143170e-01	8.659293e-02	
144	7.200000e-01	8.659300e-02	7.193170e-01	8.659300e-02	
145	7.250000e-01	8.659307e-02	7.243170e-01	8.659307e-02	
146	7.300000e-01	8.659314e-02	7.293170e-01	8.659314e-02	
147	7.350000e-01	8.659320e-02	7.343170e-01	8.659320e-02	
148	7.400000e-01	8.659326e-02	7.393170e-01	8.659326e-02	
149	7.450000e-01	8.659332e-02	7.443170e-01	8.659332e-02	
150	7.500000e-01	8.659338e-02	7.493170e-01	8.659338e-02	
151	7.550000e-01	8.659344e-02	7.543170e-01	8.659344e-02	
152	7.600000e-01	8.659350e-02	7.593170e-01	8.659350e-02	
153	7.650000e-01	8.659355e-02	7.643170e-01	8.659355e-02	
154	7.700000e-01	8.659361e-02	7.693170e-01	8.659361e-02	
155	7.750000e-01	8.659366e-02	7.743170e-01	8.659366e-02	
156	7.800000e-01	8.659372e-02	7.793170e-01	8.659372e-02	
157	7.850000e-01	8.659377e-02	7.843170e-01	8.659377e-02	
158	7.900000e-01	8.659382e-02	7.893170e-01	8.659382e-02	
159	7.950000e-01	8.659387e-02	7.943170e-01	8.659387e-02	
160	8.000000e-01	8.659391e-02	7.993170e-01	8.659391e-02	
161	8.050000e-01	8.659396e-02	8.043170e-01	8.659396e-02	
162	8.100000e-01	8.659401e-02	8.093170e-01	8.659401e-02	
163	8.150000e-01	8.659405e-02	8.143170e-01	8.659405e-02	
164	8.200000e-01	8.659410e-02	8.193170e-01	8.659410e-02	
165	8.250000e-01	8.659414e-02	8.243170e-01	8.659414e-02	
166	8.300000e-01	8.659418e-02	8.293170e-01	8.659418e-02	
167	8.350000e-01	8.659423e-02	8.343170e-01	8.659423e-02	
168	8.400000e-01	8.659427e-02	8.393170e-01	8.659427e-02	
169	8.450000e-01	8.659431e-02	8.443170e-01	8.659431e-02	
170	8.500000e-01	8.659435e-02	8.493170e-01	8.659435e-02	

Index   v-sweep         ib              net-_q1-pad1_   net-_q1-pad2_   
--------------------------------------------------------------------------------
171	8.550000e-01	8.659439e-02	8.543170e-01	8.659439e-02	
172	8.600000e-01	8.659443e-02	8.593170e-01	8.659443e-02	
173	8.650000e-01	8.659447e-02	8.643170e-01	8.659447e-02	
174	8.700000e-01	8.659450e-02	8.693170e-01	8.659450e-02	
175	8.750000e-01	8.659454e-02	8.743170e-01	8.659454e-02	
176	8.800000e-01	8.659458e-02	8.793170e-01	8.659458e-02	
177	8.850000e-01	8.659461e-02	8.843170e-01	8.659461e-02	
178	8.900000e-01	8.659465e-02	8.893170e-01	8.659465e-02	
179	8.950000e-01	8.659468e-02	8.943170e-01	8.659468e-02	
180	9.000000e-01	8.659472e-02	8.993170e-01	8.659472e-02	
181	9.050000e-01	8.659475e-02	9.043170e-01	8.659475e-02	
182	9.100000e-01	8.659478e-02	9.093170e-01	8.659478e-02	
183	9.150000e-01	8.659482e-02	9.143169e-01	8.659482e-02	
184	9.200000e-01	8.659485e-02	9.193169e-01	8.659485e-02	
185	9.250000e-01	8.659488e-02	9.243169e-01	8.659488e-02	
186	9.300000e-01	8.659491e-02	9.293169e-01	8.659491e-02	
187	9.350000e-01	8.659494e-02	9.343169e-01	8.659494e-02	
188	9.400000e-01	8.659497e-02	9.393169e-01	8.659497e-02	
189	9.450000e-01	8.659500e-02	9.443169e-01	8.659500e-02	
190	9.500000e-01	8.659503e-02	9.493169e-01	8.659503e-02	
191	9.550000e-01	8.659506e-02	9.543169e-01	8.659506e-02	
192	9.600000e-01	8.659509e-02	9.593169e-01	8.659509e-02	
193	9.650000e-01	8.659512e-02	9.643169e-01	8.659512e-02	
194	9.700000e-01	8.659515e-02	9.693169e-01	8.659515e-02	
195	9.750000e-01	8.659518e-02	9.743169e-01	8.659518e-02	
196	9.800000e-01	8.659521e-02	9.793169e-01	8.659521e-02	
197	9.850000e-01	8.659523e-02	9.843169e-01	8.659523e-02	
198	9.900000e-01	8.659526e-02	9.893169e-01	8.659526e-02	
199	9.950000e-01	8.659529e-02	9.943169e-01	8.659529e-02	
200	1.000000e+00	8.659531e-02	9.993169e-01	8.659531e-02	
201	1.005000e+00	8.659534e-02	1.004317e+00	8.659534e-02	
202	1.010000e+00	8.659537e-02	1.009317e+00	8.659537e-02	
203	1.015000e+00	8.659539e-02	1.014317e+00	8.659539e-02	
204	1.020000e+00	8.659542e-02	1.019317e+00	8.659542e-02	
205	1.025000e+00	8.659544e-02	1.024317e+00	8.659544e-02	
206	1.030000e+00	8.659547e-02	1.029317e+00	8.659547e-02	
207	1.035000e+00	8.659549e-02	1.034317e+00	8.659549e-02	
208	1.040000e+00	8.659552e-02	1.039317e+00	8.659552e-02	
209	1.045000e+00	8.659554e-02	1.044317e+00	8.659554e-02	
210	1.050000e+00	8.659557e-02	1.049317e+00	8.659557e-02	
211	1.055000e+00	8.659559e-02	1.054317e+00	8.659559e-02	
212	1.060000e+00	8.659562e-02	1.059317e+00	8.659562e-02	
213	1.065000e+00	8.659564e-02	1.064317e+00	8.659564e-02	
214	1.070000e+00	8.659566e-02	1.069317e+00	8.659566e-02	
215	1.075000e+00	8.659569e-02	1.074317e+00	8.659569e-02	
216	1.080000e+00	8.659571e-02	1.079317e+00	8.659571e-02	
217	1.085000e+00	8.659573e-02	1.084317e+00	8.659573e-02	
218	1.090000e+00	8.659575e-02	1.089317e+00	8.659575e-02	
219	1.095000e+00	8.659578e-02	1.094317e+00	8.659578e-02	
220	1.100000e+00	8.659580e-02	1.099317e+00	8.659580e-02	
221	1.105000e+00	8.659582e-02	1.104317e+00	8.659582e-02	
222	1.110000e+00	8.659584e-02	1.109317e+00	8.659584e-02	
223	1.115000e+00	8.659587e-02	1.114317e+00	8.659587e-02	
224	1.120000e+00	8.659589e-02	1.119317e+00	8.659589e-02	
225	1.125000e+00	8.659591e-02	1.124317e+00	8.659591e-02	
226	1.130000e+00	8.659593e-02	1.129317e+00	8.659593e-02	
227	1.135000e+00	8.659595e-02	1.134317e+00	8.659595e-02	
228	1.140000e+00	8.659597e-02	1.139317e+00	8.659597e-02	

Index   v-sweep         ib              net-_q1-pad1_   net-_q1-pad2_   
--------------------------------------------------------------------------------
229	1.145000e+00	8.659599e-02	1.144317e+00	8.659599e-02	
230	1.150000e+00	8.659601e-02	1.149317e+00	8.659601e-02	
231	1.155000e+00	8.659604e-02	1.154317e+00	8.659604e-02	
232	1.160000e+00	8.659606e-02	1.159317e+00	8.659606e-02	
233	1.165000e+00	8.659608e-02	1.164317e+00	8.659608e-02	
234	1.170000e+00	8.659610e-02	1.169317e+00	8.659610e-02	
235	1.175000e+00	8.659612e-02	1.174317e+00	8.659612e-02	
236	1.180000e+00	8.659614e-02	1.179317e+00	8.659614e-02	
237	1.185000e+00	8.659616e-02	1.184317e+00	8.659616e-02	
238	1.190000e+00	8.659618e-02	1.189317e+00	8.659618e-02	
239	1.195000e+00	8.659620e-02	1.194317e+00	8.659620e-02	
240	1.200000e+00	8.659622e-02	1.199317e+00	8.659622e-02	
241	1.205000e+00	8.659624e-02	1.204317e+00	8.659624e-02	
242	1.210000e+00	8.659626e-02	1.209317e+00	8.659626e-02	
243	1.215000e+00	8.659628e-02	1.214317e+00	8.659628e-02	
244	1.220000e+00	8.659629e-02	1.219317e+00	8.659629e-02	
245	1.225000e+00	8.659631e-02	1.224317e+00	8.659631e-02	
246	1.230000e+00	8.659633e-02	1.229317e+00	8.659633e-02	
247	1.235000e+00	8.659635e-02	1.234317e+00	8.659635e-02	
248	1.240000e+00	8.659637e-02	1.239317e+00	8.659637e-02	
249	1.245000e+00	8.659639e-02	1.244317e+00	8.659639e-02	
250	1.250000e+00	8.659641e-02	1.249317e+00	8.659641e-02	
251	1.255000e+00	8.659643e-02	1.254317e+00	8.659643e-02	
252	1.260000e+00	8.659645e-02	1.259317e+00	8.659645e-02	
253	1.265000e+00	8.659646e-02	1.264317e+00	8.659646e-02	
254	1.270000e+00	8.659648e-02	1.269317e+00	8.659648e-02	
255	1.275000e+00	8.659650e-02	1.274317e+00	8.659650e-02	
256	1.280000e+00	8.659652e-02	1.279317e+00	8.659652e-02	
257	1.285000e+00	8.659654e-02	1.284317e+00	8.659654e-02	
258	1.290000e+00	8.659656e-02	1.289317e+00	8.659656e-02	
259	1.295000e+00	8.659657e-02	1.294317e+00	8.659657e-02	
260	1.300000e+00	8.659659e-02	1.299317e+00	8.659659e-02	
261	1.305000e+00	8.659661e-02	1.304317e+00	8.659661e-02	
262	1.310000e+00	8.659663e-02	1.309317e+00	8.659663e-02	
263	1.315000e+00	8.659665e-02	1.314317e+00	8.659665e-02	
264	1.320000e+00	8.659666e-02	1.319317e+00	8.659666e-02	
265	1.325000e+00	8.659668e-02	1.324317e+00	8.659668e-02	
266	1.330000e+00	8.659670e-02	1.329317e+00	8.659670e-02	
267	1.335000e+00	8.659672e-02	1.334317e+00	8.659672e-02	
268	1.340000e+00	8.659673e-02	1.339317e+00	8.659673e-02	
269	1.345000e+00	8.659675e-02	1.344317e+00	8.659675e-02	
270	1.350000e+00	8.659677e-02	1.349317e+00	8.659677e-02	
271	1.355000e+00	8.659679e-02	1.354317e+00	8.659679e-02	
272	1.360000e+00	8.659680e-02	1.359317e+00	8.659680e-02	
273	1.365000e+00	8.659682e-02	1.364317e+00	8.659682e-02	
274	1.370000e+00	8.659684e-02	1.369317e+00	8.659684e-02	
275	1.375000e+00	8.659686e-02	1.374317e+00	8.659686e-02	
276	1.380000e+00	8.659687e-02	1.379317e+00	8.659687e-02	
277	1.385000e+00	8.659689e-02	1.384317e+00	8.659689e-02	
278	1.390000e+00	8.659691e-02	1.389317e+00	8.659691e-02	
279	1.395000e+00	8.659692e-02	1.394317e+00	8.659692e-02	
280	1.400000e+00	8.659694e-02	1.399317e+00	8.659694e-02	
281	1.405000e+00	8.659696e-02	1.404317e+00	8.659696e-02	
282	1.410000e+00	8.659698e-02	1.409317e+00	8.659698e-02	
283	1.415000e+00	8.659699e-02	1.414317e+00	8.659699e-02	
284	1.420000e+00	8.659701e-02	1.419317e+00	8.659701e-02	
285	1.425000e+00	8.659703e-02	1.424317e+00	8.659703e-02	
286	1.430000e+00	8.659704e-02	1.429317e+00	8.659704e-02	

Index   v-sweep         ib              net-_q1-pad1_   net-_q1-pad2_   
--------------------------------------------------------------------------------
287	1.435000e+00	8.659706e-02	1.434317e+00	8.659706e-02	
288	1.440000e+00	8.659708e-02	1.439317e+00	8.659708e-02	
289	1.445000e+00	8.659709e-02	1.444317e+00	8.659709e-02	
290	1.450000e+00	8.659711e-02	1.449317e+00	8.659711e-02	
291	1.455000e+00	8.659713e-02	1.454317e+00	8.659713e-02	
292	1.460000e+00	8.659714e-02	1.459317e+00	8.659714e-02	
293	1.465000e+00	8.659716e-02	1.464317e+00	8.659716e-02	
294	1.470000e+00	8.659717e-02	1.469317e+00	8.659717e-02	
295	1.475000e+00	8.659719e-02	1.474317e+00	8.659719e-02	
296	1.480000e+00	8.659721e-02	1.479317e+00	8.659721e-02	
297	1.485000e+00	8.659722e-02	1.484317e+00	8.659722e-02	
298	1.490000e+00	8.659724e-02	1.489317e+00	8.659724e-02	
299	1.495000e+00	8.659726e-02	1.494317e+00	8.659726e-02	
300	1.500000e+00	8.659727e-02	1.499317e+00	8.659727e-02	
301	1.505000e+00	8.659729e-02	1.504317e+00	8.659729e-02	
302	1.510000e+00	8.659730e-02	1.509317e+00	8.659730e-02	
303	1.515000e+00	8.659732e-02	1.514317e+00	8.659732e-02	
304	1.520000e+00	8.659734e-02	1.519317e+00	8.659734e-02	
305	1.525000e+00	8.659735e-02	1.524317e+00	8.659735e-02	
306	1.530000e+00	8.659737e-02	1.529317e+00	8.659737e-02	
307	1.535000e+00	8.659738e-02	1.534317e+00	8.659738e-02	
308	1.540000e+00	8.659740e-02	1.539317e+00	8.659740e-02	
309	1.545000e+00	8.659742e-02	1.544317e+00	8.659742e-02	
310	1.550000e+00	8.659743e-02	1.549317e+00	8.659743e-02	
311	1.555000e+00	8.659745e-02	1.554317e+00	8.659745e-02	
312	1.560000e+00	8.659746e-02	1.559317e+00	8.659746e-02	
313	1.565000e+00	8.659748e-02	1.564317e+00	8.659748e-02	
314	1.570000e+00	8.659750e-02	1.569317e+00	8.659750e-02	
315	1.575000e+00	8.659751e-02	1.574317e+00	8.659751e-02	
316	1.580000e+00	8.659753e-02	1.579317e+00	8.659753e-02	
317	1.585000e+00	8.659754e-02	1.584317e+00	8.659754e-02	
318	1.590000e+00	8.659756e-02	1.589317e+00	8.659756e-02	
319	1.595000e+00	8.659757e-02	1.594317e+00	8.659757e-02	
320	1.600000e+00	8.659759e-02	1.599317e+00	8.659759e-02	
321	1.605000e+00	8.659761e-02	1.604317e+00	8.659761e-02	
322	1.610000e+00	8.659762e-02	1.609317e+00	8.659762e-02	
323	1.615000e+00	8.659764e-02	1.614317e+00	8.659764e-02	
324	1.620000e+00	8.659765e-02	1.619317e+00	8.659765e-02	
325	1.625000e+00	8.659767e-02	1.624317e+00	8.659767e-02	
326	1.630000e+00	8.659768e-02	1.629317e+00	8.659768e-02	
327	1.635000e+00	8.659770e-02	1.634317e+00	8.659770e-02	
328	1.640000e+00	8.659772e-02	1.639317e+00	8.659772e-02	
329	1.645000e+00	8.659773e-02	1.644317e+00	8.659773e-02	
330	1.650000e+00	8.659775e-02	1.649317e+00	8.659775e-02	
331	1.655000e+00	8.659776e-02	1.654317e+00	8.659776e-02	
