* c:\users\mamat\esim-workspace\deserializer_ds90cr286\deserializer_ds90cr286.cir
Transient Analysis  Fri Jun 27 15:46:03  2025
--------------------------------------------------------------------------------
Index   time            clk_in          clk_lvds_p      clk_out         
--------------------------------------------------------------------------------
0	0.000000e+00	5.000000e+00	0.000000e+00	5.000000e+00	
1	1.000000e-13	5.000000e+00	0.000000e+00	5.000000e+00	
2	2.000000e-13	5.000000e+00	0.000000e+00	5.000000e+00	
3	4.000000e-13	5.000000e+00	0.000000e+00	5.000000e+00	
4	8.000000e-13	5.000000e+00	0.000000e+00	5.000000e+00	
5	1.600000e-12	5.000000e+00	0.000000e+00	5.000000e+00	
6	3.200000e-12	5.000000e+00	0.000000e+00	5.000000e+00	
7	6.400000e-12	5.000000e+00	0.000000e+00	5.000000e+00	
8	1.000000e-11	5.000000e+00	0.000000e+00	5.000000e+00	
9	1.064000e-11	4.680000e+00	3.200000e-01	5.000000e+00	
10	1.192000e-11	4.040000e+00	9.600000e-01	5.000000e+00	
11	1.448000e-11	2.760000e+00	2.240000e+00	5.000000e+00	
12	1.960000e-11	2.000000e-01	4.800000e+00	5.000000e+00	
13	2.000000e-11	0.000000e+00	5.000000e+00	5.000000e+00	
14	2.080000e-11	0.000000e+00	5.000000e+00	5.000000e+00	
15	2.240000e-11	0.000000e+00	5.000000e+00	5.000000e+00	
16	2.560000e-11	0.000000e+00	5.000000e+00	5.000000e+00	
17	3.200000e-11	0.000000e+00	5.000000e+00	5.000000e+00	
18	4.480000e-11	0.000000e+00	5.000000e+00	5.000000e+00	
19	7.040000e-11	0.000000e+00	5.000000e+00	5.000000e+00	
20	1.216000e-10	0.000000e+00	5.000000e+00	5.000000e+00	
21	2.240000e-10	0.000000e+00	5.000000e+00	5.000000e+00	
22	4.288000e-10	0.000000e+00	5.000000e+00	5.000000e+00	
23	8.384000e-10	0.000000e+00	5.000000e+00	5.000000e+00	
24	1.657600e-09	0.000000e+00	5.000000e+00	5.000000e+00	
25	2.019600e-09	0.000000e+00	5.000000e+00	5.000000e+00	
26	2.119600e-09	0.000000e+00	5.000000e+00	4.500000e+00	
27	2.319600e-09	0.000000e+00	5.000000e+00	3.500000e+00	
28	2.719600e-09	0.000000e+00	5.000000e+00	1.500000e+00	
29	3.019600e-09	0.000000e+00	5.000000e+00	0.000000e+00	
30	3.099600e-09	0.000000e+00	5.000000e+00	0.000000e+00	
31	3.259600e-09	0.000000e+00	5.000000e+00	0.000000e+00	
32	3.579600e-09	0.000000e+00	5.000000e+00	0.000000e+00	
33	4.219600e-09	0.000000e+00	5.000000e+00	0.000000e+00	
34	5.499600e-09	0.000000e+00	5.000000e+00	0.000000e+00	
35	8.059600e-09	0.000000e+00	5.000000e+00	0.000000e+00	
36	1.317960e-08	0.000000e+00	5.000000e+00	0.000000e+00	
37	2.341960e-08	0.000000e+00	5.000000e+00	0.000000e+00	
38	4.389960e-08	0.000000e+00	5.000000e+00	0.000000e+00	
39	8.485960e-08	0.000000e+00	5.000000e+00	0.000000e+00	
40	1.667796e-07	0.000000e+00	5.000000e+00	0.000000e+00	
41	3.306196e-07	0.000000e+00	5.000000e+00	0.000000e+00	
42	6.582996e-07	0.000000e+00	5.000000e+00	0.000000e+00	
43	1.313660e-06	0.000000e+00	5.000000e+00	0.000000e+00	
44	2.624380e-06	0.000000e+00	5.000000e+00	0.000000e+00	
45	5.000020e-06	0.000000e+00	5.000000e+00	0.000000e+00	
46	5.000021e-06	0.000000e+00	5.000000e+00	0.000000e+00	
47	5.000023e-06	0.000000e+00	5.000000e+00	0.000000e+00	
48	5.000027e-06	0.000000e+00	5.000000e+00	0.000000e+00	
49	5.000030e-06	0.000000e+00	5.000000e+00	0.000000e+00	
50	5.000031e-06	0.000000e+00	5.000000e+00	0.000000e+00	
51	5.000032e-06	0.000000e+00	5.000000e+00	0.000000e+00	
52	5.000036e-06	0.000000e+00	5.000000e+00	0.000000e+00	
53	5.000042e-06	0.000000e+00	5.000000e+00	0.000000e+00	
54	5.000055e-06	0.000000e+00	5.000000e+00	0.000000e+00	

Index   time            clk_in          clk_lvds_p      clk_out         
--------------------------------------------------------------------------------
55	5.000080e-06	0.000000e+00	5.000000e+00	0.000000e+00	
56	5.000132e-06	0.000000e+00	5.000000e+00	0.000000e+00	
57	5.000234e-06	0.000000e+00	5.000000e+00	0.000000e+00	
58	5.000439e-06	0.000000e+00	5.000000e+00	0.000000e+00	
59	5.000848e-06	0.000000e+00	5.000000e+00	0.000000e+00	
60	5.001668e-06	0.000000e+00	5.000000e+00	0.000000e+00	
61	5.003306e-06	0.000000e+00	5.000000e+00	0.000000e+00	
62	5.006583e-06	0.000000e+00	5.000000e+00	0.000000e+00	
63	5.013136e-06	0.000000e+00	5.000000e+00	0.000000e+00	
64	5.026244e-06	0.000000e+00	5.000000e+00	0.000000e+00	
65	5.052458e-06	0.000000e+00	5.000000e+00	0.000000e+00	
66	5.104887e-06	0.000000e+00	5.000000e+00	0.000000e+00	
67	5.209744e-06	0.000000e+00	5.000000e+00	0.000000e+00	
68	5.419460e-06	0.000000e+00	5.000000e+00	0.000000e+00	
69	5.838890e-06	0.000000e+00	5.000000e+00	0.000000e+00	
70	6.677751e-06	0.000000e+00	5.000000e+00	0.000000e+00	
71	8.355472e-06	0.000000e+00	5.000000e+00	0.000000e+00	
72	1.000002e-05	0.000000e+00	5.000000e+00	0.000000e+00	
73	1.000002e-05	0.000000e+00	4.500000e+00	0.000000e+00	
74	1.000002e-05	0.000000e+00	3.500000e+00	0.000000e+00	
75	1.000003e-05	0.000000e+00	1.500000e+00	0.000000e+00	
76	1.000003e-05	0.000000e+00	4.972618e-10	0.000000e+00	
77	1.000003e-05	0.000000e+00	0.000000e+00	0.000000e+00	
78	1.000003e-05	0.000000e+00	0.000000e+00	0.000000e+00	
79	1.000004e-05	0.000000e+00	0.000000e+00	0.000000e+00	
80	1.000004e-05	0.000000e+00	0.000000e+00	0.000000e+00	
81	1.000005e-05	0.000000e+00	0.000000e+00	0.000000e+00	
82	1.000008e-05	0.000000e+00	0.000000e+00	0.000000e+00	
83	1.000013e-05	0.000000e+00	0.000000e+00	0.000000e+00	
84	1.000023e-05	0.000000e+00	0.000000e+00	0.000000e+00	
85	1.000044e-05	0.000000e+00	0.000000e+00	0.000000e+00	
86	1.000085e-05	0.000000e+00	0.000000e+00	0.000000e+00	
87	1.000167e-05	0.000000e+00	0.000000e+00	0.000000e+00	
88	1.000331e-05	0.000000e+00	0.000000e+00	0.000000e+00	
89	1.000658e-05	0.000000e+00	0.000000e+00	0.000000e+00	
90	1.001314e-05	0.000000e+00	0.000000e+00	0.000000e+00	
91	1.002624e-05	0.000000e+00	0.000000e+00	0.000000e+00	
92	1.005246e-05	0.000000e+00	0.000000e+00	0.000000e+00	
93	1.010489e-05	0.000000e+00	0.000000e+00	0.000000e+00	
94	1.020974e-05	0.000000e+00	0.000000e+00	0.000000e+00	
95	1.041946e-05	0.000000e+00	0.000000e+00	0.000000e+00	
96	1.083889e-05	0.000000e+00	0.000000e+00	0.000000e+00	
97	1.167775e-05	0.000000e+00	0.000000e+00	0.000000e+00	
98	1.335547e-05	0.000000e+00	0.000000e+00	0.000000e+00	
99	1.500002e-05	0.000000e+00	0.000000e+00	0.000000e+00	
100	1.500002e-05	0.000000e+00	0.000000e+00	0.000000e+00	
101	1.500002e-05	0.000000e+00	0.000000e+00	0.000000e+00	
102	1.500003e-05	0.000000e+00	0.000000e+00	0.000000e+00	
103	1.500003e-05	0.000000e+00	0.000000e+00	0.000000e+00	
104	1.500003e-05	0.000000e+00	0.000000e+00	0.000000e+00	
105	1.500003e-05	0.000000e+00	0.000000e+00	0.000000e+00	
106	1.500004e-05	0.000000e+00	0.000000e+00	0.000000e+00	
107	1.500004e-05	0.000000e+00	0.000000e+00	0.000000e+00	
108	1.500005e-05	0.000000e+00	0.000000e+00	0.000000e+00	
109	1.500008e-05	0.000000e+00	0.000000e+00	0.000000e+00	
110	1.500013e-05	0.000000e+00	0.000000e+00	0.000000e+00	
111	1.500023e-05	0.000000e+00	0.000000e+00	0.000000e+00	
112	1.500044e-05	0.000000e+00	0.000000e+00	0.000000e+00	

Index   time            clk_in          clk_lvds_p      clk_out         
--------------------------------------------------------------------------------
113	1.500085e-05	0.000000e+00	0.000000e+00	0.000000e+00	
114	1.500167e-05	0.000000e+00	0.000000e+00	0.000000e+00	
115	1.500331e-05	0.000000e+00	0.000000e+00	0.000000e+00	
116	1.500658e-05	0.000000e+00	0.000000e+00	0.000000e+00	
117	1.501314e-05	0.000000e+00	0.000000e+00	0.000000e+00	
118	1.502624e-05	0.000000e+00	0.000000e+00	0.000000e+00	
119	1.505246e-05	0.000000e+00	0.000000e+00	0.000000e+00	
120	1.510489e-05	0.000000e+00	0.000000e+00	0.000000e+00	
121	1.520974e-05	0.000000e+00	0.000000e+00	0.000000e+00	
122	1.541946e-05	0.000000e+00	0.000000e+00	0.000000e+00	
123	1.583889e-05	0.000000e+00	0.000000e+00	0.000000e+00	
124	1.667775e-05	0.000000e+00	0.000000e+00	0.000000e+00	
125	1.835547e-05	0.000000e+00	0.000000e+00	0.000000e+00	
126	2.000001e-05	0.000000e+00	0.000000e+00	0.000000e+00	
127	2.000001e-05	0.000000e+00	5.000000e-01	0.000000e+00	
128	2.000001e-05	0.000000e+00	1.500000e+00	0.000000e+00	
129	2.000002e-05	0.000000e+00	3.500000e+00	0.000000e+00	
130	2.000002e-05	0.000000e+00	5.000000e+00	0.000000e+00	
131	2.000002e-05	0.000000e+00	5.000000e+00	0.000000e+00	
132	2.000002e-05	0.000000e+00	5.000000e+00	0.000000e+00	
133	2.000003e-05	0.000000e+00	5.000000e+00	0.000000e+00	
134	2.000003e-05	0.000000e+00	5.000000e+00	0.000000e+00	
135	2.000004e-05	0.000000e+00	5.000000e+00	0.000000e+00	
136	2.000007e-05	0.000000e+00	5.000000e+00	0.000000e+00	
137	2.000012e-05	0.000000e+00	5.000000e+00	0.000000e+00	
138	2.000022e-05	0.000000e+00	5.000000e+00	0.000000e+00	
139	2.000043e-05	0.000000e+00	5.000000e+00	0.000000e+00	
140	2.000084e-05	0.000000e+00	5.000000e+00	0.000000e+00	
141	2.000166e-05	0.000000e+00	5.000000e+00	0.000000e+00	
142	2.000330e-05	0.000000e+00	5.000000e+00	0.000000e+00	
143	2.000657e-05	0.000000e+00	5.000000e+00	0.000000e+00	
144	2.001313e-05	0.000000e+00	5.000000e+00	0.000000e+00	
145	2.002623e-05	0.000000e+00	5.000000e+00	0.000000e+00	
146	2.005245e-05	0.000000e+00	5.000000e+00	0.000000e+00	
147	2.010488e-05	0.000000e+00	5.000000e+00	0.000000e+00	
148	2.020973e-05	0.000000e+00	5.000000e+00	0.000000e+00	
149	2.041945e-05	0.000000e+00	5.000000e+00	0.000000e+00	
150	2.083888e-05	0.000000e+00	5.000000e+00	0.000000e+00	
151	2.167774e-05	0.000000e+00	5.000000e+00	0.000000e+00	
152	2.335546e-05	0.000000e+00	5.000000e+00	0.000000e+00	
153	2.500001e-05	0.000000e+00	5.000000e+00	0.000000e+00	
154	2.500001e-05	0.000000e+00	5.000000e+00	0.000000e+00	
155	2.500001e-05	0.000000e+00	5.000000e+00	0.000000e+00	
156	2.500002e-05	0.000000e+00	5.000000e+00	0.000000e+00	
157	2.500002e-05	0.000000e+00	5.000000e+00	0.000000e+00	
158	2.500002e-05	0.000000e+00	5.000000e+00	0.000000e+00	
159	2.500002e-05	0.000000e+00	5.000000e+00	0.000000e+00	
160	2.500003e-05	0.000000e+00	5.000000e+00	0.000000e+00	
161	2.500003e-05	0.000000e+00	5.000000e+00	0.000000e+00	
162	2.500003e-05	0.000000e+00	5.000000e+00	0.000000e+00	
163	2.500003e-05	0.000000e+00	5.000000e+00	0.000000e+00	
164	2.500003e-05	0.000000e+00	5.000000e+00	0.000000e+00	
165	2.500004e-05	0.000000e+00	5.000000e+00	0.000000e+00	
166	2.500005e-05	0.000000e+00	5.000000e+00	0.000000e+00	
167	2.500007e-05	0.000000e+00	5.000000e+00	0.000000e+00	
168	2.500011e-05	0.000000e+00	5.000000e+00	0.000000e+00	
169	2.500019e-05	0.000000e+00	5.000000e+00	0.000000e+00	
170	2.500036e-05	0.000000e+00	5.000000e+00	0.000000e+00	

Index   time            clk_in          clk_lvds_p      clk_out         
--------------------------------------------------------------------------------
171	2.500068e-05	0.000000e+00	5.000000e+00	0.000000e+00	
172	2.500134e-05	0.000000e+00	5.000000e+00	0.000000e+00	
173	2.500265e-05	0.000000e+00	5.000000e+00	0.000000e+00	
174	2.500527e-05	0.000000e+00	5.000000e+00	0.000000e+00	
175	2.501052e-05	0.000000e+00	5.000000e+00	0.000000e+00	
176	2.502100e-05	0.000000e+00	5.000000e+00	0.000000e+00	
177	2.504197e-05	0.000000e+00	5.000000e+00	0.000000e+00	
178	2.508392e-05	0.000000e+00	5.000000e+00	0.000000e+00	
179	2.516780e-05	0.000000e+00	5.000000e+00	0.000000e+00	
180	2.533557e-05	0.000000e+00	5.000000e+00	0.000000e+00	
181	2.567112e-05	0.000000e+00	5.000000e+00	0.000000e+00	
182	2.634221e-05	0.000000e+00	5.000000e+00	0.000000e+00	
183	2.768438e-05	0.000000e+00	5.000000e+00	0.000000e+00	
184	3.000002e-05	0.000000e+00	5.000000e+00	0.000000e+00	
185	3.000002e-05	0.000000e+00	4.500000e+00	0.000000e+00	
186	3.000002e-05	0.000000e+00	3.500000e+00	0.000000e+00	
187	3.000003e-05	0.000000e+00	1.500000e+00	0.000000e+00	
188	3.000003e-05	0.000000e+00	0.000000e+00	0.000000e+00	
189	3.000003e-05	0.000000e+00	0.000000e+00	0.000000e+00	
190	3.000003e-05	0.000000e+00	0.000000e+00	0.000000e+00	
191	3.000004e-05	0.000000e+00	0.000000e+00	0.000000e+00	
192	3.000004e-05	0.000000e+00	0.000000e+00	0.000000e+00	
193	3.000005e-05	0.000000e+00	0.000000e+00	0.000000e+00	
194	3.000008e-05	0.000000e+00	0.000000e+00	0.000000e+00	
195	3.000013e-05	0.000000e+00	0.000000e+00	0.000000e+00	
196	3.000023e-05	0.000000e+00	0.000000e+00	0.000000e+00	
197	3.000044e-05	0.000000e+00	0.000000e+00	0.000000e+00	
198	3.000085e-05	0.000000e+00	0.000000e+00	0.000000e+00	
199	3.000167e-05	0.000000e+00	0.000000e+00	0.000000e+00	
200	3.000331e-05	0.000000e+00	0.000000e+00	0.000000e+00	
201	3.000658e-05	0.000000e+00	0.000000e+00	0.000000e+00	
202	3.001314e-05	0.000000e+00	0.000000e+00	0.000000e+00	
203	3.002624e-05	0.000000e+00	0.000000e+00	0.000000e+00	
204	3.005246e-05	0.000000e+00	0.000000e+00	0.000000e+00	
205	3.010489e-05	0.000000e+00	0.000000e+00	0.000000e+00	
206	3.020974e-05	0.000000e+00	0.000000e+00	0.000000e+00	
207	3.041946e-05	0.000000e+00	0.000000e+00	0.000000e+00	
208	3.083889e-05	0.000000e+00	0.000000e+00	0.000000e+00	
209	3.167775e-05	0.000000e+00	0.000000e+00	0.000000e+00	
210	3.335547e-05	0.000000e+00	0.000000e+00	0.000000e+00	
211	3.500001e-05	0.000000e+00	0.000000e+00	0.000000e+00	
212	3.500001e-05	0.000000e+00	0.000000e+00	0.000000e+00	
213	3.500001e-05	0.000000e+00	0.000000e+00	0.000000e+00	
214	3.500002e-05	0.000000e+00	0.000000e+00	0.000000e+00	
215	3.500002e-05	0.000000e+00	0.000000e+00	0.000000e+00	
216	3.500002e-05	0.000000e+00	0.000000e+00	0.000000e+00	
217	3.500002e-05	0.000000e+00	0.000000e+00	0.000000e+00	
218	3.500003e-05	0.000000e+00	0.000000e+00	0.000000e+00	
219	3.500003e-05	0.000000e+00	0.000000e+00	0.000000e+00	
220	3.500004e-05	0.000000e+00	0.000000e+00	0.000000e+00	
221	3.500007e-05	0.000000e+00	0.000000e+00	0.000000e+00	
222	3.500012e-05	0.000000e+00	0.000000e+00	0.000000e+00	
223	3.500022e-05	0.000000e+00	0.000000e+00	0.000000e+00	
224	3.500043e-05	0.000000e+00	0.000000e+00	0.000000e+00	
225	3.500084e-05	0.000000e+00	0.000000e+00	0.000000e+00	
226	3.500166e-05	0.000000e+00	0.000000e+00	0.000000e+00	
227	3.500330e-05	0.000000e+00	0.000000e+00	0.000000e+00	
228	3.500657e-05	0.000000e+00	0.000000e+00	0.000000e+00	

Index   time            clk_in          clk_lvds_p      clk_out         
--------------------------------------------------------------------------------
229	3.501313e-05	0.000000e+00	0.000000e+00	0.000000e+00	
230	3.502623e-05	0.000000e+00	0.000000e+00	0.000000e+00	
231	3.505245e-05	0.000000e+00	0.000000e+00	0.000000e+00	
232	3.510488e-05	0.000000e+00	0.000000e+00	0.000000e+00	
233	3.520973e-05	0.000000e+00	0.000000e+00	0.000000e+00	
234	3.541945e-05	0.000000e+00	0.000000e+00	0.000000e+00	
235	3.583888e-05	0.000000e+00	0.000000e+00	0.000000e+00	
236	3.667774e-05	0.000000e+00	0.000000e+00	0.000000e+00	
237	3.835546e-05	0.000000e+00	0.000000e+00	0.000000e+00	
238	4.000001e-05	0.000000e+00	0.000000e+00	0.000000e+00	
239	4.000001e-05	0.000000e+00	5.000000e-01	0.000000e+00	
240	4.000001e-05	0.000000e+00	1.500000e+00	0.000000e+00	
241	4.000002e-05	0.000000e+00	3.500000e+00	0.000000e+00	
242	4.000002e-05	0.000000e+00	5.000000e+00	0.000000e+00	
243	4.000002e-05	0.000000e+00	5.000000e+00	0.000000e+00	
244	4.000002e-05	0.000000e+00	5.000000e+00	0.000000e+00	
245	4.000003e-05	0.000000e+00	5.000000e+00	0.000000e+00	
246	4.000003e-05	0.000000e+00	5.000000e+00	0.000000e+00	
247	4.000003e-05	0.000000e+00	5.000000e+00	0.000000e+00	
248	4.000003e-05	0.000000e+00	5.000000e+00	0.000000e+00	
249	4.000003e-05	0.000000e+00	5.000000e+00	0.000000e+00	
250	4.000004e-05	0.000000e+00	5.000000e+00	0.000000e+00	
251	4.000005e-05	0.000000e+00	5.000000e+00	0.000000e+00	
252	4.000007e-05	0.000000e+00	5.000000e+00	0.000000e+00	
253	4.000011e-05	0.000000e+00	5.000000e+00	0.000000e+00	
254	4.000019e-05	0.000000e+00	5.000000e+00	0.000000e+00	
255	4.000036e-05	0.000000e+00	5.000000e+00	0.000000e+00	
256	4.000068e-05	0.000000e+00	5.000000e+00	0.000000e+00	
257	4.000134e-05	0.000000e+00	5.000000e+00	0.000000e+00	
258	4.000265e-05	0.000000e+00	5.000000e+00	0.000000e+00	
259	4.000527e-05	0.000000e+00	5.000000e+00	0.000000e+00	
260	4.001052e-05	0.000000e+00	5.000000e+00	0.000000e+00	
261	4.002100e-05	0.000000e+00	5.000000e+00	0.000000e+00	
262	4.004197e-05	0.000000e+00	5.000000e+00	0.000000e+00	
263	4.008392e-05	0.000000e+00	5.000000e+00	0.000000e+00	
264	4.016780e-05	0.000000e+00	5.000000e+00	0.000000e+00	
265	4.033557e-05	0.000000e+00	5.000000e+00	0.000000e+00	
266	4.067112e-05	0.000000e+00	5.000000e+00	0.000000e+00	
267	4.134221e-05	0.000000e+00	5.000000e+00	0.000000e+00	
268	4.268438e-05	0.000000e+00	5.000000e+00	0.000000e+00	
269	4.500002e-05	0.000000e+00	5.000000e+00	0.000000e+00	
270	4.500002e-05	0.000000e+00	5.000000e+00	0.000000e+00	
271	4.500002e-05	0.000000e+00	5.000000e+00	0.000000e+00	
272	4.500003e-05	0.000000e+00	5.000000e+00	0.000000e+00	
273	4.500003e-05	0.000000e+00	5.000000e+00	0.000000e+00	
274	4.500003e-05	0.000000e+00	5.000000e+00	0.000000e+00	
275	4.500003e-05	0.000000e+00	5.000000e+00	0.000000e+00	
276	4.500004e-05	0.000000e+00	5.000000e+00	0.000000e+00	
277	4.500004e-05	0.000000e+00	5.000000e+00	0.000000e+00	
278	4.500005e-05	0.000000e+00	5.000000e+00	0.000000e+00	
279	4.500008e-05	0.000000e+00	5.000000e+00	0.000000e+00	
280	4.500013e-05	0.000000e+00	5.000000e+00	0.000000e+00	
281	4.500023e-05	0.000000e+00	5.000000e+00	0.000000e+00	
282	4.500044e-05	0.000000e+00	5.000000e+00	0.000000e+00	
283	4.500085e-05	0.000000e+00	5.000000e+00	0.000000e+00	
284	4.500167e-05	0.000000e+00	5.000000e+00	0.000000e+00	
285	4.500331e-05	0.000000e+00	5.000000e+00	0.000000e+00	
286	4.500658e-05	0.000000e+00	5.000000e+00	0.000000e+00	

Index   time            clk_in          clk_lvds_p      clk_out         
--------------------------------------------------------------------------------
287	4.501314e-05	0.000000e+00	5.000000e+00	0.000000e+00	
288	4.502624e-05	0.000000e+00	5.000000e+00	0.000000e+00	
289	4.505246e-05	0.000000e+00	5.000000e+00	0.000000e+00	
290	4.510489e-05	0.000000e+00	5.000000e+00	0.000000e+00	
291	4.520974e-05	0.000000e+00	5.000000e+00	0.000000e+00	
292	4.541946e-05	0.000000e+00	5.000000e+00	0.000000e+00	
293	4.583889e-05	0.000000e+00	5.000000e+00	0.000000e+00	
294	4.667775e-05	0.000000e+00	5.000000e+00	0.000000e+00	
295	4.835547e-05	0.000000e+00	5.000000e+00	0.000000e+00	
296	5.000001e-05	0.000000e+00	5.000000e+00	0.000000e+00	
297	5.000001e-05	0.000000e+00	5.000000e+00	0.000000e+00	
298	5.000001e-05	0.000000e+00	5.000000e+00	0.000000e+00	
299	5.000002e-05	0.000000e+00	5.000000e+00	0.000000e+00	
300	5.000002e-05	0.000000e+00	5.000000e+00	0.000000e+00	
301	5.000002e-05	0.000000e+00	4.600000e+00	0.000000e+00	
302	5.000002e-05	0.000000e+00	3.800000e+00	0.000000e+00	
303	5.000003e-05	0.000000e+00	2.200000e+00	0.000000e+00	
304	5.000003e-05	0.000000e+00	0.000000e+00	0.000000e+00	
305	5.000003e-05	0.000000e+00	0.000000e+00	0.000000e+00	
306	5.000003e-05	0.000000e+00	0.000000e+00	0.000000e+00	
307	5.000003e-05	0.000000e+00	0.000000e+00	0.000000e+00	
308	5.000004e-05	0.000000e+00	0.000000e+00	0.000000e+00	
309	5.000005e-05	0.000000e+00	0.000000e+00	0.000000e+00	
310	5.000007e-05	0.000000e+00	0.000000e+00	0.000000e+00	
311	5.000011e-05	0.000000e+00	0.000000e+00	0.000000e+00	
312	5.000019e-05	0.000000e+00	0.000000e+00	0.000000e+00	
313	5.000036e-05	0.000000e+00	0.000000e+00	0.000000e+00	
314	5.000068e-05	0.000000e+00	0.000000e+00	0.000000e+00	
315	5.000134e-05	0.000000e+00	0.000000e+00	0.000000e+00	
316	5.000265e-05	0.000000e+00	0.000000e+00	0.000000e+00	
317	5.000527e-05	0.000000e+00	0.000000e+00	0.000000e+00	
318	5.001052e-05	0.000000e+00	0.000000e+00	0.000000e+00	
319	5.002100e-05	0.000000e+00	0.000000e+00	0.000000e+00	
320	5.004197e-05	0.000000e+00	0.000000e+00	0.000000e+00	
321	5.008392e-05	0.000000e+00	0.000000e+00	0.000000e+00	
322	5.016780e-05	0.000000e+00	0.000000e+00	0.000000e+00	
323	5.033557e-05	0.000000e+00	0.000000e+00	0.000000e+00	
324	5.067112e-05	0.000000e+00	0.000000e+00	0.000000e+00	
325	5.134221e-05	0.000000e+00	0.000000e+00	0.000000e+00	
326	5.268438e-05	0.000000e+00	0.000000e+00	0.000000e+00	
327	5.500001e-05	0.000000e+00	0.000000e+00	0.000000e+00	
328	5.500001e-05	0.000000e+00	0.000000e+00	0.000000e+00	
329	5.500001e-05	0.000000e+00	0.000000e+00	0.000000e+00	
330	5.500002e-05	0.000000e+00	0.000000e+00	0.000000e+00	
331	5.500002e-05	0.000000e+00	0.000000e+00	0.000000e+00	
