* c:\users\mamat\onedrive\documents\final_project_files\device_modelling\ls5907\fet_amplifier\fet_amplifier.cir
Transient Analysis  Tue Jun 24 16:13:04  2025
--------------------------------------------------------------------------------
Index   time            in              net-_c1-pad1_   net-_c2-pad2_   
--------------------------------------------------------------------------------
0	0.000000e+00	0.000000e+00	1.975675e+00	7.575238e+00	
1	1.000000e-07	6.283185e-06	1.975681e+00	7.575226e+00	
2	2.000000e-07	1.256637e-05	1.975688e+00	7.575213e+00	
3	4.000000e-07	2.513271e-05	1.975700e+00	7.575187e+00	
4	8.000000e-07	5.026527e-05	1.975725e+00	7.575136e+00	
5	1.600000e-06	1.005293e-04	1.975776e+00	7.575033e+00	
6	3.200000e-06	2.010484e-04	1.975876e+00	7.574827e+00	
7	6.400000e-06	4.020155e-04	1.976077e+00	7.574416e+00	
8	1.280000e-05	8.033810e-04	1.976478e+00	7.573594e+00	
9	2.280000e-05	1.427671e-03	1.977102e+00	7.572315e+00	
10	3.280000e-05	2.046327e-03	1.977720e+00	7.571047e+00	
11	4.280000e-05	2.656907e-03	1.978330e+00	7.569794e+00	
12	5.280000e-05	3.257002e-03	1.978929e+00	7.568563e+00	
13	6.280000e-05	3.844242e-03	1.979515e+00	7.567357e+00	
14	7.280000e-05	4.416311e-03	1.980085e+00	7.566181e+00	
15	8.280000e-05	4.970951e-03	1.980638e+00	7.565041e+00	
16	9.280000e-05	5.505973e-03	1.981171e+00	7.563940e+00	
17	1.028000e-04	6.019265e-03	1.981683e+00	7.562883e+00	
18	1.128000e-04	6.508802e-03	1.982170e+00	7.561874e+00	
19	1.228000e-04	6.972652e-03	1.982631e+00	7.560918e+00	
20	1.328000e-04	7.408984e-03	1.983064e+00	7.560018e+00	
21	1.428000e-04	7.816076e-03	1.983469e+00	7.559177e+00	
22	1.528000e-04	8.192321e-03	1.983842e+00	7.558399e+00	
23	1.628000e-04	8.536235e-03	1.984182e+00	7.557688e+00	
24	1.728000e-04	8.846461e-03	1.984489e+00	7.557045e+00	
25	1.828000e-04	9.121773e-03	1.984761e+00	7.556474e+00	
26	1.928000e-04	9.361087e-03	1.984996e+00	7.555976e+00	
27	2.028000e-04	9.563456e-03	1.985195e+00	7.555555e+00	
28	2.128000e-04	9.728082e-03	1.985356e+00	7.555210e+00	
29	2.228000e-04	9.854317e-03	1.985478e+00	7.554944e+00	
30	2.328000e-04	9.941660e-03	1.985561e+00	7.554759e+00	
31	2.428000e-04	9.989769e-03	1.985605e+00	7.554653e+00	
32	2.528000e-04	9.998452e-03	1.985610e+00	7.554629e+00	
33	2.628000e-04	9.967677e-03	1.985575e+00	7.554686e+00	
34	2.728000e-04	9.897563e-03	1.985501e+00	7.554823e+00	
35	2.828000e-04	9.788388e-03	1.985388e+00	7.555041e+00	
36	2.928000e-04	9.640583e-03	1.985236e+00	7.555338e+00	
37	3.028000e-04	9.454731e-03	1.985046e+00	7.555714e+00	
38	3.128000e-04	9.231566e-03	1.984819e+00	7.556166e+00	
39	3.228000e-04	8.971967e-03	1.984556e+00	7.556693e+00	
40	3.328000e-04	8.676961e-03	1.984257e+00	7.557293e+00	
41	3.428000e-04	8.347710e-03	1.983925e+00	7.557963e+00	
42	3.528000e-04	7.985515e-03	1.983559e+00	7.558701e+00	
43	3.628000e-04	7.591804e-03	1.983163e+00	7.559504e+00	
44	3.728000e-04	7.168133e-03	1.982736e+00	7.560368e+00	
45	3.828000e-04	6.716171e-03	1.982282e+00	7.561291e+00	
46	3.928000e-04	6.237705e-03	1.981801e+00	7.562268e+00	
47	4.028000e-04	5.734621e-03	1.981295e+00	7.563295e+00	
48	4.128000e-04	5.208904e-03	1.980768e+00	7.564370e+00	
49	4.228000e-04	4.662631e-03	1.980220e+00	7.565486e+00	
50	4.328000e-04	4.097957e-03	1.979653e+00	7.566641e+00	
51	4.428000e-04	3.517109e-03	1.979071e+00	7.567829e+00	
52	4.528000e-04	2.922382e-03	1.978475e+00	7.569045e+00	
53	4.628000e-04	2.316121e-03	1.977868e+00	7.570286e+00	
54	4.728000e-04	1.700719e-03	1.977252e+00	7.571545e+00	

Index   time            in              net-_c1-pad1_   net-_c2-pad2_   
--------------------------------------------------------------------------------
55	4.828000e-04	1.078605e-03	1.976630e+00	7.572818e+00	
56	4.928000e-04	4.522351e-04	1.976003e+00	7.574101e+00	
57	5.028000e-04	-1.75920e-04	1.975375e+00	7.575387e+00	
58	5.128000e-04	-8.03381e-04	1.974748e+00	7.576672e+00	
59	5.228000e-04	-1.42767e-03	1.974124e+00	7.577950e+00	
60	5.328000e-04	-2.04633e-03	1.973506e+00	7.579218e+00	
61	5.428000e-04	-2.65691e-03	1.972896e+00	7.580469e+00	
62	5.528000e-04	-3.25700e-03	1.972297e+00	7.581699e+00	
63	5.628000e-04	-3.84424e-03	1.971711e+00	7.582903e+00	
64	5.728000e-04	-4.41631e-03	1.971140e+00	7.584076e+00	
65	5.828000e-04	-4.97095e-03	1.970587e+00	7.585214e+00	
66	5.928000e-04	-5.50597e-03	1.970053e+00	7.586313e+00	
67	6.028000e-04	-6.01927e-03	1.969542e+00	7.587367e+00	
68	6.128000e-04	-6.50880e-03	1.969054e+00	7.588373e+00	
69	6.228000e-04	-6.97265e-03	1.968593e+00	7.589327e+00	
70	6.328000e-04	-7.40898e-03	1.968158e+00	7.590224e+00	
71	6.428000e-04	-7.81608e-03	1.967754e+00	7.591063e+00	
72	6.528000e-04	-8.19232e-03	1.967380e+00	7.591839e+00	
73	6.628000e-04	-8.53624e-03	1.967038e+00	7.592549e+00	
74	6.728000e-04	-8.84646e-03	1.966731e+00	7.593191e+00	
75	6.828000e-04	-9.12177e-03	1.966458e+00	7.593761e+00	
76	6.928000e-04	-9.36109e-03	1.966221e+00	7.594259e+00	
77	7.028000e-04	-9.56346e-03	1.966022e+00	7.594681e+00	
78	7.128000e-04	-9.72808e-03	1.965860e+00	7.595026e+00	
79	7.228000e-04	-9.85432e-03	1.965736e+00	7.595293e+00	
80	7.328000e-04	-9.94166e-03	1.965652e+00	7.595481e+00	
81	7.428000e-04	-9.98977e-03	1.965607e+00	7.595589e+00	
82	7.528000e-04	-9.99845e-03	1.965601e+00	7.595617e+00	
83	7.628000e-04	-9.96768e-03	1.965634e+00	7.595564e+00	
84	7.728000e-04	-9.89756e-03	1.965707e+00	7.595431e+00	
85	7.828000e-04	-9.78839e-03	1.965819e+00	7.595218e+00	
86	7.928000e-04	-9.64058e-03	1.965970e+00	7.594926e+00	
87	8.028000e-04	-9.45473e-03	1.966158e+00	7.594556e+00	
88	8.128000e-04	-9.23157e-03	1.966384e+00	7.594110e+00	
89	8.228000e-04	-8.97197e-03	1.966647e+00	7.593589e+00	
90	8.328000e-04	-8.67696e-03	1.966944e+00	7.592996e+00	
91	8.428000e-04	-8.34771e-03	1.967276e+00	7.592332e+00	
92	8.528000e-04	-7.98551e-03	1.967640e+00	7.591601e+00	
93	8.628000e-04	-7.59180e-03	1.968036e+00	7.590805e+00	
94	8.728000e-04	-7.16813e-03	1.968462e+00	7.589947e+00	
95	8.828000e-04	-6.71617e-03	1.968916e+00	7.589031e+00	
96	8.928000e-04	-6.23770e-03	1.969397e+00	7.588060e+00	
97	9.028000e-04	-5.73462e-03	1.969902e+00	7.587038e+00	
98	9.128000e-04	-5.20890e-03	1.970429e+00	7.585969e+00	
99	9.228000e-04	-4.66263e-03	1.970977e+00	7.584857e+00	
100	9.328000e-04	-4.09796e-03	1.971543e+00	7.583707e+00	
101	9.428000e-04	-3.51711e-03	1.972125e+00	7.582524e+00	
102	9.528000e-04	-2.92238e-03	1.972721e+00	7.581311e+00	
103	9.628000e-04	-2.31612e-03	1.973328e+00	7.580074e+00	
104	9.728000e-04	-1.70072e-03	1.973944e+00	7.578817e+00	
105	9.828000e-04	-1.07861e-03	1.974567e+00	7.577545e+00	
106	9.928000e-04	-4.52235e-04	1.975193e+00	7.576265e+00	
107	1.002800e-03	1.759201e-04	1.975821e+00	7.574979e+00	
108	1.012800e-03	8.033810e-04	1.976449e+00	7.573694e+00	
109	1.022800e-03	1.427671e-03	1.977073e+00	7.572415e+00	
110	1.032800e-03	2.046327e-03	1.977691e+00	7.571147e+00	
111	1.042800e-03	2.656907e-03	1.978300e+00	7.569895e+00	
112	1.052800e-03	3.257002e-03	1.978899e+00	7.568663e+00	

Index   time            in              net-_c1-pad1_   net-_c2-pad2_   
--------------------------------------------------------------------------------
113	1.062800e-03	3.844242e-03	1.979485e+00	7.567457e+00	
114	1.072800e-03	4.416311e-03	1.980056e+00	7.566281e+00	
115	1.082800e-03	4.970951e-03	1.980609e+00	7.565141e+00	
116	1.092800e-03	5.505973e-03	1.981142e+00	7.564040e+00	
117	1.102800e-03	6.019265e-03	1.981653e+00	7.562983e+00	
118	1.112800e-03	6.508802e-03	1.982140e+00	7.561975e+00	
119	1.122800e-03	6.972652e-03	1.982601e+00	7.561018e+00	
120	1.132800e-03	7.408984e-03	1.983035e+00	7.560118e+00	
121	1.142800e-03	7.816076e-03	1.983439e+00	7.559277e+00	
122	1.152800e-03	8.192321e-03	1.983812e+00	7.558500e+00	
123	1.162800e-03	8.536235e-03	1.984153e+00	7.557788e+00	
124	1.172800e-03	8.846461e-03	1.984460e+00	7.557145e+00	
125	1.182800e-03	9.121773e-03	1.984731e+00	7.556574e+00	
126	1.192800e-03	9.361087e-03	1.984967e+00	7.556077e+00	
127	1.202800e-03	9.563456e-03	1.985165e+00	7.555655e+00	
128	1.212800e-03	9.728082e-03	1.985326e+00	7.555310e+00	
129	1.222800e-03	9.854317e-03	1.985448e+00	7.555045e+00	
130	1.232800e-03	9.941660e-03	1.985532e+00	7.554859e+00	
131	1.242800e-03	9.989769e-03	1.985576e+00	7.554753e+00	
132	1.252800e-03	9.998452e-03	1.985580e+00	7.554729e+00	
133	1.262800e-03	9.967677e-03	1.985546e+00	7.554786e+00	
134	1.272800e-03	9.897563e-03	1.985471e+00	7.554923e+00	
135	1.282800e-03	9.788388e-03	1.985358e+00	7.555141e+00	
136	1.292800e-03	9.640583e-03	1.985207e+00	7.555438e+00	
137	1.302800e-03	9.454731e-03	1.985017e+00	7.555814e+00	
138	1.312800e-03	9.231566e-03	1.984790e+00	7.556266e+00	
139	1.322800e-03	8.971967e-03	1.984527e+00	7.556793e+00	
140	1.332800e-03	8.676961e-03	1.984228e+00	7.557392e+00	
141	1.342800e-03	8.347710e-03	1.983896e+00	7.558063e+00	
142	1.352800e-03	7.985515e-03	1.983530e+00	7.558801e+00	
143	1.362800e-03	7.591804e-03	1.983134e+00	7.559603e+00	
144	1.372800e-03	7.168133e-03	1.982707e+00	7.560468e+00	
145	1.382800e-03	6.716171e-03	1.982252e+00	7.561390e+00	
146	1.392800e-03	6.237705e-03	1.981772e+00	7.562367e+00	
147	1.402800e-03	5.734621e-03	1.981266e+00	7.563395e+00	
148	1.412800e-03	5.208904e-03	1.980739e+00	7.564469e+00	
149	1.422800e-03	4.662631e-03	1.980191e+00	7.565586e+00	
150	1.432800e-03	4.097957e-03	1.979624e+00	7.566740e+00	
151	1.442800e-03	3.517109e-03	1.979042e+00	7.567928e+00	
152	1.452800e-03	2.922382e-03	1.978446e+00	7.569145e+00	
153	1.462800e-03	2.316121e-03	1.977839e+00	7.570385e+00	
154	1.472800e-03	1.700719e-03	1.977223e+00	7.571644e+00	
155	1.482800e-03	1.078605e-03	1.976601e+00	7.572918e+00	
156	1.492800e-03	4.522351e-04	1.975974e+00	7.574200e+00	
157	1.502800e-03	-1.75920e-04	1.975346e+00	7.575486e+00	
158	1.512800e-03	-8.03381e-04	1.974719e+00	7.576771e+00	
159	1.522800e-03	-1.42767e-03	1.974095e+00	7.578049e+00	
160	1.532800e-03	-2.04633e-03	1.973477e+00	7.579317e+00	
161	1.542800e-03	-2.65691e-03	1.972867e+00	7.580568e+00	
162	1.552800e-03	-3.25700e-03	1.972268e+00	7.581798e+00	
163	1.562800e-03	-3.84424e-03	1.971682e+00	7.583002e+00	
164	1.572800e-03	-4.41631e-03	1.971111e+00	7.584175e+00	
165	1.582800e-03	-4.97095e-03	1.970558e+00	7.585313e+00	
166	1.592800e-03	-5.50597e-03	1.970025e+00	7.586411e+00	
167	1.602800e-03	-6.01927e-03	1.969513e+00	7.587466e+00	
168	1.612800e-03	-6.50880e-03	1.969026e+00	7.588472e+00	
169	1.622800e-03	-6.97265e-03	1.968564e+00	7.589425e+00	
170	1.632800e-03	-7.40898e-03	1.968130e+00	7.590323e+00	

Index   time            in              net-_c1-pad1_   net-_c2-pad2_   
--------------------------------------------------------------------------------
171	1.642800e-03	-7.81608e-03	1.967725e+00	7.591162e+00	
172	1.652800e-03	-8.19232e-03	1.967351e+00	7.591937e+00	
173	1.662800e-03	-8.53624e-03	1.967009e+00	7.592648e+00	
174	1.672800e-03	-8.84646e-03	1.966702e+00	7.593289e+00	
175	1.682800e-03	-9.12177e-03	1.966429e+00	7.593860e+00	
176	1.692800e-03	-9.36109e-03	1.966192e+00	7.594357e+00	
177	1.702800e-03	-9.56346e-03	1.965993e+00	7.594779e+00	
178	1.712800e-03	-9.72808e-03	1.965831e+00	7.595125e+00	
179	1.722800e-03	-9.85432e-03	1.965708e+00	7.595392e+00	
180	1.732800e-03	-9.94166e-03	1.965623e+00	7.595580e+00	
181	1.742800e-03	-9.98977e-03	1.965578e+00	7.595688e+00	
182	1.752800e-03	-9.99845e-03	1.965572e+00	7.595715e+00	
183	1.762800e-03	-9.96768e-03	1.965606e+00	7.595662e+00	
184	1.772800e-03	-9.89756e-03	1.965679e+00	7.595529e+00	
185	1.782800e-03	-9.78839e-03	1.965791e+00	7.595316e+00	
186	1.792800e-03	-9.64058e-03	1.965941e+00	7.595024e+00	
187	1.802800e-03	-9.45473e-03	1.966130e+00	7.594654e+00	
188	1.812800e-03	-9.23157e-03	1.966356e+00	7.594208e+00	
189	1.822800e-03	-8.97197e-03	1.966618e+00	7.593687e+00	
190	1.832800e-03	-8.67696e-03	1.966915e+00	7.593094e+00	
191	1.842800e-03	-8.34771e-03	1.967247e+00	7.592430e+00	
192	1.852800e-03	-7.98551e-03	1.967612e+00	7.591699e+00	
193	1.862800e-03	-7.59180e-03	1.968008e+00	7.590903e+00	
194	1.872800e-03	-7.16813e-03	1.968434e+00	7.590045e+00	
195	1.882800e-03	-6.71617e-03	1.968888e+00	7.589129e+00	
196	1.892800e-03	-6.23770e-03	1.969368e+00	7.588158e+00	
197	1.902800e-03	-5.73462e-03	1.969873e+00	7.587136e+00	
198	1.912800e-03	-5.20890e-03	1.970400e+00	7.586067e+00	
199	1.922800e-03	-4.66263e-03	1.970948e+00	7.584956e+00	
200	1.932800e-03	-4.09796e-03	1.971514e+00	7.583806e+00	
201	1.942800e-03	-3.51711e-03	1.972096e+00	7.582622e+00	
202	1.952800e-03	-2.92238e-03	1.972692e+00	7.581409e+00	
203	1.962800e-03	-2.31612e-03	1.973299e+00	7.580172e+00	
204	1.972800e-03	-1.70072e-03	1.973915e+00	7.578915e+00	
205	1.982800e-03	-1.07861e-03	1.974538e+00	7.577644e+00	
206	1.992800e-03	-4.52235e-04	1.975165e+00	7.576363e+00	
207	2.002800e-03	1.759201e-04	1.975793e+00	7.575077e+00	
208	2.012800e-03	8.033810e-04	1.976420e+00	7.573793e+00	
209	2.022800e-03	1.427671e-03	1.977044e+00	7.572514e+00	
210	2.032800e-03	2.046327e-03	1.977662e+00	7.571245e+00	
211	2.042800e-03	2.656907e-03	1.978272e+00	7.569993e+00	
212	2.052800e-03	3.257002e-03	1.978871e+00	7.568761e+00	
213	2.062800e-03	3.844242e-03	1.979457e+00	7.567555e+00	
214	2.072800e-03	4.416311e-03	1.980027e+00	7.566380e+00	
215	2.082800e-03	4.970951e-03	1.980580e+00	7.565239e+00	
216	2.092800e-03	5.505973e-03	1.981113e+00	7.564138e+00	
217	2.102800e-03	6.019265e-03	1.981625e+00	7.563081e+00	
218	2.112800e-03	6.508802e-03	1.982112e+00	7.562073e+00	
219	2.122800e-03	6.972652e-03	1.982573e+00	7.561116e+00	
220	2.132800e-03	7.408984e-03	1.983007e+00	7.560216e+00	
221	2.142800e-03	7.816076e-03	1.983411e+00	7.559375e+00	
222	2.152800e-03	8.192321e-03	1.983784e+00	7.558598e+00	
223	2.162800e-03	8.536235e-03	1.984124e+00	7.557886e+00	
224	2.172800e-03	8.846461e-03	1.984431e+00	7.557243e+00	
225	2.182800e-03	9.121773e-03	1.984703e+00	7.556672e+00	
226	2.192800e-03	9.361087e-03	1.984939e+00	7.556174e+00	
227	2.202800e-03	9.563456e-03	1.985137e+00	7.555752e+00	
228	2.212800e-03	9.728082e-03	1.985298e+00	7.555408e+00	

Index   time            in              net-_c1-pad1_   net-_c2-pad2_   
--------------------------------------------------------------------------------
229	2.222800e-03	9.854317e-03	1.985420e+00	7.555142e+00	
230	2.232800e-03	9.941660e-03	1.985503e+00	7.554956e+00	
231	2.242800e-03	9.989769e-03	1.985548e+00	7.554851e+00	
232	2.252800e-03	9.998452e-03	1.985552e+00	7.554827e+00	
233	2.262800e-03	9.967677e-03	1.985517e+00	7.554883e+00	
234	2.272800e-03	9.897563e-03	1.985443e+00	7.555021e+00	
235	2.282800e-03	9.788388e-03	1.985330e+00	7.555239e+00	
236	2.292800e-03	9.640583e-03	1.985178e+00	7.555536e+00	
237	2.302800e-03	9.454731e-03	1.984989e+00	7.555911e+00	
238	2.312800e-03	9.231566e-03	1.984762e+00	7.556363e+00	
239	2.322800e-03	8.971967e-03	1.984499e+00	7.556890e+00	
240	2.332800e-03	8.676961e-03	1.984200e+00	7.557490e+00	
241	2.342800e-03	8.347710e-03	1.983867e+00	7.558160e+00	
242	2.352800e-03	7.985515e-03	1.983502e+00	7.558898e+00	
243	2.362800e-03	7.591804e-03	1.983105e+00	7.559700e+00	
244	2.372800e-03	7.168133e-03	1.982679e+00	7.560565e+00	
245	2.382800e-03	6.716171e-03	1.982224e+00	7.561487e+00	
246	2.392800e-03	6.237705e-03	1.981743e+00	7.562464e+00	
247	2.402800e-03	5.734621e-03	1.981238e+00	7.563492e+00	
248	2.412800e-03	5.208904e-03	1.980711e+00	7.564566e+00	
249	2.422800e-03	4.662631e-03	1.980162e+00	7.565683e+00	
250	2.432800e-03	4.097957e-03	1.979596e+00	7.566837e+00	
251	2.442800e-03	3.517109e-03	1.979014e+00	7.568025e+00	
252	2.452800e-03	2.922382e-03	1.978418e+00	7.569242e+00	
253	2.462800e-03	2.316121e-03	1.977811e+00	7.570482e+00	
254	2.472800e-03	1.700719e-03	1.977195e+00	7.571741e+00	
255	2.482800e-03	1.078605e-03	1.976573e+00	7.573014e+00	
256	2.492800e-03	4.522351e-04	1.975946e+00	7.574296e+00	
257	2.502800e-03	-1.75920e-04	1.975318e+00	7.575582e+00	
258	2.512800e-03	-8.03381e-04	1.974691e+00	7.576867e+00	
259	2.522800e-03	-1.42767e-03	1.974067e+00	7.578146e+00	
260	2.532800e-03	-2.04633e-03	1.973449e+00	7.579413e+00	
261	2.542800e-03	-2.65691e-03	1.972839e+00	7.580664e+00	
262	2.552800e-03	-3.25700e-03	1.972240e+00	7.581894e+00	
263	2.562800e-03	-3.84424e-03	1.971654e+00	7.583098e+00	
264	2.572800e-03	-4.41631e-03	1.971083e+00	7.584272e+00	
265	2.582800e-03	-4.97095e-03	1.970530e+00	7.585410e+00	
266	2.592800e-03	-5.50597e-03	1.969997e+00	7.586508e+00	
267	2.602800e-03	-6.01927e-03	1.969485e+00	7.587562e+00	
268	2.612800e-03	-6.50880e-03	1.968998e+00	7.588568e+00	
269	2.622800e-03	-6.97265e-03	1.968536e+00	7.589522e+00	
270	2.632800e-03	-7.40898e-03	1.968102e+00	7.590419e+00	
271	2.642800e-03	-7.81608e-03	1.967697e+00	7.591258e+00	
272	2.652800e-03	-8.19232e-03	1.967323e+00	7.592034e+00	
273	2.662800e-03	-8.53624e-03	1.966982e+00	7.592744e+00	
274	2.672800e-03	-8.84646e-03	1.966674e+00	7.593385e+00	
275	2.682800e-03	-9.12177e-03	1.966401e+00	7.593956e+00	
276	2.692800e-03	-9.36109e-03	1.966165e+00	7.594453e+00	
277	2.702800e-03	-9.56346e-03	1.965965e+00	7.594875e+00	
278	2.712800e-03	-9.72808e-03	1.965803e+00	7.595221e+00	
279	2.722800e-03	-9.85432e-03	1.965680e+00	7.595488e+00	
280	2.732800e-03	-9.94166e-03	1.965595e+00	7.595676e+00	
281	2.742800e-03	-9.98977e-03	1.965550e+00	7.595784e+00	
282	2.752800e-03	-9.99845e-03	1.965544e+00	7.595811e+00	
283	2.762800e-03	-9.96768e-03	1.965578e+00	7.595758e+00	
284	2.772800e-03	-9.89756e-03	1.965651e+00	7.595625e+00	
285	2.782800e-03	-9.78839e-03	1.965763e+00	7.595412e+00	
286	2.792800e-03	-9.64058e-03	1.965913e+00	7.595120e+00	

Index   time            in              net-_c1-pad1_   net-_c2-pad2_   
--------------------------------------------------------------------------------
287	2.802800e-03	-9.45473e-03	1.966102e+00	7.594750e+00	
288	2.812800e-03	-9.23157e-03	1.966328e+00	7.594304e+00	
289	2.822800e-03	-8.97197e-03	1.966590e+00	7.593783e+00	
290	2.832800e-03	-8.67696e-03	1.966888e+00	7.593190e+00	
291	2.842800e-03	-8.34771e-03	1.967219e+00	7.592526e+00	
292	2.852800e-03	-7.98551e-03	1.967584e+00	7.591795e+00	
293	2.862800e-03	-7.59180e-03	1.967980e+00	7.590999e+00	
294	2.872800e-03	-7.16813e-03	1.968406e+00	7.590141e+00	
295	2.882800e-03	-6.71617e-03	1.968860e+00	7.589224e+00	
296	2.892800e-03	-6.23770e-03	1.969340e+00	7.588254e+00	
297	2.902800e-03	-5.73462e-03	1.969845e+00	7.587232e+00	
298	2.912800e-03	-5.20890e-03	1.970373e+00	7.586163e+00	
299	2.922800e-03	-4.66263e-03	1.970921e+00	7.585051e+00	
300	2.932800e-03	-4.09796e-03	1.971487e+00	7.583901e+00	
301	2.942800e-03	-3.51711e-03	1.972069e+00	7.582718e+00	
302	2.952800e-03	-2.92238e-03	1.972664e+00	7.581505e+00	
303	2.962800e-03	-2.31612e-03	1.973272e+00	7.580267e+00	
304	2.972800e-03	-1.70072e-03	1.973888e+00	7.579011e+00	
305	2.982800e-03	-1.07861e-03	1.974510e+00	7.577739e+00	
306	2.992800e-03	-4.52235e-04	1.975137e+00	7.576458e+00	
307	3.002800e-03	1.759201e-04	1.975765e+00	7.575173e+00	
308	3.012800e-03	8.033810e-04	1.976392e+00	7.573888e+00	
309	3.022800e-03	1.427671e-03	1.977016e+00	7.572609e+00	
310	3.032800e-03	2.046327e-03	1.977635e+00	7.571341e+00	
311	3.042800e-03	2.656907e-03	1.978244e+00	7.570088e+00	
312	3.052800e-03	3.257002e-03	1.978843e+00	7.568857e+00	
313	3.062800e-03	3.844242e-03	1.979429e+00	7.567651e+00	
314	3.072800e-03	4.416311e-03	1.980000e+00	7.566475e+00	
315	3.082800e-03	4.970951e-03	1.980553e+00	7.565334e+00	
316	3.092800e-03	5.505973e-03	1.981086e+00	7.564234e+00	
317	3.102800e-03	6.019265e-03	1.981597e+00	7.563177e+00	
318	3.112800e-03	6.508802e-03	1.982084e+00	7.562168e+00	
319	3.122800e-03	6.972652e-03	1.982546e+00	7.561212e+00	
320	3.132800e-03	7.408984e-03	1.982979e+00	7.560311e+00	
321	3.142800e-03	7.816076e-03	1.983383e+00	7.559471e+00	
322	3.152800e-03	8.192321e-03	1.983756e+00	7.558693e+00	
323	3.162800e-03	8.536235e-03	1.984097e+00	7.557981e+00	
324	3.172800e-03	8.846461e-03	1.984404e+00	7.557338e+00	
325	3.182800e-03	9.121773e-03	1.984676e+00	7.556767e+00	
326	3.192800e-03	9.361087e-03	1.984911e+00	7.556270e+00	
327	3.202800e-03	9.563456e-03	1.985110e+00	7.555848e+00	
328	3.212800e-03	9.728082e-03	1.985270e+00	7.555503e+00	
329	3.222800e-03	9.854317e-03	1.985393e+00	7.555237e+00	
330	3.232800e-03	9.941660e-03	1.985476e+00	7.555051e+00	
331	3.242800e-03	9.989769e-03	1.985520e+00	7.554946e+00	
