* c:\users\mamat\onedrive\desktop\ajay_esim\final_project_files\device_modelling\2n5401\bjt_ce_config\bjt_ce_config.cir
DC transfer characteristic  Tue Jun 24 16:02:59  2025
--------------------------------------------------------------------------------
Index   v-sweep         v1#branch       v2#branch       v_u_ic1#branch  
--------------------------------------------------------------------------------
0	0.000000e+00	-8.00129e-31	1.086975e-30	-1.08697e-30	
1	5.000000e-02	6.134210e-14	-1.91856e-13	1.918556e-13	
2	1.000000e-01	3.743672e-13	-9.17920e-13	9.179196e-13	
3	1.500000e-01	2.080844e-12	-3.87090e-12	3.870905e-12	
4	2.000000e-01	1.357879e-11	-2.02757e-11	2.027573e-11	
5	2.500000e-01	9.274440e-11	-1.20049e-10	1.200491e-10	
6	3.000000e-01	6.394885e-10	-7.56808e-10	7.568076e-10	
7	3.500000e-01	4.414120e-09	-4.94363e-09	4.943631e-09	
8	4.000000e-01	3.032859e-08	-3.29504e-08	3.295044e-08	
9	4.500000e-01	2.016063e-07	-2.20050e-07	2.200495e-07	
10	5.000000e-01	1.111294e-06	-1.38789e-06	1.387886e-06	
11	5.500000e-01	3.342287e-06	-7.03231e-06	7.032307e-06	
12	6.000000e-01	5.017001e-06	-2.37058e-05	2.370582e-05	
13	6.500000e-01	5.641750e-06	-5.23160e-05	5.231602e-05	
14	7.000000e-01	5.892701e-06	-8.81765e-05	8.817647e-05	
15	7.500000e-01	6.013179e-06	-1.28011e-04	1.280107e-04	
16	8.000000e-01	6.088540e-06	-1.70061e-04	1.700610e-04	
17	8.500000e-01	6.134046e-06	-2.13710e-04	2.137102e-04	
18	9.000000e-01	6.167098e-06	-2.58350e-04	2.583496e-04	
19	9.500000e-01	6.193380e-06	-3.03692e-04	3.036921e-04	
20	1.000000e+00	6.214861e-06	-3.49573e-04	3.495726e-04	
21	1.050000e+00	6.233004e-06	-3.95873e-04	3.958730e-04	
22	1.100000e+00	6.248791e-06	-4.42509e-04	4.425085e-04	
23	1.150000e+00	6.262856e-06	-4.89417e-04	4.894173e-04	
24	1.200000e+00	6.275625e-06	-5.36553e-04	5.365530e-04	
25	1.250000e+00	6.287394e-06	-5.83880e-04	5.838798e-04	
26	1.300000e+00	6.298378e-06	-6.31370e-04	6.313696e-04	
27	1.350000e+00	6.308734e-06	-6.79000e-04	6.790002e-04	
28	1.400000e+00	6.318577e-06	-7.26753e-04	7.267534e-04	
29	1.450000e+00	6.327999e-06	-7.74614e-04	7.746143e-04	
30	1.500000e+00	6.337069e-06	-8.22571e-04	8.225707e-04	
31	1.550000e+00	6.345841e-06	-8.70612e-04	8.706122e-04	
32	1.600000e+00	6.354361e-06	-9.18730e-04	9.187299e-04	
33	1.650000e+00	6.362661e-06	-9.66917e-04	9.669165e-04	
34	1.700000e+00	6.370773e-06	-1.01517e-03	1.015165e-03	
35	1.750000e+00	6.378719e-06	-1.06347e-03	1.063471e-03	
36	1.800000e+00	6.386520e-06	-1.11183e-03	1.111829e-03	
37	1.850000e+00	6.394191e-06	-1.16023e-03	1.160234e-03	
38	1.900000e+00	6.401747e-06	-1.20868e-03	1.208683e-03	
39	1.950000e+00	6.409199e-06	-1.25717e-03	1.257173e-03	
40	2.000000e+00	6.416558e-06	-1.30570e-03	1.305700e-03	
41	2.050000e+00	6.423833e-06	-1.35426e-03	1.354262e-03	
42	2.100000e+00	6.431031e-06	-1.40286e-03	1.402856e-03	
43	2.150000e+00	6.438158e-06	-1.45148e-03	1.451481e-03	
44	2.200000e+00	6.445220e-06	-1.50013e-03	1.500134e-03	
45	2.250000e+00	6.452223e-06	-1.54881e-03	1.548814e-03	
46	2.300000e+00	6.459170e-06	-1.59752e-03	1.597519e-03	
47	2.350000e+00	6.466066e-06	-1.64625e-03	1.646247e-03	
48	2.400000e+00	6.472915e-06	-1.69500e-03	1.694997e-03	
49	2.450000e+00	6.479718e-06	-1.74377e-03	1.743769e-03	
50	2.500000e+00	6.486480e-06	-1.79256e-03	1.792560e-03	
51	2.550000e+00	6.493201e-06	-1.84137e-03	1.841370e-03	
52	2.600000e+00	6.499886e-06	-1.89020e-03	1.890197e-03	
53	2.650000e+00	6.506535e-06	-1.93904e-03	1.939042e-03	
54	2.700000e+00	6.513151e-06	-1.98790e-03	1.987903e-03	

Index   v-sweep         v1#branch       v2#branch       v_u_ic1#branch  
--------------------------------------------------------------------------------
55	2.750000e+00	6.519736e-06	-2.03678e-03	2.036779e-03	
56	2.800000e+00	6.526289e-06	-2.08567e-03	2.085670e-03	
57	2.850000e+00	6.532814e-06	-2.13457e-03	2.134574e-03	
58	2.900000e+00	6.539312e-06	-2.18349e-03	2.183492e-03	
59	2.950000e+00	6.545783e-06	-2.23242e-03	2.232423e-03	
60	3.000000e+00	6.552228e-06	-2.28137e-03	2.281366e-03	
61	3.050000e+00	6.558649e-06	-2.33032e-03	2.330321e-03	
62	3.100000e+00	6.565047e-06	-2.37929e-03	2.379287e-03	
63	3.150000e+00	6.571421e-06	-2.42826e-03	2.428263e-03	
64	3.200000e+00	6.577774e-06	-2.47725e-03	2.477250e-03	
65	3.250000e+00	6.584106e-06	-2.52625e-03	2.526247e-03	
66	3.300000e+00	6.590417e-06	-2.57525e-03	2.575254e-03	
67	3.350000e+00	6.596708e-06	-2.62427e-03	2.624270e-03	
68	3.400000e+00	6.602979e-06	-2.67329e-03	2.673294e-03	
69	3.450000e+00	6.609232e-06	-2.72233e-03	2.722327e-03	
70	3.500000e+00	6.615467e-06	-2.77137e-03	2.771369e-03	
71	3.550000e+00	6.621683e-06	-2.82042e-03	2.820418e-03	
72	3.600000e+00	6.627883e-06	-2.86948e-03	2.869475e-03	
73	3.650000e+00	6.634065e-06	-2.91854e-03	2.918540e-03	
74	3.700000e+00	6.640230e-06	-2.96761e-03	2.967611e-03	
75	3.750000e+00	6.646379e-06	-3.01669e-03	3.016690e-03	
76	3.800000e+00	6.652513e-06	-3.06578e-03	3.065776e-03	
77	3.850000e+00	6.658631e-06	-3.11487e-03	3.114868e-03	
78	3.900000e+00	6.664733e-06	-3.16397e-03	3.163966e-03	
79	3.950000e+00	6.670821e-06	-3.21307e-03	3.213070e-03	
80	4.000000e+00	6.676893e-06	-3.26218e-03	3.262181e-03	
81	4.050000e+00	6.682952e-06	-3.31130e-03	3.311297e-03	
82	4.100000e+00	6.688996e-06	-3.36042e-03	3.360419e-03	
83	4.150000e+00	6.695026e-06	-3.40955e-03	3.409546e-03	
84	4.200000e+00	6.701043e-06	-3.45868e-03	3.458679e-03	
85	4.250000e+00	6.707046e-06	-3.50782e-03	3.507816e-03	
86	4.300000e+00	6.713035e-06	-3.55696e-03	3.556959e-03	
87	4.350000e+00	6.719012e-06	-3.60611e-03	3.606106e-03	
88	4.400000e+00	6.724976e-06	-3.65526e-03	3.655259e-03	
89	4.450000e+00	6.730927e-06	-3.70442e-03	3.704416e-03	
90	4.500000e+00	6.736865e-06	-3.75358e-03	3.753577e-03	
91	4.550000e+00	6.742791e-06	-3.80274e-03	3.802743e-03	
92	4.600000e+00	6.748705e-06	-3.85191e-03	3.851913e-03	
93	4.650000e+00	6.754607e-06	-3.90109e-03	3.901087e-03	
94	4.700000e+00	6.760497e-06	-3.95027e-03	3.950265e-03	
95	4.750000e+00	6.766375e-06	-3.99945e-03	3.999448e-03	
96	4.800000e+00	6.772241e-06	-4.04863e-03	4.048634e-03	
97	4.850000e+00	6.778096e-06	-4.09782e-03	4.097824e-03	
98	4.900000e+00	6.783939e-06	-4.14702e-03	4.147017e-03	
99	4.950000e+00	6.789772e-06	-4.19621e-03	4.196214e-03	
100	5.000000e+00	6.795593e-06	-4.24542e-03	4.245415e-03	
101	5.050000e+00	6.801403e-06	-4.29462e-03	4.294619e-03	
102	5.100000e+00	6.807202e-06	-4.34383e-03	4.343827e-03	
103	5.150000e+00	6.812990e-06	-4.39304e-03	4.393037e-03	
104	5.200000e+00	6.818768e-06	-4.44225e-03	4.442251e-03	
105	5.250000e+00	6.824535e-06	-4.49147e-03	4.491468e-03	
106	5.300000e+00	6.830291e-06	-4.54069e-03	4.540689e-03	
107	5.350000e+00	6.836038e-06	-4.58991e-03	4.589912e-03	
108	5.400000e+00	6.841773e-06	-4.63914e-03	4.639138e-03	
109	5.450000e+00	6.847499e-06	-4.68837e-03	4.688367e-03	
110	5.500000e+00	6.853214e-06	-4.73760e-03	4.737599e-03	
111	5.550000e+00	6.858920e-06	-4.78683e-03	4.786833e-03	
112	5.600000e+00	6.864615e-06	-4.83607e-03	4.836070e-03	

Index   v-sweep         v1#branch       v2#branch       v_u_ic1#branch  
--------------------------------------------------------------------------------
113	5.650000e+00	6.870301e-06	-4.88531e-03	4.885310e-03	
114	5.700000e+00	6.875977e-06	-4.93455e-03	4.934553e-03	
115	5.750000e+00	6.881643e-06	-4.98380e-03	4.983798e-03	
116	5.800000e+00	6.887299e-06	-5.03305e-03	5.033046e-03	
117	5.850000e+00	6.892946e-06	-5.08230e-03	5.082296e-03	
118	5.900000e+00	6.898583e-06	-5.13155e-03	5.131548e-03	
119	5.950000e+00	6.904211e-06	-5.18080e-03	5.180803e-03	
120	6.000000e+00	6.909829e-06	-5.23006e-03	5.230060e-03	
121	6.050000e+00	6.915439e-06	-5.27932e-03	5.279319e-03	
122	6.100000e+00	6.921039e-06	-5.32858e-03	5.328581e-03	
123	6.150000e+00	6.926629e-06	-5.37784e-03	5.377845e-03	
124	6.200000e+00	6.932211e-06	-5.42711e-03	5.427111e-03	
125	6.250000e+00	6.937784e-06	-5.47638e-03	5.476379e-03	
126	6.300000e+00	6.943347e-06	-5.52565e-03	5.525649e-03	
127	6.350000e+00	6.948902e-06	-5.57492e-03	5.574921e-03	
128	6.400000e+00	6.954448e-06	-5.62419e-03	5.624195e-03	
129	6.450000e+00	6.959985e-06	-5.67347e-03	5.673471e-03	
130	6.500000e+00	6.965513e-06	-5.72275e-03	5.722749e-03	
131	6.550000e+00	6.971033e-06	-5.77203e-03	5.772029e-03	
132	6.600000e+00	6.976544e-06	-5.82131e-03	5.821311e-03	
133	6.650000e+00	6.982047e-06	-5.87059e-03	5.870595e-03	
134	6.700000e+00	6.987540e-06	-5.91988e-03	5.919880e-03	
135	6.750000e+00	6.993026e-06	-5.96917e-03	5.969167e-03	
136	6.800000e+00	6.998503e-06	-6.01846e-03	6.018456e-03	
137	6.850000e+00	7.003971e-06	-6.06775e-03	6.067747e-03	
138	6.900000e+00	7.009432e-06	-6.11704e-03	6.117039e-03	
139	6.950000e+00	7.014884e-06	-6.16633e-03	6.166334e-03	
140	7.000000e+00	7.020327e-06	-6.21563e-03	6.215629e-03	
141	7.050000e+00	7.025763e-06	-6.26493e-03	6.264927e-03	
142	7.100000e+00	7.031190e-06	-6.31423e-03	6.314225e-03	
143	7.150000e+00	7.036609e-06	-6.36353e-03	6.363526e-03	
144	7.200000e+00	7.042021e-06	-6.41283e-03	6.412828e-03	
145	7.250000e+00	7.047424e-06	-6.46213e-03	6.462132e-03	
146	7.300000e+00	7.052819e-06	-6.51144e-03	6.511437e-03	
147	7.350000e+00	7.058207e-06	-6.56074e-03	6.560743e-03	
148	7.400000e+00	7.063586e-06	-6.61005e-03	6.610051e-03	
149	7.450000e+00	7.068958e-06	-6.65936e-03	6.659360e-03	
150	7.500000e+00	7.074321e-06	-6.70867e-03	6.708671e-03	
151	7.550000e+00	7.079677e-06	-6.75798e-03	6.757983e-03	
152	7.600000e+00	7.085026e-06	-6.80730e-03	6.807297e-03	
153	7.650000e+00	7.090366e-06	-6.85661e-03	6.856612e-03	
154	7.700000e+00	7.095699e-06	-6.90593e-03	6.905928e-03	
155	7.750000e+00	7.101025e-06	-6.95525e-03	6.955245e-03	
156	7.800000e+00	7.106343e-06	-7.00456e-03	7.004564e-03	
157	7.850000e+00	7.111653e-06	-7.05388e-03	7.053884e-03	
158	7.900000e+00	7.116956e-06	-7.10321e-03	7.103206e-03	
159	7.950000e+00	7.122251e-06	-7.15253e-03	7.152528e-03	
160	8.000000e+00	7.127539e-06	-7.20185e-03	7.201852e-03	
161	8.050000e+00	7.132820e-06	-7.25118e-03	7.251177e-03	
162	8.100000e+00	7.138093e-06	-7.30050e-03	7.300503e-03	
163	8.150000e+00	7.143359e-06	-7.34983e-03	7.349831e-03	
164	8.200000e+00	7.148618e-06	-7.39916e-03	7.399159e-03	
165	8.250000e+00	7.153869e-06	-7.44849e-03	7.448489e-03	
166	8.300000e+00	7.159113e-06	-7.49782e-03	7.497820e-03	
167	8.350000e+00	7.164350e-06	-7.54715e-03	7.547152e-03	
168	8.400000e+00	7.169580e-06	-7.59648e-03	7.596485e-03	
169	8.450000e+00	7.174803e-06	-7.64582e-03	7.645819e-03	
170	8.500000e+00	7.180019e-06	-7.69515e-03	7.695154e-03	

Index   v-sweep         v1#branch       v2#branch       v_u_ic1#branch  
--------------------------------------------------------------------------------
171	8.550000e+00	7.185227e-06	-7.74449e-03	7.744490e-03	
172	8.600000e+00	7.190429e-06	-7.79383e-03	7.793827e-03	
173	8.650000e+00	7.195624e-06	-7.84317e-03	7.843166e-03	
174	8.700000e+00	7.200811e-06	-7.89250e-03	7.892505e-03	
175	8.750000e+00	7.205992e-06	-7.94185e-03	7.941845e-03	
176	8.800000e+00	7.211166e-06	-7.99119e-03	7.991187e-03	
177	8.850000e+00	7.216333e-06	-8.04053e-03	8.040529e-03	
178	8.900000e+00	7.221493e-06	-8.08987e-03	8.089872e-03	
179	8.950000e+00	7.226647e-06	-8.13922e-03	8.139216e-03	
180	9.000000e+00	7.231794e-06	-8.18856e-03	8.188561e-03	
181	9.050000e+00	7.236934e-06	-8.23791e-03	8.237907e-03	
182	9.100000e+00	7.242067e-06	-8.28725e-03	8.287255e-03	
183	9.150000e+00	7.247193e-06	-8.33660e-03	8.336602e-03	
184	9.200000e+00	7.252313e-06	-8.38595e-03	8.385951e-03	
185	9.250000e+00	7.257427e-06	-8.43530e-03	8.435301e-03	
186	9.300000e+00	7.262533e-06	-8.48465e-03	8.484652e-03	
187	9.350000e+00	7.267633e-06	-8.53400e-03	8.534003e-03	
188	9.400000e+00	7.272727e-06	-8.58336e-03	8.583355e-03	
189	9.450000e+00	7.277814e-06	-8.63271e-03	8.632709e-03	
190	9.500000e+00	7.282895e-06	-8.68206e-03	8.682063e-03	
191	9.550000e+00	7.287969e-06	-8.73142e-03	8.731417e-03	
192	9.600000e+00	7.293036e-06	-8.78077e-03	8.780773e-03	
193	9.650000e+00	7.298098e-06	-8.83013e-03	8.830130e-03	
194	9.700000e+00	7.303153e-06	-8.87949e-03	8.879487e-03	
195	9.750000e+00	7.308201e-06	-8.92885e-03	8.928845e-03	
196	9.800000e+00	7.313243e-06	-8.97820e-03	8.978204e-03	
197	9.850000e+00	7.318279e-06	-9.02756e-03	9.027564e-03	
198	9.900000e+00	7.323309e-06	-9.07692e-03	9.076924e-03	
199	9.950000e+00	7.328332e-06	-9.12629e-03	9.126285e-03	
200	1.000000e+01	7.333349e-06	-9.17565e-03	9.175647e-03	
201	0.000000e+00	-5.02838e-12	5.005867e-12	-5.00587e-12	
202	5.000000e-02	-5.02197e-12	4.825353e-12	-4.82535e-12	
203	1.000000e-01	-5.98232e-12	4.362315e-12	-4.36231e-12	
204	1.500000e-01	-1.22902e-11	3.065808e-12	-3.06581e-12	
205	2.000000e-01	-5.61594e-11	-1.89105e-12	1.891048e-12	
206	2.500000e-01	-3.59492e-10	-2.25477e-11	2.254769e-11	
207	3.000000e-01	-2.45512e-09	-1.12558e-10	1.125577e-10	
208	3.500000e-01	-1.69312e-08	-5.22172e-10	5.221720e-10	
209	4.000000e-01	-1.16920e-07	-2.48903e-09	2.489027e-09	
210	4.500000e-01	-8.07299e-07	-1.25571e-08	1.255710e-08	
211	5.000000e-01	-5.56420e-06	-6.76579e-08	6.765788e-08	
212	5.500000e-01	-3.79415e-05	-3.85696e-07	3.856960e-07	
213	6.000000e-01	-2.43441e-04	-2.19990e-06	2.199896e-06	
214	6.500000e-01	-1.20781e-03	-1.03081e-05	1.030806e-05	
215	7.000000e-01	-3.61074e-03	-3.08274e-05	3.082745e-05	
216	7.500000e-01	-4.89076e-03	-7.13747e-05	7.137473e-05	
217	8.000000e-01	-4.91468e-03	-1.19675e-04	1.196755e-04	
218	8.500000e-01	-4.92613e-03	-1.68088e-04	1.680876e-04	
219	9.000000e-01	-4.93351e-03	-2.16562e-04	2.165615e-04	
220	9.500000e-01	-4.93887e-03	-2.65083e-04	2.650831e-04	
221	1.000000e+00	-4.94304e-03	-3.13645e-04	3.136449e-04	
222	1.050000e+00	-4.94637e-03	-3.62243e-04	3.622427e-04	
223	1.100000e+00	-4.94914e-03	-4.10873e-04	4.108728e-04	
224	1.150000e+00	-4.95149e-03	-4.59533e-04	4.595326e-04	
225	1.200000e+00	-4.95351e-03	-5.08220e-04	5.082198e-04	
226	1.250000e+00	-4.95528e-03	-5.56933e-04	5.569325e-04	
227	1.300000e+00	-4.95684e-03	-6.05669e-04	6.056690e-04	
228	1.350000e+00	-4.95824e-03	-6.54428e-04	6.544279e-04	

Index   v-sweep         v1#branch       v2#branch       v_u_ic1#branch  
--------------------------------------------------------------------------------
229	1.400000e+00	-4.95949e-03	-7.03208e-04	7.032077e-04	
230	1.450000e+00	-4.96062e-03	-7.52007e-04	7.520073e-04	
231	1.500000e+00	-4.96164e-03	-8.00826e-04	8.008256e-04	
232	1.550000e+00	-4.96258e-03	-8.49662e-04	8.496616e-04	
233	1.600000e+00	-4.96344e-03	-8.98514e-04	8.985143e-04	
234	1.650000e+00	-4.96423e-03	-9.47383e-04	9.473830e-04	
235	1.700000e+00	-4.96497e-03	-9.96267e-04	9.962669e-04	
236	1.750000e+00	-4.96565e-03	-1.04517e-03	1.045165e-03	
237	1.800000e+00	-4.96628e-03	-1.09408e-03	1.094077e-03	
238	1.850000e+00	-4.96687e-03	-1.14300e-03	1.143002e-03	
239	1.900000e+00	-4.96742e-03	-1.19194e-03	1.191940e-03	
240	1.950000e+00	-4.96794e-03	-1.24089e-03	1.240890e-03	
241	2.000000e+00	-4.96842e-03	-1.28985e-03	1.289851e-03	
242	2.050000e+00	-4.96888e-03	-1.33882e-03	1.338823e-03	
243	2.100000e+00	-4.96931e-03	-1.38781e-03	1.387806e-03	
244	2.150000e+00	-4.96972e-03	-1.43680e-03	1.436799e-03	
245	2.200000e+00	-4.97011e-03	-1.48580e-03	1.485802e-03	
246	2.250000e+00	-4.97047e-03	-1.53481e-03	1.534814e-03	
247	2.300000e+00	-4.97082e-03	-1.58384e-03	1.583836e-03	
248	2.350000e+00	-4.97115e-03	-1.63287e-03	1.632866e-03	
249	2.400000e+00	-4.97146e-03	-1.68190e-03	1.681904e-03	
250	2.450000e+00	-4.97176e-03	-1.73095e-03	1.730951e-03	
251	2.500000e+00	-4.97205e-03	-1.78001e-03	1.780005e-03	
252	2.550000e+00	-4.97232e-03	-1.82907e-03	1.829067e-03	
253	2.600000e+00	-4.97258e-03	-1.87814e-03	1.878136e-03	
254	2.650000e+00	-4.97283e-03	-1.92721e-03	1.927213e-03	
255	2.700000e+00	-4.97307e-03	-1.97630e-03	1.976296e-03	
256	2.750000e+00	-4.97330e-03	-2.02539e-03	2.025386e-03	
257	2.800000e+00	-4.97352e-03	-2.07448e-03	2.074482e-03	
258	2.850000e+00	-4.97373e-03	-2.12358e-03	2.123585e-03	
259	2.900000e+00	-4.97393e-03	-2.17269e-03	2.172693e-03	
260	2.950000e+00	-4.97413e-03	-2.22181e-03	2.221808e-03	
261	3.000000e+00	-4.97431e-03	-2.27093e-03	2.270928e-03	
262	3.050000e+00	-4.97449e-03	-2.32005e-03	2.320054e-03	
263	3.100000e+00	-4.97467e-03	-2.36918e-03	2.369185e-03	
264	3.150000e+00	-4.97484e-03	-2.41832e-03	2.418321e-03	
265	3.200000e+00	-4.97500e-03	-2.46746e-03	2.467462e-03	
266	3.250000e+00	-4.97515e-03	-2.51661e-03	2.516608e-03	
267	3.300000e+00	-4.97531e-03	-2.56576e-03	2.565759e-03	
268	3.350000e+00	-4.97545e-03	-2.61491e-03	2.614915e-03	
269	3.400000e+00	-4.97559e-03	-2.66408e-03	2.664075e-03	
270	3.450000e+00	-4.97573e-03	-2.71324e-03	2.713240e-03	
271	3.500000e+00	-4.97586e-03	-2.76241e-03	2.762409e-03	
272	3.550000e+00	-4.97599e-03	-2.81158e-03	2.811582e-03	
273	3.600000e+00	-4.97611e-03	-2.86076e-03	2.860759e-03	
274	3.650000e+00	-4.97623e-03	-2.90994e-03	2.909940e-03	
275	3.700000e+00	-4.97635e-03	-2.95913e-03	2.959125e-03	
276	3.750000e+00	-4.97646e-03	-3.00831e-03	3.008314e-03	
277	3.800000e+00	-4.97657e-03	-3.05751e-03	3.057507e-03	
278	3.850000e+00	-4.97668e-03	-3.10670e-03	3.106703e-03	
279	3.900000e+00	-4.97678e-03	-3.15590e-03	3.155903e-03	
280	3.950000e+00	-4.97688e-03	-3.20511e-03	3.205107e-03	
281	4.000000e+00	-4.97698e-03	-3.25431e-03	3.254313e-03	
282	4.050000e+00	-4.97708e-03	-3.30352e-03	3.303523e-03	
283	4.100000e+00	-4.97717e-03	-3.35274e-03	3.352736e-03	
284	4.150000e+00	-4.97726e-03	-3.40195e-03	3.401953e-03	
285	4.200000e+00	-4.97735e-03	-3.45117e-03	3.451172e-03	
286	4.250000e+00	-4.97743e-03	-3.50039e-03	3.500395e-03	

Index   v-sweep         v1#branch       v2#branch       v_u_ic1#branch  
--------------------------------------------------------------------------------
287	4.300000e+00	-4.97752e-03	-3.54962e-03	3.549620e-03	
288	4.350000e+00	-4.97760e-03	-3.59885e-03	3.598849e-03	
289	4.400000e+00	-4.97768e-03	-3.64808e-03	3.648080e-03	
290	4.450000e+00	-4.97775e-03	-3.69731e-03	3.697314e-03	
291	4.500000e+00	-4.97783e-03	-3.74655e-03	3.746551e-03	
292	4.550000e+00	-4.97790e-03	-3.79579e-03	3.795790e-03	
293	4.600000e+00	-4.97797e-03	-3.84503e-03	3.845032e-03	
294	4.650000e+00	-4.97804e-03	-3.89428e-03	3.894277e-03	
295	4.700000e+00	-4.97811e-03	-3.94352e-03	3.943524e-03	
296	4.750000e+00	-4.97818e-03	-3.99277e-03	3.992774e-03	
297	4.800000e+00	-4.97824e-03	-4.04203e-03	4.042026e-03	
298	4.850000e+00	-4.97831e-03	-4.09128e-03	4.091280e-03	
299	4.900000e+00	-4.97837e-03	-4.14054e-03	4.140537e-03	
300	4.950000e+00	-4.97843e-03	-4.18980e-03	4.189796e-03	
301	5.000000e+00	-4.97849e-03	-4.23906e-03	4.239057e-03	
302	5.050000e+00	-4.97855e-03	-4.28832e-03	4.288320e-03	
303	5.100000e+00	-4.97860e-03	-4.33759e-03	4.337586e-03	
304	5.150000e+00	-4.97866e-03	-4.38685e-03	4.386854e-03	
305	5.200000e+00	-4.97871e-03	-4.43612e-03	4.436124e-03	
306	5.250000e+00	-4.97876e-03	-4.48540e-03	4.485395e-03	
307	5.300000e+00	-4.97882e-03	-4.53467e-03	4.534669e-03	
308	5.350000e+00	-4.97887e-03	-4.58395e-03	4.583945e-03	
309	5.400000e+00	-4.97892e-03	-4.63322e-03	4.633223e-03	
310	5.450000e+00	-4.97896e-03	-4.68250e-03	4.682503e-03	
311	5.500000e+00	-4.97901e-03	-4.73178e-03	4.731784e-03	
312	5.550000e+00	-4.97906e-03	-4.78107e-03	4.781068e-03	
313	5.600000e+00	-4.97910e-03	-4.83035e-03	4.830353e-03	
314	5.650000e+00	-4.97915e-03	-4.87964e-03	4.879640e-03	
315	5.700000e+00	-4.97919e-03	-4.92893e-03	4.928929e-03	
316	5.750000e+00	-4.97924e-03	-4.97822e-03	4.978219e-03	
317	5.800000e+00	-4.97928e-03	-5.02751e-03	5.027512e-03	
318	5.850000e+00	-4.97932e-03	-5.07681e-03	5.076805e-03	
319	5.900000e+00	-4.97936e-03	-5.12610e-03	5.126101e-03	
320	5.950000e+00	-4.97940e-03	-5.17540e-03	5.175398e-03	
321	6.000000e+00	-4.97944e-03	-5.22470e-03	5.224697e-03	
322	6.050000e+00	-4.97948e-03	-5.27400e-03	5.273997e-03	
323	6.100000e+00	-4.97951e-03	-5.32330e-03	5.323299e-03	
324	6.150000e+00	-4.97955e-03	-5.37260e-03	5.372603e-03	
325	6.200000e+00	-4.97959e-03	-5.42191e-03	5.421908e-03	
326	6.250000e+00	-4.97962e-03	-5.47121e-03	5.471214e-03	
327	6.300000e+00	-4.97966e-03	-5.52052e-03	5.520522e-03	
328	6.350000e+00	-4.97969e-03	-5.56983e-03	5.569831e-03	
329	6.400000e+00	-4.97972e-03	-5.61914e-03	5.619142e-03	
330	6.450000e+00	-4.97976e-03	-5.66845e-03	5.668454e-03	
