* c:\users\mamat\onedrive\desktop\ajay_esim\final_project_files\device_modelling\2n5401\bjt_ce_config\bjt_ce_config.cir
DC transfer characteristic  Tue Jun 24 16:02:59  2025
--------------------------------------------------------------------------------
Index   v-sweep         ib              net-_q1-pad1_   net-_q1-pad2_   
--------------------------------------------------------------------------------
0	0.000000e+00	0.000000e+00	8.001289e-28	-1.08697e-27	
1	5.000000e-02	-5.00000e-02	-6.13421e-11	-5.00000e-02	
2	1.000000e-01	-1.00000e-01	-3.74367e-10	-1.00000e-01	
3	1.500000e-01	-1.50000e-01	-2.08084e-09	-1.50000e-01	
4	2.000000e-01	-2.00000e-01	-1.35788e-08	-2.00000e-01	
5	2.500000e-01	-2.50000e-01	-9.27444e-08	-2.50000e-01	
6	3.000000e-01	-3.00000e-01	-6.39489e-07	-2.99999e-01	
7	3.500000e-01	-3.50000e-01	-4.41412e-06	-3.49995e-01	
8	4.000000e-01	-4.00000e-01	-3.03286e-05	-3.99967e-01	
9	4.500000e-01	-4.50000e-01	-2.01606e-04	-4.49780e-01	
10	5.000000e-01	-5.00000e-01	-1.11129e-03	-4.98612e-01	
11	5.500000e-01	-5.50000e-01	-3.34229e-03	-5.42968e-01	
12	6.000000e-01	-6.00000e-01	-5.01700e-03	-5.76294e-01	
13	6.500000e-01	-6.50000e-01	-5.64175e-03	-5.97684e-01	
14	7.000000e-01	-7.00000e-01	-5.89270e-03	-6.11824e-01	
15	7.500000e-01	-7.50000e-01	-6.01318e-03	-6.21989e-01	
16	8.000000e-01	-8.00000e-01	-6.08854e-03	-6.29939e-01	
17	8.500000e-01	-8.50000e-01	-6.13405e-03	-6.36290e-01	
18	9.000000e-01	-9.00000e-01	-6.16710e-03	-6.41650e-01	
19	9.500000e-01	-9.50000e-01	-6.19338e-03	-6.46308e-01	
20	1.000000e+00	-1.00000e+00	-6.21486e-03	-6.50427e-01	
21	1.050000e+00	-1.05000e+00	-6.23300e-03	-6.54127e-01	
22	1.100000e+00	-1.10000e+00	-6.24879e-03	-6.57491e-01	
23	1.150000e+00	-1.15000e+00	-6.26286e-03	-6.60583e-01	
24	1.200000e+00	-1.20000e+00	-6.27562e-03	-6.63447e-01	
25	1.250000e+00	-1.25000e+00	-6.28739e-03	-6.66120e-01	
26	1.300000e+00	-1.30000e+00	-6.29838e-03	-6.68630e-01	
27	1.350000e+00	-1.35000e+00	-6.30873e-03	-6.71000e-01	
28	1.400000e+00	-1.40000e+00	-6.31858e-03	-6.73247e-01	
29	1.450000e+00	-1.45000e+00	-6.32800e-03	-6.75386e-01	
30	1.500000e+00	-1.50000e+00	-6.33707e-03	-6.77429e-01	
31	1.550000e+00	-1.55000e+00	-6.34584e-03	-6.79388e-01	
32	1.600000e+00	-1.60000e+00	-6.35436e-03	-6.81270e-01	
33	1.650000e+00	-1.65000e+00	-6.36266e-03	-6.83083e-01	
34	1.700000e+00	-1.70000e+00	-6.37077e-03	-6.84835e-01	
35	1.750000e+00	-1.75000e+00	-6.37872e-03	-6.86529e-01	
36	1.800000e+00	-1.80000e+00	-6.38652e-03	-6.88171e-01	
37	1.850000e+00	-1.85000e+00	-6.39419e-03	-6.89766e-01	
38	1.900000e+00	-1.90000e+00	-6.40175e-03	-6.91317e-01	
39	1.950000e+00	-1.95000e+00	-6.40920e-03	-6.92827e-01	
40	2.000000e+00	-2.00000e+00	-6.41656e-03	-6.94300e-01	
41	2.050000e+00	-2.05000e+00	-6.42383e-03	-6.95738e-01	
42	2.100000e+00	-2.10000e+00	-6.43103e-03	-6.97144e-01	
43	2.150000e+00	-2.15000e+00	-6.43816e-03	-6.98519e-01	
44	2.200000e+00	-2.20000e+00	-6.44522e-03	-6.99866e-01	
45	2.250000e+00	-2.25000e+00	-6.45222e-03	-7.01186e-01	
46	2.300000e+00	-2.30000e+00	-6.45917e-03	-7.02481e-01	
47	2.350000e+00	-2.35000e+00	-6.46607e-03	-7.03753e-01	
48	2.400000e+00	-2.40000e+00	-6.47291e-03	-7.05003e-01	
49	2.450000e+00	-2.45000e+00	-6.47972e-03	-7.06231e-01	
50	2.500000e+00	-2.50000e+00	-6.48648e-03	-7.07440e-01	
51	2.550000e+00	-2.55000e+00	-6.49320e-03	-7.08630e-01	
52	2.600000e+00	-2.60000e+00	-6.49989e-03	-7.09803e-01	
53	2.650000e+00	-2.65000e+00	-6.50654e-03	-7.10958e-01	
54	2.700000e+00	-2.70000e+00	-6.51315e-03	-7.12097e-01	

Index   v-sweep         ib              net-_q1-pad1_   net-_q1-pad2_   
--------------------------------------------------------------------------------
55	2.750000e+00	-2.75000e+00	-6.51974e-03	-7.13221e-01	
56	2.800000e+00	-2.80000e+00	-6.52629e-03	-7.14330e-01	
57	2.850000e+00	-2.85000e+00	-6.53281e-03	-7.15426e-01	
58	2.900000e+00	-2.90000e+00	-6.53931e-03	-7.16508e-01	
59	2.950000e+00	-2.95000e+00	-6.54578e-03	-7.17577e-01	
60	3.000000e+00	-3.00000e+00	-6.55223e-03	-7.18634e-01	
61	3.050000e+00	-3.05000e+00	-6.55865e-03	-7.19679e-01	
62	3.100000e+00	-3.10000e+00	-6.56505e-03	-7.20713e-01	
63	3.150000e+00	-3.15000e+00	-6.57142e-03	-7.21737e-01	
64	3.200000e+00	-3.20000e+00	-6.57777e-03	-7.22750e-01	
65	3.250000e+00	-3.25000e+00	-6.58411e-03	-7.23753e-01	
66	3.300000e+00	-3.30000e+00	-6.59042e-03	-7.24746e-01	
67	3.350000e+00	-3.35000e+00	-6.59671e-03	-7.25730e-01	
68	3.400000e+00	-3.40000e+00	-6.60298e-03	-7.26706e-01	
69	3.450000e+00	-3.45000e+00	-6.60923e-03	-7.27673e-01	
70	3.500000e+00	-3.50000e+00	-6.61547e-03	-7.28631e-01	
71	3.550000e+00	-3.55000e+00	-6.62168e-03	-7.29582e-01	
72	3.600000e+00	-3.60000e+00	-6.62788e-03	-7.30525e-01	
73	3.650000e+00	-3.65000e+00	-6.63406e-03	-7.31460e-01	
74	3.700000e+00	-3.70000e+00	-6.64023e-03	-7.32389e-01	
75	3.750000e+00	-3.75000e+00	-6.64638e-03	-7.33310e-01	
76	3.800000e+00	-3.80000e+00	-6.65251e-03	-7.34224e-01	
77	3.850000e+00	-3.85000e+00	-6.65863e-03	-7.35132e-01	
78	3.900000e+00	-3.90000e+00	-6.66473e-03	-7.36034e-01	
79	3.950000e+00	-3.95000e+00	-6.67082e-03	-7.36930e-01	
80	4.000000e+00	-4.00000e+00	-6.67689e-03	-7.37819e-01	
81	4.050000e+00	-4.05000e+00	-6.68295e-03	-7.38703e-01	
82	4.100000e+00	-4.10000e+00	-6.68900e-03	-7.39581e-01	
83	4.150000e+00	-4.15000e+00	-6.69503e-03	-7.40454e-01	
84	4.200000e+00	-4.20000e+00	-6.70104e-03	-7.41321e-01	
85	4.250000e+00	-4.25000e+00	-6.70705e-03	-7.42184e-01	
86	4.300000e+00	-4.30000e+00	-6.71304e-03	-7.43041e-01	
87	4.350000e+00	-4.35000e+00	-6.71901e-03	-7.43894e-01	
88	4.400000e+00	-4.40000e+00	-6.72498e-03	-7.44741e-01	
89	4.450000e+00	-4.45000e+00	-6.73093e-03	-7.45584e-01	
90	4.500000e+00	-4.50000e+00	-6.73687e-03	-7.46423e-01	
91	4.550000e+00	-4.55000e+00	-6.74279e-03	-7.47257e-01	
92	4.600000e+00	-4.60000e+00	-6.74871e-03	-7.48087e-01	
93	4.650000e+00	-4.65000e+00	-6.75461e-03	-7.48913e-01	
94	4.700000e+00	-4.70000e+00	-6.76050e-03	-7.49735e-01	
95	4.750000e+00	-4.75000e+00	-6.76637e-03	-7.50552e-01	
96	4.800000e+00	-4.80000e+00	-6.77224e-03	-7.51366e-01	
97	4.850000e+00	-4.85000e+00	-6.77810e-03	-7.52176e-01	
98	4.900000e+00	-4.90000e+00	-6.78394e-03	-7.52983e-01	
99	4.950000e+00	-4.95000e+00	-6.78977e-03	-7.53786e-01	
100	5.000000e+00	-5.00000e+00	-6.79559e-03	-7.54585e-01	
101	5.050000e+00	-5.05000e+00	-6.80140e-03	-7.55381e-01	
102	5.100000e+00	-5.10000e+00	-6.80720e-03	-7.56173e-01	
103	5.150000e+00	-5.15000e+00	-6.81299e-03	-7.56963e-01	
104	5.200000e+00	-5.20000e+00	-6.81877e-03	-7.57749e-01	
105	5.250000e+00	-5.25000e+00	-6.82453e-03	-7.58532e-01	
106	5.300000e+00	-5.30000e+00	-6.83029e-03	-7.59311e-01	
107	5.350000e+00	-5.35000e+00	-6.83604e-03	-7.60088e-01	
108	5.400000e+00	-5.40000e+00	-6.84177e-03	-7.60862e-01	
109	5.450000e+00	-5.45000e+00	-6.84750e-03	-7.61633e-01	
110	5.500000e+00	-5.50000e+00	-6.85321e-03	-7.62401e-01	
111	5.550000e+00	-5.55000e+00	-6.85892e-03	-7.63167e-01	
112	5.600000e+00	-5.60000e+00	-6.86462e-03	-7.63930e-01	

Index   v-sweep         ib              net-_q1-pad1_   net-_q1-pad2_   
--------------------------------------------------------------------------------
113	5.650000e+00	-5.65000e+00	-6.87030e-03	-7.64690e-01	
114	5.700000e+00	-5.70000e+00	-6.87598e-03	-7.65447e-01	
115	5.750000e+00	-5.75000e+00	-6.88164e-03	-7.66202e-01	
116	5.800000e+00	-5.80000e+00	-6.88730e-03	-7.66954e-01	
117	5.850000e+00	-5.85000e+00	-6.89295e-03	-7.67704e-01	
118	5.900000e+00	-5.90000e+00	-6.89858e-03	-7.68452e-01	
119	5.950000e+00	-5.95000e+00	-6.90421e-03	-7.69197e-01	
120	6.000000e+00	-6.00000e+00	-6.90983e-03	-7.69940e-01	
121	6.050000e+00	-6.05000e+00	-6.91544e-03	-7.70681e-01	
122	6.100000e+00	-6.10000e+00	-6.92104e-03	-7.71419e-01	
123	6.150000e+00	-6.15000e+00	-6.92663e-03	-7.72155e-01	
124	6.200000e+00	-6.20000e+00	-6.93221e-03	-7.72889e-01	
125	6.250000e+00	-6.25000e+00	-6.93778e-03	-7.73621e-01	
126	6.300000e+00	-6.30000e+00	-6.94335e-03	-7.74351e-01	
127	6.350000e+00	-6.35000e+00	-6.94890e-03	-7.75079e-01	
128	6.400000e+00	-6.40000e+00	-6.95445e-03	-7.75805e-01	
129	6.450000e+00	-6.45000e+00	-6.95999e-03	-7.76529e-01	
130	6.500000e+00	-6.50000e+00	-6.96551e-03	-7.77251e-01	
131	6.550000e+00	-6.55000e+00	-6.97103e-03	-7.77971e-01	
132	6.600000e+00	-6.60000e+00	-6.97654e-03	-7.78689e-01	
133	6.650000e+00	-6.65000e+00	-6.98205e-03	-7.79405e-01	
134	6.700000e+00	-6.70000e+00	-6.98754e-03	-7.80120e-01	
135	6.750000e+00	-6.75000e+00	-6.99303e-03	-7.80833e-01	
136	6.800000e+00	-6.80000e+00	-6.99850e-03	-7.81544e-01	
137	6.850000e+00	-6.85000e+00	-7.00397e-03	-7.82253e-01	
138	6.900000e+00	-6.90000e+00	-7.00943e-03	-7.82961e-01	
139	6.950000e+00	-6.95000e+00	-7.01488e-03	-7.83666e-01	
140	7.000000e+00	-7.00000e+00	-7.02033e-03	-7.84371e-01	
141	7.050000e+00	-7.05000e+00	-7.02576e-03	-7.85073e-01	
142	7.100000e+00	-7.10000e+00	-7.03119e-03	-7.85775e-01	
143	7.150000e+00	-7.15000e+00	-7.03661e-03	-7.86474e-01	
144	7.200000e+00	-7.20000e+00	-7.04202e-03	-7.87172e-01	
145	7.250000e+00	-7.25000e+00	-7.04742e-03	-7.87868e-01	
146	7.300000e+00	-7.30000e+00	-7.05282e-03	-7.88563e-01	
147	7.350000e+00	-7.35000e+00	-7.05821e-03	-7.89257e-01	
148	7.400000e+00	-7.40000e+00	-7.06359e-03	-7.89949e-01	
149	7.450000e+00	-7.45000e+00	-7.06896e-03	-7.90640e-01	
150	7.500000e+00	-7.50000e+00	-7.07432e-03	-7.91329e-01	
151	7.550000e+00	-7.55000e+00	-7.07968e-03	-7.92017e-01	
152	7.600000e+00	-7.60000e+00	-7.08503e-03	-7.92703e-01	
153	7.650000e+00	-7.65000e+00	-7.09037e-03	-7.93388e-01	
154	7.700000e+00	-7.70000e+00	-7.09570e-03	-7.94072e-01	
155	7.750000e+00	-7.75000e+00	-7.10102e-03	-7.94755e-01	
156	7.800000e+00	-7.80000e+00	-7.10634e-03	-7.95436e-01	
157	7.850000e+00	-7.85000e+00	-7.11165e-03	-7.96116e-01	
158	7.900000e+00	-7.90000e+00	-7.11696e-03	-7.96794e-01	
159	7.950000e+00	-7.95000e+00	-7.12225e-03	-7.97472e-01	
160	8.000000e+00	-8.00000e+00	-7.12754e-03	-7.98148e-01	
161	8.050000e+00	-8.05000e+00	-7.13282e-03	-7.98823e-01	
162	8.100000e+00	-8.10000e+00	-7.13809e-03	-7.99497e-01	
163	8.150000e+00	-8.15000e+00	-7.14336e-03	-8.00169e-01	
164	8.200000e+00	-8.20000e+00	-7.14862e-03	-8.00841e-01	
165	8.250000e+00	-8.25000e+00	-7.15387e-03	-8.01511e-01	
166	8.300000e+00	-8.30000e+00	-7.15911e-03	-8.02180e-01	
167	8.350000e+00	-8.35000e+00	-7.16435e-03	-8.02848e-01	
168	8.400000e+00	-8.40000e+00	-7.16958e-03	-8.03515e-01	
169	8.450000e+00	-8.45000e+00	-7.17480e-03	-8.04181e-01	
170	8.500000e+00	-8.50000e+00	-7.18002e-03	-8.04846e-01	

Index   v-sweep         ib              net-_q1-pad1_   net-_q1-pad2_   
--------------------------------------------------------------------------------
171	8.550000e+00	-8.55000e+00	-7.18523e-03	-8.05510e-01	
172	8.600000e+00	-8.60000e+00	-7.19043e-03	-8.06173e-01	
173	8.650000e+00	-8.65000e+00	-7.19562e-03	-8.06834e-01	
174	8.700000e+00	-8.70000e+00	-7.20081e-03	-8.07495e-01	
175	8.750000e+00	-8.75000e+00	-7.20599e-03	-8.08155e-01	
176	8.800000e+00	-8.80000e+00	-7.21117e-03	-8.08813e-01	
177	8.850000e+00	-8.85000e+00	-7.21633e-03	-8.09471e-01	
178	8.900000e+00	-8.90000e+00	-7.22149e-03	-8.10128e-01	
179	8.950000e+00	-8.95000e+00	-7.22665e-03	-8.10784e-01	
180	9.000000e+00	-9.00000e+00	-7.23179e-03	-8.11439e-01	
181	9.050000e+00	-9.05000e+00	-7.23693e-03	-8.12093e-01	
182	9.100000e+00	-9.10000e+00	-7.24207e-03	-8.12745e-01	
183	9.150000e+00	-9.15000e+00	-7.24719e-03	-8.13398e-01	
184	9.200000e+00	-9.20000e+00	-7.25231e-03	-8.14049e-01	
185	9.250000e+00	-9.25000e+00	-7.25743e-03	-8.14699e-01	
186	9.300000e+00	-9.30000e+00	-7.26253e-03	-8.15348e-01	
187	9.350000e+00	-9.35000e+00	-7.26763e-03	-8.15997e-01	
188	9.400000e+00	-9.40000e+00	-7.27273e-03	-8.16645e-01	
189	9.450000e+00	-9.45000e+00	-7.27781e-03	-8.17291e-01	
190	9.500000e+00	-9.50000e+00	-7.28289e-03	-8.17937e-01	
191	9.550000e+00	-9.55000e+00	-7.28797e-03	-8.18583e-01	
192	9.600000e+00	-9.60000e+00	-7.29304e-03	-8.19227e-01	
193	9.650000e+00	-9.65000e+00	-7.29810e-03	-8.19870e-01	
194	9.700000e+00	-9.70000e+00	-7.30315e-03	-8.20513e-01	
195	9.750000e+00	-9.75000e+00	-7.30820e-03	-8.21155e-01	
196	9.800000e+00	-9.80000e+00	-7.31324e-03	-8.21796e-01	
197	9.850000e+00	-9.85000e+00	-7.31828e-03	-8.22436e-01	
198	9.900000e+00	-9.90000e+00	-7.32331e-03	-8.23076e-01	
199	9.950000e+00	-9.95000e+00	-7.32833e-03	-8.23715e-01	
200	1.000000e+01	-1.00000e+01	-7.33335e-03	-8.24353e-01	
201	0.000000e+00	0.000000e+00	-5.00000e+00	-5.00587e-09	
202	5.000000e-02	-5.00000e-02	-5.00000e+00	-5.00000e-02	
203	1.000000e-01	-1.00000e-01	-5.00000e+00	-1.00000e-01	
204	1.500000e-01	-1.50000e-01	-5.00000e+00	-1.50000e-01	
205	2.000000e-01	-2.00000e-01	-5.00000e+00	-2.00000e-01	
206	2.500000e-01	-2.50000e-01	-5.00000e+00	-2.50000e-01	
207	3.000000e-01	-3.00000e-01	-5.00000e+00	-3.00000e-01	
208	3.500000e-01	-3.50000e-01	-4.99998e+00	-3.49999e-01	
209	4.000000e-01	-4.00000e-01	-4.99988e+00	-3.99998e-01	
210	4.500000e-01	-4.50000e-01	-4.99919e+00	-4.49987e-01	
211	5.000000e-01	-5.00000e-01	-4.99444e+00	-4.99932e-01	
212	5.500000e-01	-5.50000e-01	-4.96206e+00	-5.49614e-01	
213	6.000000e-01	-6.00000e-01	-4.75656e+00	-5.97800e-01	
214	6.500000e-01	-6.50000e-01	-3.79219e+00	-6.39692e-01	
215	7.000000e-01	-7.00000e-01	-1.38926e+00	-6.69173e-01	
216	7.500000e-01	-7.50000e-01	-1.09242e-01	-6.78625e-01	
217	8.000000e-01	-8.00000e-01	-8.53165e-02	-6.80325e-01	
218	8.500000e-01	-8.50000e-01	-7.38725e-02	-6.81912e-01	
219	9.000000e-01	-9.00000e-01	-6.64886e-02	-6.83438e-01	
220	9.500000e-01	-9.50000e-01	-6.11339e-02	-6.84917e-01	
221	1.000000e+00	-1.00000e+00	-5.69591e-02	-6.86355e-01	
222	1.050000e+00	-1.05000e+00	-5.36302e-02	-6.87757e-01	
223	1.100000e+00	-1.10000e+00	-5.08639e-02	-6.89127e-01	
224	1.150000e+00	-1.15000e+00	-4.85144e-02	-6.90467e-01	
225	1.200000e+00	-1.20000e+00	-4.64882e-02	-6.91780e-01	
226	1.250000e+00	-1.25000e+00	-4.47182e-02	-6.93067e-01	
227	1.300000e+00	-1.30000e+00	-4.31554e-02	-6.94331e-01	
228	1.350000e+00	-1.35000e+00	-4.17630e-02	-6.95572e-01	

Index   v-sweep         ib              net-_q1-pad1_   net-_q1-pad2_   
--------------------------------------------------------------------------------
229	1.400000e+00	-1.40000e+00	-4.05132e-02	-6.96792e-01	
230	1.450000e+00	-1.45000e+00	-3.93838e-02	-6.97993e-01	
231	1.500000e+00	-1.50000e+00	-3.83573e-02	-6.99174e-01	
232	1.550000e+00	-1.55000e+00	-3.74198e-02	-7.00338e-01	
233	1.600000e+00	-1.60000e+00	-3.65595e-02	-7.01486e-01	
234	1.650000e+00	-1.65000e+00	-3.57670e-02	-7.02617e-01	
235	1.700000e+00	-1.70000e+00	-3.50342e-02	-7.03733e-01	
236	1.750000e+00	-1.75000e+00	-3.43545e-02	-7.04835e-01	
237	1.800000e+00	-1.80000e+00	-3.37221e-02	-7.05923e-01	
238	1.850000e+00	-1.85000e+00	-3.31321e-02	-7.06998e-01	
239	1.900000e+00	-1.90000e+00	-3.25802e-02	-7.08060e-01	
240	1.950000e+00	-1.95000e+00	-3.20628e-02	-7.09110e-01	
241	2.000000e+00	-2.00000e+00	-3.15768e-02	-7.10149e-01	
242	2.050000e+00	-2.05000e+00	-3.11192e-02	-7.11177e-01	
243	2.100000e+00	-2.10000e+00	-3.06876e-02	-7.12194e-01	
244	2.150000e+00	-2.15000e+00	-3.02798e-02	-7.13201e-01	
245	2.200000e+00	-2.20000e+00	-2.98939e-02	-7.14198e-01	
246	2.250000e+00	-2.25000e+00	-2.95282e-02	-7.15186e-01	
247	2.300000e+00	-2.30000e+00	-2.91811e-02	-7.16164e-01	
248	2.350000e+00	-2.35000e+00	-2.88511e-02	-7.17134e-01	
249	2.400000e+00	-2.40000e+00	-2.85371e-02	-7.18096e-01	
250	2.450000e+00	-2.45000e+00	-2.82380e-02	-7.19049e-01	
251	2.500000e+00	-2.50000e+00	-2.79526e-02	-7.19995e-01	
252	2.550000e+00	-2.55000e+00	-2.76801e-02	-7.20933e-01	
253	2.600000e+00	-2.60000e+00	-2.74195e-02	-7.21864e-01	
254	2.650000e+00	-2.65000e+00	-2.71703e-02	-7.22787e-01	
255	2.700000e+00	-2.70000e+00	-2.69315e-02	-7.23704e-01	
256	2.750000e+00	-2.75000e+00	-2.67026e-02	-7.24614e-01	
257	2.800000e+00	-2.80000e+00	-2.64830e-02	-7.25518e-01	
258	2.850000e+00	-2.85000e+00	-2.62721e-02	-7.26415e-01	
259	2.900000e+00	-2.90000e+00	-2.60694e-02	-7.27307e-01	
260	2.950000e+00	-2.95000e+00	-2.58745e-02	-7.28192e-01	
261	3.000000e+00	-3.00000e+00	-2.56870e-02	-7.29072e-01	
262	3.050000e+00	-3.05000e+00	-2.55063e-02	-7.29946e-01	
263	3.100000e+00	-3.10000e+00	-2.53322e-02	-7.30815e-01	
264	3.150000e+00	-3.15000e+00	-2.51643e-02	-7.31679e-01	
265	3.200000e+00	-3.20000e+00	-2.50024e-02	-7.32538e-01	
266	3.250000e+00	-3.25000e+00	-2.48459e-02	-7.33392e-01	
267	3.300000e+00	-3.30000e+00	-2.46949e-02	-7.34241e-01	
268	3.350000e+00	-3.35000e+00	-2.45488e-02	-7.35085e-01	
269	3.400000e+00	-3.40000e+00	-2.44076e-02	-7.35925e-01	
270	3.450000e+00	-3.45000e+00	-2.42709e-02	-7.36760e-01	
271	3.500000e+00	-3.50000e+00	-2.41386e-02	-7.37591e-01	
272	3.550000e+00	-3.55000e+00	-2.40105e-02	-7.38418e-01	
273	3.600000e+00	-3.60000e+00	-2.38864e-02	-7.39241e-01	
274	3.650000e+00	-3.65000e+00	-2.37660e-02	-7.40060e-01	
275	3.700000e+00	-3.70000e+00	-2.36493e-02	-7.40875e-01	
276	3.750000e+00	-3.75000e+00	-2.35361e-02	-7.41686e-01	
277	3.800000e+00	-3.80000e+00	-2.34261e-02	-7.42493e-01	
278	3.850000e+00	-3.85000e+00	-2.33194e-02	-7.43297e-01	
279	3.900000e+00	-3.90000e+00	-2.32158e-02	-7.44097e-01	
280	3.950000e+00	-3.95000e+00	-2.31150e-02	-7.44893e-01	
281	4.000000e+00	-4.00000e+00	-2.30171e-02	-7.45687e-01	
282	4.050000e+00	-4.05000e+00	-2.29219e-02	-7.46477e-01	
283	4.100000e+00	-4.10000e+00	-2.28293e-02	-7.47264e-01	
284	4.150000e+00	-4.15000e+00	-2.27391e-02	-7.48047e-01	
285	4.200000e+00	-4.20000e+00	-2.26514e-02	-7.48828e-01	
286	4.250000e+00	-4.25000e+00	-2.25660e-02	-7.49605e-01	

Index   v-sweep         ib              net-_q1-pad1_   net-_q1-pad2_   
--------------------------------------------------------------------------------
287	4.300000e+00	-4.30000e+00	-2.24828e-02	-7.50380e-01	
288	4.350000e+00	-4.35000e+00	-2.24017e-02	-7.51151e-01	
289	4.400000e+00	-4.40000e+00	-2.23228e-02	-7.51920e-01	
290	4.450000e+00	-4.45000e+00	-2.22458e-02	-7.52686e-01	
291	4.500000e+00	-4.50000e+00	-2.21707e-02	-7.53449e-01	
292	4.550000e+00	-4.55000e+00	-2.20975e-02	-7.54210e-01	
293	4.600000e+00	-4.60000e+00	-2.20260e-02	-7.54968e-01	
294	4.650000e+00	-4.65000e+00	-2.19563e-02	-7.55723e-01	
295	4.700000e+00	-4.70000e+00	-2.18883e-02	-7.56476e-01	
296	4.750000e+00	-4.75000e+00	-2.18218e-02	-7.57226e-01	
297	4.800000e+00	-4.80000e+00	-2.17570e-02	-7.57974e-01	
298	4.850000e+00	-4.85000e+00	-2.16936e-02	-7.58720e-01	
299	4.900000e+00	-4.90000e+00	-2.16317e-02	-7.59463e-01	
300	4.950000e+00	-4.95000e+00	-2.15712e-02	-7.60204e-01	
301	5.000000e+00	-5.00000e+00	-2.15121e-02	-7.60943e-01	
302	5.050000e+00	-5.05000e+00	-2.14543e-02	-7.61680e-01	
303	5.100000e+00	-5.10000e+00	-2.13978e-02	-7.62414e-01	
304	5.150000e+00	-5.15000e+00	-2.13426e-02	-7.63146e-01	
305	5.200000e+00	-5.20000e+00	-2.12885e-02	-7.63876e-01	
306	5.250000e+00	-5.25000e+00	-2.12356e-02	-7.64605e-01	
307	5.300000e+00	-5.30000e+00	-2.11839e-02	-7.65331e-01	
308	5.350000e+00	-5.35000e+00	-2.11332e-02	-7.66055e-01	
309	5.400000e+00	-5.40000e+00	-2.10837e-02	-7.66777e-01	
310	5.450000e+00	-5.45000e+00	-2.10351e-02	-7.67497e-01	
311	5.500000e+00	-5.50000e+00	-2.09876e-02	-7.68216e-01	
312	5.550000e+00	-5.55000e+00	-2.09411e-02	-7.68932e-01	
313	5.600000e+00	-5.60000e+00	-2.08955e-02	-7.69647e-01	
314	5.650000e+00	-5.65000e+00	-2.08508e-02	-7.70360e-01	
315	5.700000e+00	-5.70000e+00	-2.08070e-02	-7.71071e-01	
316	5.750000e+00	-5.75000e+00	-2.07641e-02	-7.71781e-01	
317	5.800000e+00	-5.80000e+00	-2.07221e-02	-7.72488e-01	
318	5.850000e+00	-5.85000e+00	-2.06809e-02	-7.73195e-01	
319	5.900000e+00	-5.90000e+00	-2.06405e-02	-7.73899e-01	
320	5.950000e+00	-5.95000e+00	-2.06009e-02	-7.74602e-01	
321	6.000000e+00	-6.00000e+00	-2.05620e-02	-7.75303e-01	
322	6.050000e+00	-6.05000e+00	-2.05239e-02	-7.76003e-01	
323	6.100000e+00	-6.10000e+00	-2.04866e-02	-7.76701e-01	
324	6.150000e+00	-6.15000e+00	-2.04499e-02	-7.77397e-01	
325	6.200000e+00	-6.20000e+00	-2.04139e-02	-7.78092e-01	
326	6.250000e+00	-6.25000e+00	-2.03786e-02	-7.78786e-01	
327	6.300000e+00	-6.30000e+00	-2.03440e-02	-7.79478e-01	
328	6.350000e+00	-6.35000e+00	-2.03100e-02	-7.80169e-01	
329	6.400000e+00	-6.40000e+00	-2.02766e-02	-7.80858e-01	
330	6.450000e+00	-6.45000e+00	-2.02438e-02	-7.81546e-01	
