 * c:\users\mamat\esim-workspace\serializer_ds90cr285\serializer_ds90cr285.cir
 Transient Analysis  Fri Jun 27 15:45:07  2025
--------------------------------------------------------------------------------
Index   time            ?               clk_in          clk_in_7x       
--------------------------------------------------------------------------------
0	0.000000e+00	0.000000e+00	0.000000e+00	5.000000e+00	
1	1.000000e-13	0.000000e+00	0.000000e+00	5.000000e+00	
2	2.000000e-13	0.000000e+00	0.000000e+00	5.000000e+00	
3	4.000000e-13	0.000000e+00	0.000000e+00	5.000000e+00	
4	8.000000e-13	0.000000e+00	0.000000e+00	5.000000e+00	
5	1.600000e-12	0.000000e+00	0.000000e+00	5.000000e+00	
6	3.200000e-12	0.000000e+00	0.000000e+00	5.000000e+00	
7	6.400000e-12	0.000000e+00	0.000000e+00	5.000000e+00	
8	1.000000e-11	0.000000e+00	0.000000e+00	5.000000e+00	
9	1.064000e-11	0.000000e+00	3.200000e-01	4.680000e+00	
10	1.192000e-11	0.000000e+00	9.600000e-01	4.040000e+00	
11	1.448000e-11	0.000000e+00	2.240000e+00	2.760000e+00	
12	1.960000e-11	0.000000e+00	4.800000e+00	2.000000e-01	
13	2.000000e-11	0.000000e+00	5.000000e+00	0.000000e+00	
14	2.080000e-11	0.000000e+00	5.000000e+00	0.000000e+00	
15	2.240000e-11	0.000000e+00	5.000000e+00	0.000000e+00	
16	2.560000e-11	0.000000e+00	5.000000e+00	0.000000e+00	
17	3.200000e-11	0.000000e+00	5.000000e+00	0.000000e+00	
18	4.480000e-11	0.000000e+00	5.000000e+00	0.000000e+00	
19	7.040000e-11	0.000000e+00	5.000000e+00	0.000000e+00	
20	1.216000e-10	0.000000e+00	5.000000e+00	0.000000e+00	
21	2.240000e-10	0.000000e+00	5.000000e+00	0.000000e+00	
22	4.288000e-10	0.000000e+00	5.000000e+00	0.000000e+00	
23	8.384000e-10	0.000000e+00	5.000000e+00	0.000000e+00	
24	1.657600e-09	0.000000e+00	5.000000e+00	0.000000e+00	
25	3.296000e-09	0.000000e+00	5.000000e+00	0.000000e+00	
26	6.572800e-09	0.000000e+00	5.000000e+00	0.000000e+00	
27	1.312640e-08	0.000000e+00	5.000000e+00	0.000000e+00	
28	2.623360e-08	0.000000e+00	5.000000e+00	0.000000e+00	
29	5.244800e-08	0.000000e+00	5.000000e+00	0.000000e+00	
30	1.048768e-07	0.000000e+00	5.000000e+00	0.000000e+00	
31	2.097344e-07	0.000000e+00	5.000000e+00	0.000000e+00	
32	4.194496e-07	0.000000e+00	5.000000e+00	0.000000e+00	
33	8.388800e-07	0.000000e+00	5.000000e+00	0.000000e+00	
34	1.677741e-06	0.000000e+00	5.000000e+00	0.000000e+00	
35	3.355462e-06	0.000000e+00	5.000000e+00	0.000000e+00	
36	6.710906e-06	0.000000e+00	5.000000e+00	0.000000e+00	
37	1.000002e-05	0.000000e+00	5.000000e+00	0.000000e+00	
38	1.000002e-05	0.000000e+00	5.000000e+00	5.000000e-01	
39	1.000002e-05	0.000000e+00	5.000000e+00	1.500000e+00	
40	1.000003e-05	0.000000e+00	5.000000e+00	3.500000e+00	
41	1.000003e-05	0.000000e+00	5.000000e+00	5.000000e+00	
42	1.000003e-05	0.000000e+00	5.000000e+00	5.000000e+00	
43	1.000003e-05	0.000000e+00	5.000000e+00	5.000000e+00	
44	1.000004e-05	0.000000e+00	5.000000e+00	5.000000e+00	
45	1.000004e-05	0.000000e+00	5.000000e+00	5.000000e+00	
46	1.000005e-05	0.000000e+00	5.000000e+00	5.000000e+00	
47	1.000008e-05	0.000000e+00	5.000000e+00	5.000000e+00	
48	1.000013e-05	0.000000e+00	5.000000e+00	5.000000e+00	
49	1.000023e-05	0.000000e+00	5.000000e+00	5.000000e+00	
50	1.000044e-05	0.000000e+00	5.000000e+00	5.000000e+00	
51	1.000085e-05	0.000000e+00	5.000000e+00	5.000000e+00	
52	1.000167e-05	0.000000e+00	5.000000e+00	5.000000e+00	
53	1.000331e-05	0.000000e+00	5.000000e+00	5.000000e+00	
54	1.000658e-05	0.000000e+00	5.000000e+00	5.000000e+00	

Index   time            ?               clk_in          clk_in_7x       
--------------------------------------------------------------------------------
55	1.001314e-05	0.000000e+00	5.000000e+00	5.000000e+00	
56	1.002624e-05	0.000000e+00	5.000000e+00	5.000000e+00	
57	1.005246e-05	0.000000e+00	5.000000e+00	5.000000e+00	
58	1.010489e-05	0.000000e+00	5.000000e+00	5.000000e+00	
59	1.020974e-05	0.000000e+00	5.000000e+00	5.000000e+00	
60	1.041946e-05	0.000000e+00	5.000000e+00	5.000000e+00	
61	1.083889e-05	0.000000e+00	5.000000e+00	5.000000e+00	
62	1.167775e-05	0.000000e+00	5.000000e+00	5.000000e+00	
63	1.335547e-05	0.000000e+00	5.000000e+00	5.000000e+00	
64	1.671092e-05	0.000000e+00	5.000000e+00	5.000000e+00	
65	2.000001e-05	0.000000e+00	5.000000e+00	5.000000e+00	
66	2.000001e-05	0.000000e+00	5.000000e+00	4.500000e+00	
67	2.000001e-05	0.000000e+00	5.000000e+00	3.500000e+00	
68	2.000002e-05	0.000000e+00	5.000000e+00	1.500000e+00	
69	2.000002e-05	0.000000e+00	5.000000e+00	0.000000e+00	
70	2.000002e-05	0.000000e+00	5.000000e+00	0.000000e+00	
71	2.000002e-05	0.000000e+00	5.000000e+00	0.000000e+00	
72	2.000003e-05	0.000000e+00	5.000000e+00	0.000000e+00	
73	2.000003e-05	0.000000e+00	5.000000e+00	0.000000e+00	
74	2.000004e-05	0.000000e+00	5.000000e+00	0.000000e+00	
75	2.000007e-05	0.000000e+00	5.000000e+00	0.000000e+00	
76	2.000012e-05	0.000000e+00	5.000000e+00	0.000000e+00	
77	2.000022e-05	0.000000e+00	5.000000e+00	0.000000e+00	
78	2.000043e-05	0.000000e+00	5.000000e+00	0.000000e+00	
79	2.000084e-05	0.000000e+00	5.000000e+00	0.000000e+00	
80	2.000166e-05	0.000000e+00	5.000000e+00	0.000000e+00	
81	2.000202e-05	0.000000e+00	5.000000e+00	0.000000e+00	
82	2.000212e-05	0.000000e+00	5.000000e+00	0.000000e+00	
83	2.000232e-05	0.000000e+00	5.000000e+00	0.000000e+00	
84	2.000272e-05	0.000000e+00	5.000000e+00	0.000000e+00	
85	2.000302e-05	0.000000e+00	5.000000e+00	0.000000e+00	
86	2.000310e-05	0.000000e+00	5.000000e+00	0.000000e+00	
87	2.000326e-05	0.000000e+00	5.000000e+00	0.000000e+00	
88	2.000358e-05	0.000000e+00	5.000000e+00	0.000000e+00	
89	2.000422e-05	0.000000e+00	5.000000e+00	0.000000e+00	
90	2.000550e-05	0.000000e+00	5.000000e+00	0.000000e+00	
91	2.000806e-05	0.000000e+00	5.000000e+00	0.000000e+00	
92	2.001318e-05	0.000000e+00	5.000000e+00	0.000000e+00	
93	2.002342e-05	0.000000e+00	5.000000e+00	0.000000e+00	
94	2.004390e-05	0.000000e+00	5.000000e+00	0.000000e+00	
95	2.008486e-05	0.000000e+00	5.000000e+00	0.000000e+00	
96	2.016678e-05	0.000000e+00	5.000000e+00	0.000000e+00	
97	2.033062e-05	0.000000e+00	5.000000e+00	0.000000e+00	
98	2.065830e-05	0.000000e+00	5.000000e+00	0.000000e+00	
99	2.131366e-05	0.000000e+00	5.000000e+00	0.000000e+00	
100	2.262438e-05	0.000000e+00	5.000000e+00	0.000000e+00	
101	2.524582e-05	0.000000e+00	5.000000e+00	0.000000e+00	
102	3.000002e-05	0.000000e+00	5.000000e+00	0.000000e+00	
103	3.000002e-05	0.000000e+00	5.000000e+00	5.000000e-01	
104	3.000002e-05	0.000000e+00	5.000000e+00	1.500000e+00	
105	3.000003e-05	0.000000e+00	5.000000e+00	3.500000e+00	
106	3.000003e-05	0.000000e+00	5.000000e+00	5.000000e+00	
107	3.000003e-05	0.000000e+00	5.000000e+00	5.000000e+00	
108	3.000003e-05	0.000000e+00	5.000000e+00	5.000000e+00	
109	3.000004e-05	0.000000e+00	5.000000e+00	5.000000e+00	
110	3.000004e-05	0.000000e+00	5.000000e+00	5.000000e+00	
111	3.000005e-05	0.000000e+00	5.000000e+00	5.000000e+00	
112	3.000008e-05	0.000000e+00	5.000000e+00	5.000000e+00	

Index   time            ?               clk_in          clk_in_7x       
--------------------------------------------------------------------------------
113	3.000013e-05	0.000000e+00	5.000000e+00	5.000000e+00	
114	3.000023e-05	0.000000e+00	5.000000e+00	5.000000e+00	
115	3.000044e-05	0.000000e+00	5.000000e+00	5.000000e+00	
116	3.000085e-05	0.000000e+00	5.000000e+00	5.000000e+00	
117	3.000167e-05	0.000000e+00	5.000000e+00	5.000000e+00	
118	3.000202e-05	0.000000e+00	5.000000e+00	5.000000e+00	
119	3.000212e-05	0.000000e+00	5.000000e+00	5.000000e+00	
120	3.000232e-05	0.000000e+00	5.000000e+00	5.000000e+00	
121	3.000272e-05	0.000000e+00	5.000000e+00	5.000000e+00	
122	3.000302e-05	0.000000e+00	5.000000e+00	5.000000e+00	
123	3.000310e-05	0.000000e+00	5.000000e+00	5.000000e+00	
124	3.000326e-05	0.000000e+00	5.000000e+00	5.000000e+00	
125	3.000358e-05	0.000000e+00	5.000000e+00	5.000000e+00	
126	3.000422e-05	0.000000e+00	5.000000e+00	5.000000e+00	
127	3.000550e-05	0.000000e+00	5.000000e+00	5.000000e+00	
128	3.000806e-05	0.000000e+00	5.000000e+00	5.000000e+00	
129	3.001318e-05	0.000000e+00	5.000000e+00	5.000000e+00	
130	3.002342e-05	0.000000e+00	5.000000e+00	5.000000e+00	
131	3.004390e-05	0.000000e+00	5.000000e+00	5.000000e+00	
132	3.008486e-05	0.000000e+00	5.000000e+00	5.000000e+00	
133	3.016678e-05	0.000000e+00	5.000000e+00	5.000000e+00	
134	3.033062e-05	0.000000e+00	5.000000e+00	5.000000e+00	
135	3.065830e-05	0.000000e+00	5.000000e+00	5.000000e+00	
136	3.131366e-05	0.000000e+00	5.000000e+00	5.000000e+00	
137	3.262438e-05	0.000000e+00	5.000000e+00	5.000000e+00	
138	3.524582e-05	0.000000e+00	5.000000e+00	5.000000e+00	
139	4.000001e-05	0.000000e+00	5.000000e+00	5.000000e+00	
140	4.000001e-05	0.000000e+00	5.000000e+00	4.500000e+00	
141	4.000001e-05	0.000000e+00	5.000000e+00	3.500000e+00	
142	4.000002e-05	0.000000e+00	5.000000e+00	1.500000e+00	
143	4.000002e-05	0.000000e+00	5.000000e+00	0.000000e+00	
144	4.000002e-05	0.000000e+00	5.000000e+00	0.000000e+00	
145	4.000002e-05	0.000000e+00	5.000000e+00	0.000000e+00	
146	4.000003e-05	0.000000e+00	5.000000e+00	0.000000e+00	
147	4.000003e-05	0.000000e+00	5.000000e+00	0.000000e+00	
148	4.000004e-05	0.000000e+00	5.000000e+00	0.000000e+00	
149	4.000007e-05	0.000000e+00	5.000000e+00	0.000000e+00	
150	4.000012e-05	0.000000e+00	5.000000e+00	0.000000e+00	
151	4.000022e-05	0.000000e+00	5.000000e+00	0.000000e+00	
152	4.000043e-05	0.000000e+00	5.000000e+00	0.000000e+00	
153	4.000084e-05	0.000000e+00	5.000000e+00	0.000000e+00	
154	4.000166e-05	0.000000e+00	5.000000e+00	0.000000e+00	
155	4.000202e-05	0.000000e+00	5.000000e+00	0.000000e+00	
156	4.000212e-05	0.000000e+00	5.000000e+00	0.000000e+00	
157	4.000232e-05	0.000000e+00	5.000000e+00	0.000000e+00	
158	4.000272e-05	0.000000e+00	5.000000e+00	0.000000e+00	
159	4.000302e-05	0.000000e+00	5.000000e+00	0.000000e+00	
160	4.000310e-05	0.000000e+00	5.000000e+00	0.000000e+00	
161	4.000326e-05	0.000000e+00	5.000000e+00	0.000000e+00	
162	4.000358e-05	0.000000e+00	5.000000e+00	0.000000e+00	
163	4.000422e-05	0.000000e+00	5.000000e+00	0.000000e+00	
164	4.000550e-05	0.000000e+00	5.000000e+00	0.000000e+00	
165	4.000806e-05	0.000000e+00	5.000000e+00	0.000000e+00	
166	4.001318e-05	0.000000e+00	5.000000e+00	0.000000e+00	
167	4.002342e-05	0.000000e+00	5.000000e+00	0.000000e+00	
168	4.004390e-05	0.000000e+00	5.000000e+00	0.000000e+00	
169	4.008486e-05	0.000000e+00	5.000000e+00	0.000000e+00	
170	4.016678e-05	0.000000e+00	5.000000e+00	0.000000e+00	

Index   time            ?               clk_in          clk_in_7x       
--------------------------------------------------------------------------------
171	4.033062e-05	0.000000e+00	5.000000e+00	0.000000e+00	
172	4.065830e-05	0.000000e+00	5.000000e+00	0.000000e+00	
173	4.131366e-05	0.000000e+00	5.000000e+00	0.000000e+00	
174	4.262438e-05	0.000000e+00	5.000000e+00	0.000000e+00	
175	4.524582e-05	0.000000e+00	5.000000e+00	0.000000e+00	
176	5.000002e-05	0.000000e+00	5.000000e+00	0.000000e+00	
177	5.000002e-05	0.000000e+00	5.000000e+00	5.000000e-01	
178	5.000002e-05	0.000000e+00	5.000000e+00	1.500000e+00	
179	5.000003e-05	0.000000e+00	5.000000e+00	3.500000e+00	
180	5.000003e-05	0.000000e+00	5.000000e+00	5.000000e+00	
181	5.000003e-05	0.000000e+00	5.000000e+00	5.000000e+00	
182	5.000003e-05	0.000000e+00	5.000000e+00	5.000000e+00	
183	5.000004e-05	0.000000e+00	5.000000e+00	5.000000e+00	
184	5.000004e-05	0.000000e+00	5.000000e+00	5.000000e+00	
185	5.000005e-05	0.000000e+00	5.000000e+00	5.000000e+00	
186	5.000008e-05	0.000000e+00	5.000000e+00	5.000000e+00	
187	5.000013e-05	0.000000e+00	5.000000e+00	5.000000e+00	
188	5.000023e-05	0.000000e+00	5.000000e+00	5.000000e+00	
189	5.000044e-05	0.000000e+00	5.000000e+00	5.000000e+00	
190	5.000085e-05	0.000000e+00	5.000000e+00	5.000000e+00	
191	5.000167e-05	0.000000e+00	5.000000e+00	5.000000e+00	
192	5.000202e-05	0.000000e+00	5.000000e+00	5.000000e+00	
193	5.000212e-05	0.000000e+00	5.000000e+00	5.000000e+00	
194	5.000232e-05	0.000000e+00	5.000000e+00	5.000000e+00	
195	5.000272e-05	0.000000e+00	5.000000e+00	5.000000e+00	
196	5.000302e-05	0.000000e+00	5.000000e+00	5.000000e+00	
197	5.000310e-05	0.000000e+00	5.000000e+00	5.000000e+00	
198	5.000326e-05	0.000000e+00	5.000000e+00	5.000000e+00	
199	5.000358e-05	0.000000e+00	5.000000e+00	5.000000e+00	
200	5.000422e-05	0.000000e+00	5.000000e+00	5.000000e+00	
201	5.000550e-05	0.000000e+00	5.000000e+00	5.000000e+00	
202	5.000806e-05	0.000000e+00	5.000000e+00	5.000000e+00	
203	5.001318e-05	0.000000e+00	5.000000e+00	5.000000e+00	
204	5.002342e-05	0.000000e+00	5.000000e+00	5.000000e+00	
205	5.004390e-05	0.000000e+00	5.000000e+00	5.000000e+00	
206	5.008486e-05	0.000000e+00	5.000000e+00	5.000000e+00	
207	5.016678e-05	0.000000e+00	5.000000e+00	5.000000e+00	
208	5.033062e-05	0.000000e+00	5.000000e+00	5.000000e+00	
209	5.065830e-05	0.000000e+00	5.000000e+00	5.000000e+00	
210	5.131366e-05	0.000000e+00	5.000000e+00	5.000000e+00	
211	5.262438e-05	0.000000e+00	5.000000e+00	5.000000e+00	
212	5.524582e-05	0.000000e+00	5.000000e+00	5.000000e+00	
213	6.000001e-05	0.000000e+00	5.000000e+00	5.000000e+00	
214	6.000001e-05	0.000000e+00	5.000000e+00	4.500000e+00	
215	6.000001e-05	0.000000e+00	5.000000e+00	3.500000e+00	
216	6.000002e-05	0.000000e+00	5.000000e+00	1.500000e+00	
217	6.000002e-05	0.000000e+00	5.000000e+00	0.000000e+00	
218	6.000002e-05	0.000000e+00	5.000000e+00	0.000000e+00	
219	6.000002e-05	0.000000e+00	5.000000e+00	0.000000e+00	
220	6.000003e-05	0.000000e+00	5.000000e+00	0.000000e+00	
221	6.000003e-05	0.000000e+00	5.000000e+00	0.000000e+00	
222	6.000004e-05	0.000000e+00	5.000000e+00	0.000000e+00	
223	6.000007e-05	0.000000e+00	5.000000e+00	0.000000e+00	
224	6.000012e-05	0.000000e+00	5.000000e+00	0.000000e+00	
225	6.000022e-05	0.000000e+00	5.000000e+00	0.000000e+00	
226	6.000043e-05	0.000000e+00	5.000000e+00	0.000000e+00	
227	6.000084e-05	0.000000e+00	5.000000e+00	0.000000e+00	
228	6.000166e-05	0.000000e+00	5.000000e+00	0.000000e+00	

Index   time            ?               clk_in          clk_in_7x       
--------------------------------------------------------------------------------
229	6.000202e-05	0.000000e+00	5.000000e+00	0.000000e+00	
230	6.000212e-05	0.000000e+00	5.000000e+00	0.000000e+00	
231	6.000232e-05	0.000000e+00	5.000000e+00	0.000000e+00	
232	6.000272e-05	0.000000e+00	5.000000e+00	0.000000e+00	
233	6.000302e-05	0.000000e+00	5.000000e+00	0.000000e+00	
234	6.000310e-05	0.000000e+00	5.000000e+00	0.000000e+00	
235	6.000326e-05	0.000000e+00	5.000000e+00	0.000000e+00	
236	6.000358e-05	0.000000e+00	5.000000e+00	0.000000e+00	
237	6.000422e-05	0.000000e+00	5.000000e+00	0.000000e+00	
238	6.000550e-05	0.000000e+00	5.000000e+00	0.000000e+00	
239	6.000806e-05	0.000000e+00	5.000000e+00	0.000000e+00	
240	6.001318e-05	0.000000e+00	5.000000e+00	0.000000e+00	
241	6.002342e-05	0.000000e+00	5.000000e+00	0.000000e+00	
242	6.004390e-05	0.000000e+00	5.000000e+00	0.000000e+00	
243	6.008486e-05	0.000000e+00	5.000000e+00	0.000000e+00	
244	6.016678e-05	0.000000e+00	5.000000e+00	0.000000e+00	
245	6.033062e-05	0.000000e+00	5.000000e+00	0.000000e+00	
246	6.065830e-05	0.000000e+00	5.000000e+00	0.000000e+00	
247	6.131366e-05	0.000000e+00	5.000000e+00	0.000000e+00	
248	6.262438e-05	0.000000e+00	5.000000e+00	0.000000e+00	
249	6.524582e-05	0.000000e+00	5.000000e+00	0.000000e+00	
250	7.000002e-05	0.000000e+00	5.000000e+00	3.388132e-09	
251	7.000002e-05	0.000000e+00	4.500000e+00	5.000000e-01	
252	7.000002e-05	0.000000e+00	3.500000e+00	1.500000e+00	
253	7.000003e-05	0.000000e+00	1.500000e+00	3.500000e+00	
254	7.000003e-05	0.000000e+00	0.000000e+00	5.000000e+00	
255	7.000003e-05	0.000000e+00	0.000000e+00	5.000000e+00	
256	7.000003e-05	0.000000e+00	0.000000e+00	5.000000e+00	
257	7.000004e-05	0.000000e+00	0.000000e+00	5.000000e+00	
258	7.000004e-05	0.000000e+00	0.000000e+00	5.000000e+00	
259	7.000005e-05	0.000000e+00	0.000000e+00	5.000000e+00	
260	7.000008e-05	0.000000e+00	0.000000e+00	5.000000e+00	
261	7.000013e-05	0.000000e+00	0.000000e+00	5.000000e+00	
262	7.000023e-05	0.000000e+00	0.000000e+00	5.000000e+00	
263	7.000044e-05	0.000000e+00	0.000000e+00	5.000000e+00	
264	7.000085e-05	0.000000e+00	0.000000e+00	5.000000e+00	
265	7.000167e-05	0.000000e+00	0.000000e+00	5.000000e+00	
266	7.000202e-05	0.000000e+00	0.000000e+00	5.000000e+00	
267	7.000212e-05	0.000000e+00	0.000000e+00	5.000000e+00	
268	7.000232e-05	0.000000e+00	0.000000e+00	5.000000e+00	
269	7.000272e-05	0.000000e+00	0.000000e+00	5.000000e+00	
270	7.000302e-05	0.000000e+00	0.000000e+00	5.000000e+00	
271	7.000310e-05	0.000000e+00	0.000000e+00	5.000000e+00	
272	7.000326e-05	0.000000e+00	0.000000e+00	5.000000e+00	
273	7.000358e-05	0.000000e+00	0.000000e+00	5.000000e+00	
274	7.000422e-05	0.000000e+00	0.000000e+00	5.000000e+00	
275	7.000550e-05	0.000000e+00	0.000000e+00	5.000000e+00	
276	7.000806e-05	0.000000e+00	0.000000e+00	5.000000e+00	
277	7.001318e-05	0.000000e+00	0.000000e+00	5.000000e+00	
278	7.002342e-05	0.000000e+00	0.000000e+00	5.000000e+00	
279	7.004390e-05	0.000000e+00	0.000000e+00	5.000000e+00	
280	7.008486e-05	0.000000e+00	0.000000e+00	5.000000e+00	
281	7.016678e-05	0.000000e+00	0.000000e+00	5.000000e+00	
282	7.033062e-05	0.000000e+00	0.000000e+00	5.000000e+00	
283	7.065830e-05	0.000000e+00	0.000000e+00	5.000000e+00	
284	7.131366e-05	0.000000e+00	0.000000e+00	5.000000e+00	
285	7.262438e-05	0.000000e+00	0.000000e+00	5.000000e+00	
286	7.524582e-05	0.000000e+00	0.000000e+00	5.000000e+00	

Index   time            ?               clk_in          clk_in_7x       
--------------------------------------------------------------------------------
287	8.000001e-05	0.000000e+00	0.000000e+00	5.000000e+00	
288	8.000001e-05	0.000000e+00	0.000000e+00	4.500000e+00	
289	8.000001e-05	0.000000e+00	0.000000e+00	3.500000e+00	
290	8.000002e-05	0.000000e+00	0.000000e+00	1.500000e+00	
291	8.000002e-05	0.000000e+00	0.000000e+00	0.000000e+00	
292	8.000002e-05	0.000000e+00	0.000000e+00	0.000000e+00	
293	8.000002e-05	0.000000e+00	0.000000e+00	0.000000e+00	
294	8.000003e-05	0.000000e+00	0.000000e+00	0.000000e+00	
295	8.000003e-05	0.000000e+00	0.000000e+00	0.000000e+00	
296	8.000004e-05	0.000000e+00	0.000000e+00	0.000000e+00	
297	8.000007e-05	0.000000e+00	0.000000e+00	0.000000e+00	
298	8.000012e-05	0.000000e+00	0.000000e+00	0.000000e+00	
299	8.000022e-05	0.000000e+00	0.000000e+00	0.000000e+00	
300	8.000043e-05	0.000000e+00	0.000000e+00	0.000000e+00	
301	8.000084e-05	0.000000e+00	0.000000e+00	0.000000e+00	
302	8.000166e-05	0.000000e+00	0.000000e+00	0.000000e+00	
303	8.000202e-05	0.000000e+00	0.000000e+00	0.000000e+00	
304	8.000212e-05	0.000000e+00	0.000000e+00	0.000000e+00	
305	8.000232e-05	0.000000e+00	0.000000e+00	0.000000e+00	
306	8.000272e-05	0.000000e+00	0.000000e+00	0.000000e+00	
307	8.000302e-05	0.000000e+00	0.000000e+00	0.000000e+00	
308	8.000310e-05	0.000000e+00	0.000000e+00	0.000000e+00	
309	8.000326e-05	0.000000e+00	0.000000e+00	0.000000e+00	
310	8.000358e-05	0.000000e+00	0.000000e+00	0.000000e+00	
311	8.000422e-05	0.000000e+00	0.000000e+00	0.000000e+00	
312	8.000550e-05	0.000000e+00	0.000000e+00	0.000000e+00	
313	8.000806e-05	0.000000e+00	0.000000e+00	0.000000e+00	
314	8.001318e-05	0.000000e+00	0.000000e+00	0.000000e+00	
315	8.002342e-05	0.000000e+00	0.000000e+00	0.000000e+00	
316	8.004390e-05	0.000000e+00	0.000000e+00	0.000000e+00	
317	8.008486e-05	0.000000e+00	0.000000e+00	0.000000e+00	
318	8.016678e-05	0.000000e+00	0.000000e+00	0.000000e+00	
319	8.033062e-05	0.000000e+00	0.000000e+00	0.000000e+00	
320	8.065830e-05	0.000000e+00	0.000000e+00	0.000000e+00	
321	8.131366e-05	0.000000e+00	0.000000e+00	0.000000e+00	
322	8.262438e-05	0.000000e+00	0.000000e+00	0.000000e+00	
323	8.524582e-05	0.000000e+00	0.000000e+00	0.000000e+00	
324	9.000002e-05	0.000000e+00	0.000000e+00	0.000000e+00	
325	9.000002e-05	0.000000e+00	0.000000e+00	5.000000e-01	
326	9.000002e-05	0.000000e+00	0.000000e+00	1.500000e+00	
327	9.000003e-05	0.000000e+00	0.000000e+00	3.500000e+00	
328	9.000003e-05	0.000000e+00	0.000000e+00	5.000000e+00	
329	9.000003e-05	0.000000e+00	0.000000e+00	5.000000e+00	
330	9.000003e-05	0.000000e+00	0.000000e+00	5.000000e+00	
331	9.000004e-05	0.000000e+00	0.000000e+00	5.000000e+00	
