        * c:\users\mamat\esim-workspace\bjt_cb_config\bjt_cb_config.cir
        DC transfer characteristic  Tue Jun 24 19:49:39  2025
--------------------------------------------------------------------------------
Index   v-sweep         ie              net-_q1-pad1_   net-_q1-pad3_   
--------------------------------------------------------------------------------
0	-1.00000e+00	1.000000e+00	2.366962e-05	9.999760e-01	
1	-9.80000e-01	9.800000e-01	2.366959e-05	9.799760e-01	
2	-9.60000e-01	9.600000e-01	2.366955e-05	9.599760e-01	
3	-9.40000e-01	9.400000e-01	2.366951e-05	9.399760e-01	
4	-9.20000e-01	9.200000e-01	2.366946e-05	9.199760e-01	
5	-9.00000e-01	9.000000e-01	2.366941e-05	8.999760e-01	
6	-8.80000e-01	8.800000e-01	2.366936e-05	8.799760e-01	
7	-8.60000e-01	8.600000e-01	2.366930e-05	8.599760e-01	
8	-8.40000e-01	8.400000e-01	2.366924e-05	8.399760e-01	
9	-8.20000e-01	8.200000e-01	2.366917e-05	8.199760e-01	
10	-8.00000e-01	8.000000e-01	2.366909e-05	7.999760e-01	
11	-7.80000e-01	7.800000e-01	2.366901e-05	7.799760e-01	
12	-7.60000e-01	7.600000e-01	2.366891e-05	7.599760e-01	
13	-7.40000e-01	7.400000e-01	2.366881e-05	7.399760e-01	
14	-7.20000e-01	7.200000e-01	2.366869e-05	7.199760e-01	
15	-7.00000e-01	7.000000e-01	2.366856e-05	6.999760e-01	
16	-6.80000e-01	6.800000e-01	2.366842e-05	6.799760e-01	
17	-6.60000e-01	6.600000e-01	2.366825e-05	6.599760e-01	
18	-6.40000e-01	6.400000e-01	2.366807e-05	6.399760e-01	
19	-6.20000e-01	6.200000e-01	2.366786e-05	6.199760e-01	
20	-6.00000e-01	6.000000e-01	2.366762e-05	5.999760e-01	
21	-5.80000e-01	5.800000e-01	2.366735e-05	5.799760e-01	
22	-5.60000e-01	5.600000e-01	2.366703e-05	5.599760e-01	
23	-5.40000e-01	5.400000e-01	2.366667e-05	5.399760e-01	
24	-5.20000e-01	5.200000e-01	2.366625e-05	5.199760e-01	
25	-5.00000e-01	5.000000e-01	2.366576e-05	4.999760e-01	
26	-4.80000e-01	4.800000e-01	2.366519e-05	4.799760e-01	
27	-4.60000e-01	4.600000e-01	2.366451e-05	4.599760e-01	
28	-4.40000e-01	4.400000e-01	2.366370e-05	4.399760e-01	
29	-4.20000e-01	4.200000e-01	2.366274e-05	4.199760e-01	
30	-4.00000e-01	4.000000e-01	2.366156e-05	3.999760e-01	
31	-3.80000e-01	3.800000e-01	2.366013e-05	3.799760e-01	
32	-3.60000e-01	3.600000e-01	2.365837e-05	3.599760e-01	
33	-3.40000e-01	3.400000e-01	2.365616e-05	3.399760e-01	
34	-3.20000e-01	3.200000e-01	2.365336e-05	3.199760e-01	
35	-3.00000e-01	3.000000e-01	2.364977e-05	2.999760e-01	
36	-2.80000e-01	2.800000e-01	2.364508e-05	2.799760e-01	
37	-2.60000e-01	2.600000e-01	2.363884e-05	2.599760e-01	
38	-2.40000e-01	2.400000e-01	2.363033e-05	2.399760e-01	
39	-2.20000e-01	2.200000e-01	2.361845e-05	2.199760e-01	
40	-2.00000e-01	2.000000e-01	2.360132e-05	1.999761e-01	
41	-1.80000e-01	1.800000e-01	2.357573e-05	1.799761e-01	
42	-1.60000e-01	1.600000e-01	2.353569e-05	1.599761e-01	
43	-1.40000e-01	1.400000e-01	2.346942e-05	1.399762e-01	
44	-1.20000e-01	1.200000e-01	2.335136e-05	1.199763e-01	
45	-1.00000e-01	1.000000e-01	2.311921e-05	9.997656e-02	
46	-8.00000e-02	8.000000e-02	2.259391e-05	7.997709e-02	
47	-6.00000e-02	6.000000e-02	2.134147e-05	5.997836e-02	
48	-4.00000e-02	4.000000e-02	1.862491e-05	3.998111e-02	
49	-2.00000e-02	2.000000e-02	1.274065e-05	1.998708e-02	
50	7.910339e-16	-7.91034e-16	-2.88926e-13	-3.65331e-14	
51	2.000000e-02	-2.00000e-02	-2.75628e-05	-1.99720e-02	
52	4.000000e-02	-4.00000e-02	-8.70820e-05	-3.99117e-02	
53	6.000000e-02	-6.00000e-02	-2.15104e-04	-5.97819e-02	
54	8.000000e-02	-8.00000e-02	-4.88184e-04	-7.95049e-02	

Index   v-sweep         ie              net-_q1-pad1_   net-_q1-pad3_   
--------------------------------------------------------------------------------
55	1.000000e-01	-1.00000e-01	-1.06072e-03	-9.89244e-02	
56	1.200000e-01	-1.20000e-01	-2.22098e-03	-1.17748e-01	
57	1.400000e-01	-1.40000e-01	-4.43301e-03	-1.35505e-01	
58	1.600000e-01	-1.60000e-01	-8.28541e-03	-1.51598e-01	
59	1.800000e-01	-1.80000e-01	-1.42325e-02	-1.65566e-01	
60	2.000000e-01	-2.00000e-01	-2.23958e-02	-1.77285e-01	
61	2.200000e-01	-2.20000e-01	-3.25609e-02	-1.86969e-01	
62	2.400000e-01	-2.40000e-01	-4.43299e-02	-1.95020e-01	
63	2.600000e-01	-2.60000e-01	-5.74135e-02	-2.01723e-01	
64	2.800000e-01	-2.80000e-01	-7.14612e-02	-2.07421e-01	
65	3.000000e-01	-3.00000e-01	-8.62122e-02	-2.12354e-01	
66	3.200000e-01	-3.20000e-01	-1.01445e-01	-2.16702e-01	
67	3.400000e-01	-3.40000e-01	-1.16933e-01	-2.20614e-01	
68	3.600000e-01	-3.60000e-01	-1.32412e-01	-2.24218e-01	
69	3.800000e-01	-3.80000e-01	-1.47543e-01	-2.27635e-01	
70	4.000000e-01	-4.00000e-01	-1.61922e-01	-2.30972e-01	
71	4.200000e-01	-4.20000e-01	-1.75145e-01	-2.34306e-01	
72	4.400000e-01	-4.40000e-01	-1.86929e-01	-2.37661e-01	
73	4.600000e-01	-4.60000e-01	-1.97184e-01	-2.41016e-01	
74	4.800000e-01	-4.80000e-01	-2.06000e-01	-2.44320e-01	
75	5.000000e-01	-5.00000e-01	-2.13563e-01	-2.47522e-01	
76	5.200000e-01	-5.20000e-01	-2.20084e-01	-2.50587e-01	
77	5.400000e-01	-5.40000e-01	-2.25752e-01	-2.53493e-01	
78	5.600000e-01	-5.60000e-01	-2.30726e-01	-2.56236e-01	
79	5.800000e-01	-5.80000e-01	-2.35131e-01	-2.58817e-01	
80	6.000000e-01	-6.00000e-01	-2.39067e-01	-2.61244e-01	
81	6.200000e-01	-6.20000e-01	-2.42612e-01	-2.63526e-01	
82	6.400000e-01	-6.40000e-01	-2.45829e-01	-2.65675e-01	
83	6.600000e-01	-6.60000e-01	-2.48768e-01	-2.67701e-01	
84	6.800000e-01	-6.80000e-01	-2.51468e-01	-2.69614e-01	
85	7.000000e-01	-7.00000e-01	-2.53963e-01	-2.71424e-01	
86	7.200000e-01	-7.20000e-01	-2.56278e-01	-2.73140e-01	
87	7.400000e-01	-7.40000e-01	-2.58437e-01	-2.74770e-01	
88	7.600000e-01	-7.60000e-01	-2.60457e-01	-2.76320e-01	
89	7.800000e-01	-7.80000e-01	-2.62354e-01	-2.77798e-01	
90	8.000000e-01	-8.00000e-01	-2.64142e-01	-2.79209e-01	
91	8.200000e-01	-8.20000e-01	-2.65832e-01	-2.80558e-01	
92	8.400000e-01	-8.40000e-01	-2.67432e-01	-2.81851e-01	
93	8.600000e-01	-8.60000e-01	-2.68953e-01	-2.83091e-01	
94	8.800000e-01	-8.80000e-01	-2.70400e-01	-2.84283e-01	
95	9.000000e-01	-9.00000e-01	-2.71781e-01	-2.85429e-01	
96	9.200000e-01	-9.20000e-01	-2.73101e-01	-2.86533e-01	
97	9.400000e-01	-9.40000e-01	-2.74365e-01	-2.87597e-01	
98	9.600000e-01	-9.60000e-01	-2.75577e-01	-2.88625e-01	
99	9.800000e-01	-9.80000e-01	-2.76742e-01	-2.89618e-01	
100	1.000000e+00	-1.00000e+00	-2.77862e-01	-2.90579e-01	
101	1.020000e+00	-1.02000e+00	-2.78941e-01	-2.91509e-01	
102	1.040000e+00	-1.04000e+00	-2.79982e-01	-2.92411e-01	
103	1.060000e+00	-1.06000e+00	-2.80987e-01	-2.93287e-01	
104	1.080000e+00	-1.08000e+00	-2.81959e-01	-2.94136e-01	
105	1.100000e+00	-1.10000e+00	-2.82899e-01	-2.94962e-01	
106	1.120000e+00	-1.12000e+00	-2.83810e-01	-2.95765e-01	
107	1.140000e+00	-1.14000e+00	-2.84693e-01	-2.96546e-01	
108	1.160000e+00	-1.16000e+00	-2.85551e-01	-2.97307e-01	
109	1.180000e+00	-1.18000e+00	-2.86383e-01	-2.98049e-01	
110	1.200000e+00	-1.20000e+00	-2.87193e-01	-2.98772e-01	
111	1.220000e+00	-1.22000e+00	-2.87980e-01	-2.99477e-01	
112	1.240000e+00	-1.24000e+00	-2.88747e-01	-3.00166e-01	

Index   v-sweep         ie              net-_q1-pad1_   net-_q1-pad3_   
--------------------------------------------------------------------------------
113	1.260000e+00	-1.26000e+00	-2.89493e-01	-3.00838e-01	
114	1.280000e+00	-1.28000e+00	-2.90221e-01	-3.01496e-01	
115	1.300000e+00	-1.30000e+00	-2.90931e-01	-3.02139e-01	
116	1.320000e+00	-1.32000e+00	-2.91624e-01	-3.02767e-01	
117	1.340000e+00	-1.34000e+00	-2.92301e-01	-3.03383e-01	
118	1.360000e+00	-1.36000e+00	-2.92962e-01	-3.03985e-01	
119	1.380000e+00	-1.38000e+00	-2.93609e-01	-3.04576e-01	
120	1.400000e+00	-1.40000e+00	-2.94241e-01	-3.05154e-01	
121	1.420000e+00	-1.42000e+00	-2.94860e-01	-3.05721e-01	
122	1.440000e+00	-1.44000e+00	-2.95465e-01	-3.06277e-01	
123	1.460000e+00	-1.46000e+00	-2.96058e-01	-3.06823e-01	
124	1.480000e+00	-1.48000e+00	-2.96640e-01	-3.07359e-01	
125	1.500000e+00	-1.50000e+00	-2.97210e-01	-3.07885e-01	
126	1.520000e+00	-1.52000e+00	-2.97768e-01	-3.08401e-01	
127	1.540000e+00	-1.54000e+00	-2.98316e-01	-3.08908e-01	
128	1.560000e+00	-1.56000e+00	-2.98854e-01	-3.09407e-01	
129	1.580000e+00	-1.58000e+00	-2.99382e-01	-3.09897e-01	
130	1.600000e+00	-1.60000e+00	-2.99901e-01	-3.10379e-01	
131	1.620000e+00	-1.62000e+00	-3.00410e-01	-3.10853e-01	
132	1.640000e+00	-1.64000e+00	-3.00911e-01	-3.11320e-01	
133	1.660000e+00	-1.66000e+00	-3.01403e-01	-3.11779e-01	
134	1.680000e+00	-1.68000e+00	-3.01887e-01	-3.12231e-01	
135	1.700000e+00	-1.70000e+00	-3.02363e-01	-3.12676e-01	
136	1.720000e+00	-1.72000e+00	-3.02831e-01	-3.13114e-01	
137	1.740000e+00	-1.74000e+00	-3.03292e-01	-3.13546e-01	
138	1.760000e+00	-1.76000e+00	-3.03745e-01	-3.13971e-01	
139	1.780000e+00	-1.78000e+00	-3.04192e-01	-3.14391e-01	
140	1.800000e+00	-1.80000e+00	-3.04632e-01	-3.14804e-01	
141	1.820000e+00	-1.82000e+00	-3.05065e-01	-3.15211e-01	
142	1.840000e+00	-1.84000e+00	-3.05492e-01	-3.15613e-01	
143	1.860000e+00	-1.86000e+00	-3.05912e-01	-3.16010e-01	
144	1.880000e+00	-1.88000e+00	-3.06327e-01	-3.16401e-01	
145	1.900000e+00	-1.90000e+00	-3.06736e-01	-3.16787e-01	
146	1.920000e+00	-1.92000e+00	-3.07139e-01	-3.17168e-01	
147	1.940000e+00	-1.94000e+00	-3.07536e-01	-3.17544e-01	
148	1.960000e+00	-1.96000e+00	-3.07929e-01	-3.17915e-01	
149	1.980000e+00	-1.98000e+00	-3.08316e-01	-3.18282e-01	
150	2.000000e+00	-2.00000e+00	-3.08698e-01	-3.18644e-01	
151	2.020000e+00	-2.02000e+00	-3.09075e-01	-3.19001e-01	
152	2.040000e+00	-2.04000e+00	-3.09447e-01	-3.19355e-01	
153	2.060000e+00	-2.06000e+00	-3.09815e-01	-3.19704e-01	
154	2.080000e+00	-2.08000e+00	-3.10178e-01	-3.20049e-01	
155	2.100000e+00	-2.10000e+00	-3.10536e-01	-3.20390e-01	
156	2.120000e+00	-2.12000e+00	-3.10890e-01	-3.20727e-01	
157	2.140000e+00	-2.14000e+00	-3.11240e-01	-3.21060e-01	
158	2.160000e+00	-2.16000e+00	-3.11586e-01	-3.21390e-01	
159	2.180000e+00	-2.18000e+00	-3.11928e-01	-3.21716e-01	
160	2.200000e+00	-2.20000e+00	-3.12266e-01	-3.22038e-01	
161	2.220000e+00	-2.22000e+00	-3.12600e-01	-3.22357e-01	
162	2.240000e+00	-2.24000e+00	-3.12930e-01	-3.22673e-01	
163	2.260000e+00	-2.26000e+00	-3.13257e-01	-3.22985e-01	
164	2.280000e+00	-2.28000e+00	-3.13580e-01	-3.23294e-01	
165	2.300000e+00	-2.30000e+00	-3.13899e-01	-3.23599e-01	
166	2.320000e+00	-2.32000e+00	-3.14216e-01	-3.23902e-01	
167	2.340000e+00	-2.34000e+00	-3.14528e-01	-3.24201e-01	
168	2.360000e+00	-2.36000e+00	-3.14838e-01	-3.24498e-01	
169	2.380000e+00	-2.38000e+00	-3.15144e-01	-3.24792e-01	
170	2.400000e+00	-2.40000e+00	-3.15447e-01	-3.25082e-01	

Index   v-sweep         ie              net-_q1-pad1_   net-_q1-pad3_   
--------------------------------------------------------------------------------
171	2.420000e+00	-2.42000e+00	-3.15748e-01	-3.25370e-01	
172	2.440000e+00	-2.44000e+00	-3.16045e-01	-3.25656e-01	
173	2.460000e+00	-2.46000e+00	-3.16339e-01	-3.25938e-01	
174	2.480000e+00	-2.48000e+00	-3.16630e-01	-3.26218e-01	
175	2.500000e+00	-2.50000e+00	-3.16919e-01	-3.26495e-01	
176	2.520000e+00	-2.52000e+00	-3.17204e-01	-3.26770e-01	
177	2.540000e+00	-2.54000e+00	-3.17487e-01	-3.27042e-01	
178	2.560000e+00	-2.56000e+00	-3.17767e-01	-3.27312e-01	
179	2.580000e+00	-2.58000e+00	-3.18045e-01	-3.27579e-01	
180	2.600000e+00	-2.60000e+00	-3.18320e-01	-3.27844e-01	
181	2.620000e+00	-2.62000e+00	-3.18593e-01	-3.28107e-01	
182	2.640000e+00	-2.64000e+00	-3.18863e-01	-3.28367e-01	
183	2.660000e+00	-2.66000e+00	-3.19131e-01	-3.28626e-01	
184	2.680000e+00	-2.68000e+00	-3.19396e-01	-3.28882e-01	
185	2.700000e+00	-2.70000e+00	-3.19659e-01	-3.29135e-01	
186	2.720000e+00	-2.72000e+00	-3.19920e-01	-3.29387e-01	
187	2.740000e+00	-2.74000e+00	-3.20179e-01	-3.29637e-01	
188	2.760000e+00	-2.76000e+00	-3.20435e-01	-3.29884e-01	
189	2.780000e+00	-2.78000e+00	-3.20689e-01	-3.30130e-01	
190	2.800000e+00	-2.80000e+00	-3.20941e-01	-3.30374e-01	
191	2.820000e+00	-2.82000e+00	-3.21191e-01	-3.30615e-01	
192	2.840000e+00	-2.84000e+00	-3.21439e-01	-3.30855e-01	
193	2.860000e+00	-2.86000e+00	-3.21685e-01	-3.31093e-01	
194	2.880000e+00	-2.88000e+00	-3.21929e-01	-3.31329e-01	
195	2.900000e+00	-2.90000e+00	-3.22171e-01	-3.31563e-01	
196	2.920000e+00	-2.92000e+00	-3.22411e-01	-3.31796e-01	
197	2.940000e+00	-2.94000e+00	-3.22649e-01	-3.32027e-01	
198	2.960000e+00	-2.96000e+00	-3.22885e-01	-3.32256e-01	
199	2.980000e+00	-2.98000e+00	-3.23120e-01	-3.32483e-01	
200	3.000000e+00	-3.00000e+00	-3.23353e-01	-3.32709e-01	
201	3.020000e+00	-3.02000e+00	-3.23584e-01	-3.32933e-01	
202	3.040000e+00	-3.04000e+00	-3.23813e-01	-3.33155e-01	
203	3.060000e+00	-3.06000e+00	-3.24040e-01	-3.33376e-01	
204	3.080000e+00	-3.08000e+00	-3.24266e-01	-3.33595e-01	
205	3.100000e+00	-3.10000e+00	-3.24490e-01	-3.33813e-01	
206	3.120000e+00	-3.12000e+00	-3.24713e-01	-3.34029e-01	
207	3.140000e+00	-3.14000e+00	-3.24934e-01	-3.34243e-01	
208	3.160000e+00	-3.16000e+00	-3.25153e-01	-3.34456e-01	
209	3.180000e+00	-3.18000e+00	-3.25371e-01	-3.34668e-01	
210	3.200000e+00	-3.20000e+00	-3.25587e-01	-3.34878e-01	
211	3.220000e+00	-3.22000e+00	-3.25802e-01	-3.35087e-01	
212	3.240000e+00	-3.24000e+00	-3.26015e-01	-3.35295e-01	
213	3.260000e+00	-3.26000e+00	-3.26227e-01	-3.35501e-01	
214	3.280000e+00	-3.28000e+00	-3.26437e-01	-3.35705e-01	
215	3.300000e+00	-3.30000e+00	-3.26646e-01	-3.35909e-01	
216	3.320000e+00	-3.32000e+00	-3.26854e-01	-3.36111e-01	
217	3.340000e+00	-3.34000e+00	-3.27060e-01	-3.36312e-01	
218	3.360000e+00	-3.36000e+00	-3.27265e-01	-3.36511e-01	
219	3.380000e+00	-3.38000e+00	-3.27468e-01	-3.36709e-01	
220	3.400000e+00	-3.40000e+00	-3.27670e-01	-3.36906e-01	
221	3.420000e+00	-3.42000e+00	-3.27871e-01	-3.37102e-01	
222	3.440000e+00	-3.44000e+00	-3.28071e-01	-3.37296e-01	
223	3.460000e+00	-3.46000e+00	-3.28269e-01	-3.37490e-01	
224	3.480000e+00	-3.48000e+00	-3.28466e-01	-3.37682e-01	
225	3.500000e+00	-3.50000e+00	-3.28662e-01	-3.37873e-01	
226	3.520000e+00	-3.52000e+00	-3.28856e-01	-3.38063e-01	
227	3.540000e+00	-3.54000e+00	-3.29050e-01	-3.38251e-01	
228	3.560000e+00	-3.56000e+00	-3.29242e-01	-3.38439e-01	

Index   v-sweep         ie              net-_q1-pad1_   net-_q1-pad3_   
--------------------------------------------------------------------------------
229	3.580000e+00	-3.58000e+00	-3.29433e-01	-3.38625e-01	
230	3.600000e+00	-3.60000e+00	-3.29623e-01	-3.38811e-01	
231	3.620000e+00	-3.62000e+00	-3.29811e-01	-3.38995e-01	
232	3.640000e+00	-3.64000e+00	-3.29999e-01	-3.39178e-01	
233	3.660000e+00	-3.66000e+00	-3.30185e-01	-3.39360e-01	
234	3.680000e+00	-3.68000e+00	-3.30371e-01	-3.39541e-01	
235	3.700000e+00	-3.70000e+00	-3.30555e-01	-3.39721e-01	
236	3.720000e+00	-3.72000e+00	-3.30738e-01	-3.39900e-01	
237	3.740000e+00	-3.74000e+00	-3.30920e-01	-3.40079e-01	
238	3.760000e+00	-3.76000e+00	-3.31101e-01	-3.40256e-01	
239	3.780000e+00	-3.78000e+00	-3.31281e-01	-3.40432e-01	
240	3.800000e+00	-3.80000e+00	-3.31460e-01	-3.40607e-01	
241	3.820000e+00	-3.82000e+00	-3.31639e-01	-3.40781e-01	
242	3.840000e+00	-3.84000e+00	-3.31816e-01	-3.40954e-01	
243	3.860000e+00	-3.86000e+00	-3.31992e-01	-3.41127e-01	
244	3.880000e+00	-3.88000e+00	-3.32167e-01	-3.41298e-01	
245	3.900000e+00	-3.90000e+00	-3.32341e-01	-3.41469e-01	
246	3.920000e+00	-3.92000e+00	-3.32514e-01	-3.41638e-01	
247	3.940000e+00	-3.94000e+00	-3.32686e-01	-3.41807e-01	
248	3.960000e+00	-3.96000e+00	-3.32858e-01	-3.41975e-01	
249	3.980000e+00	-3.98000e+00	-3.33028e-01	-3.42142e-01	
250	4.000000e+00	-4.00000e+00	-3.33198e-01	-3.42308e-01	
251	4.020000e+00	-4.02000e+00	-3.33366e-01	-3.42473e-01	
252	4.040000e+00	-4.04000e+00	-3.33534e-01	-3.42637e-01	
253	4.060000e+00	-4.06000e+00	-3.33701e-01	-3.42801e-01	
254	4.080000e+00	-4.08000e+00	-3.33867e-01	-3.42964e-01	
255	4.100000e+00	-4.10000e+00	-3.34032e-01	-3.43126e-01	
256	4.120000e+00	-4.12000e+00	-3.34197e-01	-3.43287e-01	
257	4.140000e+00	-4.14000e+00	-3.34360e-01	-3.43447e-01	
258	4.160000e+00	-4.16000e+00	-3.34523e-01	-3.43607e-01	
259	4.180000e+00	-4.18000e+00	-3.34685e-01	-3.43765e-01	
260	4.200000e+00	-4.20000e+00	-3.34846e-01	-3.43923e-01	
261	4.220000e+00	-4.22000e+00	-3.35006e-01	-3.44081e-01	
262	4.240000e+00	-4.24000e+00	-3.35165e-01	-3.44237e-01	
263	4.260000e+00	-4.26000e+00	-3.35324e-01	-3.44393e-01	
264	4.280000e+00	-4.28000e+00	-3.35482e-01	-3.44548e-01	
265	4.300000e+00	-4.30000e+00	-3.35639e-01	-3.44702e-01	
266	4.320000e+00	-4.32000e+00	-3.35795e-01	-3.44856e-01	
267	4.340000e+00	-4.34000e+00	-3.35951e-01	-3.45009e-01	
268	4.360000e+00	-4.36000e+00	-3.36106e-01	-3.45161e-01	
269	4.380000e+00	-4.38000e+00	-3.36260e-01	-3.45312e-01	
270	4.400000e+00	-4.40000e+00	-3.36414e-01	-3.45463e-01	
271	4.420000e+00	-4.42000e+00	-3.36566e-01	-3.45613e-01	
272	4.440000e+00	-4.44000e+00	-3.36718e-01	-3.45763e-01	
273	4.460000e+00	-4.46000e+00	-3.36870e-01	-3.45911e-01	
274	4.480000e+00	-4.48000e+00	-3.37020e-01	-3.46059e-01	
275	4.500000e+00	-4.50000e+00	-3.37170e-01	-3.46207e-01	
276	4.520000e+00	-4.52000e+00	-3.37320e-01	-3.46354e-01	
277	4.540000e+00	-4.54000e+00	-3.37468e-01	-3.46500e-01	
278	4.560000e+00	-4.56000e+00	-3.37616e-01	-3.46645e-01	
279	4.580000e+00	-4.58000e+00	-3.37763e-01	-3.46790e-01	
280	4.600000e+00	-4.60000e+00	-3.37910e-01	-3.46934e-01	
281	4.620000e+00	-4.62000e+00	-3.38056e-01	-3.47078e-01	
282	4.640000e+00	-4.64000e+00	-3.38201e-01	-3.47221e-01	
283	4.660000e+00	-4.66000e+00	-3.38346e-01	-3.47363e-01	
284	4.680000e+00	-4.68000e+00	-3.38490e-01	-3.47505e-01	
285	4.700000e+00	-4.70000e+00	-3.38633e-01	-3.47646e-01	
286	4.720000e+00	-4.72000e+00	-3.38776e-01	-3.47787e-01	

Index   v-sweep         ie              net-_q1-pad1_   net-_q1-pad3_   
--------------------------------------------------------------------------------
287	4.740000e+00	-4.74000e+00	-3.38918e-01	-3.47927e-01	
288	4.760000e+00	-4.76000e+00	-3.39060e-01	-3.48066e-01	
289	4.780000e+00	-4.78000e+00	-3.39201e-01	-3.48205e-01	
290	4.800000e+00	-4.80000e+00	-3.39341e-01	-3.48343e-01	
291	4.820000e+00	-4.82000e+00	-3.39481e-01	-3.48481e-01	
292	4.840000e+00	-4.84000e+00	-3.39620e-01	-3.48618e-01	
293	4.860000e+00	-4.86000e+00	-3.39759e-01	-3.48755e-01	
294	4.880000e+00	-4.88000e+00	-3.39897e-01	-3.48891e-01	
295	4.900000e+00	-4.90000e+00	-3.40035e-01	-3.49026e-01	
296	4.920000e+00	-4.92000e+00	-3.40172e-01	-3.49161e-01	
297	4.940000e+00	-4.94000e+00	-3.40308e-01	-3.49296e-01	
298	4.960000e+00	-4.96000e+00	-3.40444e-01	-3.49430e-01	
299	4.980000e+00	-4.98000e+00	-3.40579e-01	-3.49563e-01	
300	5.000000e+00	-5.00000e+00	-3.40714e-01	-3.49696e-01	
301	5.020000e+00	-5.02000e+00	-3.40848e-01	-3.49828e-01	
302	5.040000e+00	-5.04000e+00	-3.40982e-01	-3.49960e-01	
303	5.060000e+00	-5.06000e+00	-3.41115e-01	-3.50091e-01	
304	5.080000e+00	-5.08000e+00	-3.41248e-01	-3.50222e-01	
305	5.100000e+00	-5.10000e+00	-3.41380e-01	-3.50352e-01	
306	5.120000e+00	-5.12000e+00	-3.41511e-01	-3.50482e-01	
307	5.140000e+00	-5.14000e+00	-3.41643e-01	-3.50612e-01	
308	5.160000e+00	-5.16000e+00	-3.41773e-01	-3.50740e-01	
309	5.180000e+00	-5.18000e+00	-3.41903e-01	-3.50869e-01	
310	5.200000e+00	-5.20000e+00	-3.42033e-01	-3.50997e-01	
311	5.220000e+00	-5.22000e+00	-3.42162e-01	-3.51124e-01	
312	5.240000e+00	-5.24000e+00	-3.42291e-01	-3.51251e-01	
313	5.260000e+00	-5.26000e+00	-3.42419e-01	-3.51378e-01	
314	5.280000e+00	-5.28000e+00	-3.42546e-01	-3.51504e-01	
315	5.300000e+00	-5.30000e+00	-3.42674e-01	-3.51629e-01	
316	5.320000e+00	-5.32000e+00	-3.42800e-01	-3.51754e-01	
317	5.340000e+00	-5.34000e+00	-3.42927e-01	-3.51879e-01	
318	5.360000e+00	-5.36000e+00	-3.43052e-01	-3.52003e-01	
319	5.380000e+00	-5.38000e+00	-3.43178e-01	-3.52127e-01	
320	5.400000e+00	-5.40000e+00	-3.43303e-01	-3.52250e-01	
321	5.420000e+00	-5.42000e+00	-3.43427e-01	-3.52373e-01	
322	5.440000e+00	-5.44000e+00	-3.43551e-01	-3.52496e-01	
323	5.460000e+00	-5.46000e+00	-3.43675e-01	-3.52618e-01	
324	5.480000e+00	-5.48000e+00	-3.43798e-01	-3.52739e-01	
325	5.500000e+00	-5.50000e+00	-3.43920e-01	-3.52861e-01	
326	5.520000e+00	-5.52000e+00	-3.44043e-01	-3.52981e-01	
327	5.540000e+00	-5.54000e+00	-3.44165e-01	-3.53102e-01	
328	5.560000e+00	-5.56000e+00	-3.44286e-01	-3.53222e-01	
329	5.580000e+00	-5.58000e+00	-3.44407e-01	-3.53341e-01	
330	5.600000e+00	-5.60000e+00	-3.44527e-01	-3.53460e-01	
331	5.620000e+00	-5.62000e+00	-3.44648e-01	-3.53579e-01	
