* c:\users\mamat\onedrive\desktop\ajay_esim\final_project_files\device_modelling\2n5401\bjt_amplifier\bjt_amplifier.cir
Transient Analysis  Tue Jun 24 15:55:40  2025
--------------------------------------------------------------------------------
Index   time            v1#branch       v2#branch       
--------------------------------------------------------------------------------
0	0.000000e+00	-1.00945e-03	0.000000e+00	
1	1.000000e-07	-1.00975e-03	2.398331e-08	
2	2.000000e-07	-1.00970e-03	-5.45341e-09	
3	4.000000e-07	-1.00956e-03	-1.84331e-08	
4	8.000000e-07	-1.00925e-03	-1.94018e-08	
5	1.600000e-06	-1.00866e-03	-4.10683e-08	
6	3.200000e-06	-1.00745e-03	-6.66708e-08	
7	6.400000e-06	-1.00507e-03	-1.34167e-07	
8	1.280000e-05	-1.00036e-03	-2.51309e-07	
9	2.280000e-05	-9.93203e-04	-4.43382e-07	
10	3.280000e-05	-9.86283e-04	-6.18780e-07	
11	4.280000e-05	-9.79636e-04	-7.98146e-07	
12	5.280000e-05	-9.73257e-04	-9.60116e-07	
13	6.280000e-05	-9.67178e-04	-1.12517e-06	
14	7.280000e-05	-9.61389e-04	-1.27229e-06	
15	8.280000e-05	-9.55919e-04	-1.42180e-06	
16	9.280000e-05	-9.50756e-04	-1.55303e-06	
17	1.028000e-04	-9.45923e-04	-1.68611e-06	
18	1.128000e-04	-9.41408e-04	-1.80068e-06	
19	1.228000e-04	-9.37230e-04	-1.91669e-06	
20	1.328000e-04	-9.33376e-04	-2.01409e-06	
21	1.428000e-04	-9.29863e-04	-2.11262e-06	
22	1.528000e-04	-9.26677e-04	-2.19250e-06	
23	1.628000e-04	-9.23833e-04	-2.27327e-06	
24	1.728000e-04	-9.21317e-04	-2.33543e-06	
25	1.828000e-04	-9.19143e-04	-2.39829e-06	
26	1.928000e-04	-9.17297e-04	-2.44259e-06	
27	2.028000e-04	-9.15793e-04	-2.48745e-06	
28	2.128000e-04	-9.14615e-04	-2.51384e-06	
29	2.228000e-04	-9.13779e-04	-2.54064e-06	
30	2.328000e-04	-9.13270e-04	-2.54908e-06	
31	2.428000e-04	-9.13101e-04	-2.55781e-06	
32	2.528000e-04	-9.13259e-04	-2.54826e-06	
33	2.628000e-04	-9.13758e-04	-2.53889e-06	
34	2.728000e-04	-9.14585e-04	-2.51136e-06	
35	2.828000e-04	-9.15754e-04	-2.48388e-06	
36	2.928000e-04	-9.17251e-04	-2.43836e-06	
37	3.028000e-04	-9.19091e-04	-2.39279e-06	
38	3.128000e-04	-9.21262e-04	-2.32929e-06	
39	3.228000e-04	-9.23776e-04	-2.26568e-06	
40	3.328000e-04	-9.26621e-04	-2.18430e-06	
41	3.428000e-04	-9.29810e-04	-2.10274e-06	
42	3.528000e-04	-9.33329e-04	-2.00363e-06	
43	3.628000e-04	-9.37190e-04	-1.90436e-06	
44	3.728000e-04	-9.41379e-04	-1.78780e-06	
45	3.828000e-04	-9.45905e-04	-1.67117e-06	
46	3.928000e-04	-9.50753e-04	-1.53763e-06	
47	4.028000e-04	-9.55930e-04	-1.40422e-06	
48	4.128000e-04	-9.61416e-04	-1.25438e-06	
49	4.228000e-04	-9.67218e-04	-1.10503e-06	
50	4.328000e-04	-9.73312e-04	-9.39912e-07	
51	4.428000e-04	-9.79700e-04	-7.75790e-07	
52	4.528000e-04	-9.86355e-04	-5.96743e-07	
53	4.628000e-04	-9.93275e-04	-4.19419e-07	
54	4.728000e-04	-1.00043e-03	-2.28238e-07	

Index   time            v1#branch       v2#branch       
--------------------------------------------------------------------------------
55	4.828000e-04	-1.00780e-03	-3.97332e-08	
56	4.928000e-04	-1.01537e-03	1.613151e-07	
57	5.028000e-04	-1.02311e-03	3.584811e-07	
58	5.128000e-04	-1.03098e-03	5.666188e-07	
59	5.228000e-04	-1.03897e-03	7.694101e-07	
60	5.328000e-04	-1.04703e-03	9.813422e-07	
61	5.428000e-04	-1.05513e-03	1.186213e-06	
62	5.528000e-04	-1.06321e-03	1.398153e-06	
63	5.628000e-04	-1.07126e-03	1.601094e-06	
64	5.728000e-04	-1.07922e-03	1.808829e-06	
65	5.828000e-04	-1.08705e-03	2.005452e-06	
66	5.928000e-04	-1.09469e-03	2.204448e-06	
67	6.028000e-04	-1.10211e-03	2.390111e-06	
68	6.128000e-04	-1.10924e-03	2.575663e-06	
69	6.228000e-04	-1.11607e-03	2.745644e-06	
70	6.328000e-04	-1.12251e-03	2.913057e-06	
71	6.428000e-04	-1.12855e-03	3.062740e-06	
72	6.528000e-04	-1.13413e-03	3.207539e-06	
73	6.628000e-04	-1.13921e-03	3.332640e-06	
74	6.728000e-04	-1.14374e-03	3.450785e-06	
75	6.828000e-04	-1.14772e-03	3.547563e-06	
76	6.928000e-04	-1.15108e-03	3.635664e-06	
77	7.028000e-04	-1.15382e-03	3.701124e-06	
78	7.128000e-04	-1.15591e-03	3.756626e-06	
79	7.228000e-04	-1.15733e-03	3.788684e-06	
80	7.328000e-04	-1.15807e-03	3.810011e-06	
81	7.428000e-04	-1.15814e-03	3.807614e-06	
82	7.528000e-04	-1.15751e-03	3.794255e-06	
83	7.628000e-04	-1.15622e-03	3.757437e-06	
84	7.728000e-04	-1.15425e-03	3.709971e-06	
85	7.828000e-04	-1.15164e-03	3.639842e-06	
86	7.928000e-04	-1.14840e-03	3.559900e-06	
87	8.028000e-04	-1.14456e-03	3.458575e-06	
88	8.128000e-04	-1.14014e-03	3.348732e-06	
89	8.228000e-04	-1.13519e-03	3.219204e-06	
90	8.328000e-04	-1.12973e-03	3.082832e-06	
91	8.428000e-04	-1.12382e-03	2.928797e-06	
92	8.528000e-04	-1.11748e-03	2.769873e-06	
93	8.628000e-04	-1.11078e-03	2.595532e-06	
94	8.728000e-04	-1.10374e-03	2.418436e-06	
95	8.828000e-04	-1.09642e-03	2.228287e-06	
96	8.928000e-04	-1.08886e-03	2.037590e-06	
97	9.028000e-04	-1.08112e-03	1.836222e-06	
98	9.128000e-04	-1.07323e-03	1.636494e-06	
99	9.228000e-04	-1.06524e-03	1.428407e-06	
100	9.328000e-04	-1.05719e-03	1.224047e-06	
101	9.428000e-04	-1.04913e-03	1.013498e-06	
102	9.528000e-04	-1.04108e-03	8.085989e-07	
103	9.628000e-04	-1.03310e-03	5.994875e-07	
104	9.728000e-04	-1.02520e-03	3.977386e-07	
105	9.828000e-04	-1.01743e-03	1.935255e-07	
106	9.928000e-04	-1.00980e-03	-1.84476e-09	
107	1.002800e-03	-1.00236e-03	-1.98176e-07	
108	1.012800e-03	-9.95116e-04	-3.84426e-07	
109	1.022800e-03	-9.88098e-04	-5.70380e-07	
110	1.032800e-03	-9.81317e-04	-7.45250e-07	
111	1.042800e-03	-9.74798e-04	-9.18798e-07	
112	1.052800e-03	-9.68546e-04	-1.08048e-06	

Index   time            v1#branch       v2#branch       
--------------------------------------------------------------------------------
113	1.062800e-03	-9.62583e-04	-1.24003e-06	
114	1.072800e-03	-9.56910e-04	-1.38712e-06	
115	1.082800e-03	-9.51544e-04	-1.53145e-06	
116	1.092800e-03	-9.46484e-04	-1.66291e-06	
117	1.102800e-03	-9.41743e-04	-1.79113e-06	
118	1.112800e-03	-9.37319e-04	-1.90619e-06	
119	1.122800e-03	-9.33221e-04	-2.01767e-06	
120	1.132800e-03	-9.29445e-04	-2.11582e-06	
121	1.142800e-03	-9.25999e-04	-2.21014e-06	
122	1.152800e-03	-9.22879e-04	-2.29103e-06	
123	1.162800e-03	-9.20091e-04	-2.36791e-06	
124	1.172800e-03	-9.17629e-04	-2.43132e-06	
125	1.182800e-03	-9.15499e-04	-2.49060e-06	
126	1.192800e-03	-9.13695e-04	-2.53642e-06	
127	1.202800e-03	-9.12223e-04	-2.57800e-06	
128	1.212800e-03	-9.11076e-04	-2.60614e-06	
129	1.222800e-03	-9.10261e-04	-2.62996e-06	
130	1.232800e-03	-9.09771e-04	-2.64039e-06	
131	1.242800e-03	-9.09612e-04	-2.64643e-06	
132	1.252800e-03	-9.09778e-04	-2.63910e-06	
133	1.262800e-03	-9.10276e-04	-2.62733e-06	
134	1.272800e-03	-9.11101e-04	-2.60224e-06	
135	1.282800e-03	-9.12258e-04	-2.57265e-06	
136	1.292800e-03	-9.13742e-04	-2.52979e-06	
137	1.302800e-03	-9.15560e-04	-2.48237e-06	
138	1.312800e-03	-9.17706e-04	-2.42177e-06	
139	1.322800e-03	-9.20188e-04	-2.35657e-06	
140	1.332800e-03	-9.22999e-04	-2.27829e-06	
141	1.342800e-03	-9.26146e-04	-2.19542e-06	
142	1.352800e-03	-9.29621e-04	-2.09961e-06	
143	1.362800e-03	-9.33430e-04	-1.99928e-06	
144	1.372800e-03	-9.37566e-04	-1.88622e-06	
145	1.382800e-03	-9.42031e-04	-1.76879e-06	
146	1.392800e-03	-9.46816e-04	-1.63892e-06	
147	1.402800e-03	-9.51923e-04	-1.50494e-06	
148	1.412800e-03	-9.57339e-04	-1.35896e-06	
149	1.422800e-03	-9.63063e-04	-1.20925e-06	
150	1.432800e-03	-9.69079e-04	-1.04813e-06	
151	1.442800e-03	-9.75382e-04	-8.83847e-07	
152	1.452800e-03	-9.81952e-04	-7.08924e-07	
153	1.462800e-03	-9.88781e-04	-5.31610e-07	
154	1.472800e-03	-9.95843e-04	-3.44646e-07	
155	1.482800e-03	-1.00313e-03	-1.56287e-07	
156	1.492800e-03	-1.01060e-03	4.048770e-08	
157	1.502800e-03	-1.01824e-03	2.374116e-07	
158	1.512800e-03	-1.02602e-03	4.412632e-07	
159	1.522800e-03	-1.03391e-03	6.437625e-07	
160	1.532800e-03	-1.04187e-03	8.514454e-07	
161	1.542800e-03	-1.04987e-03	1.056027e-06	
162	1.552800e-03	-1.05786e-03	1.263809e-06	
163	1.562800e-03	-1.06582e-03	1.466519e-06	
164	1.572800e-03	-1.07369e-03	1.670246e-06	
165	1.582800e-03	-1.08143e-03	1.866754e-06	
166	1.592800e-03	-1.08899e-03	2.061952e-06	
167	1.602800e-03	-1.09633e-03	2.247679e-06	
168	1.612800e-03	-1.10340e-03	2.429702e-06	
169	1.622800e-03	-1.11015e-03	2.599979e-06	
170	1.632800e-03	-1.11654e-03	2.764187e-06	

Index   time            v1#branch       v2#branch       
--------------------------------------------------------------------------------
171	1.642800e-03	-1.12253e-03	2.914454e-06	
172	1.652800e-03	-1.12806e-03	3.056419e-06	
173	1.662800e-03	-1.13310e-03	3.182436e-06	
174	1.672800e-03	-1.13761e-03	3.298159e-06	
175	1.682800e-03	-1.14156e-03	3.396220e-06	
176	1.692800e-03	-1.14491e-03	3.482339e-06	
177	1.702800e-03	-1.14765e-03	3.549470e-06	
178	1.712800e-03	-1.14974e-03	3.603445e-06	
179	1.722800e-03	-1.15118e-03	3.637573e-06	
180	1.732800e-03	-1.15195e-03	3.657829e-06	
181	1.742800e-03	-1.15204e-03	3.657895e-06	
182	1.752800e-03	-1.15146e-03	3.643908e-06	
183	1.762800e-03	-1.15021e-03	3.609930e-06	
184	1.772800e-03	-1.14830e-03	3.562255e-06	
185	1.782800e-03	-1.14576e-03	3.495311e-06	
186	1.792800e-03	-1.14259e-03	3.415540e-06	
187	1.802800e-03	-1.13882e-03	3.317707e-06	
188	1.812800e-03	-1.13449e-03	3.208369e-06	
189	1.822800e-03	-1.12963e-03	3.082590e-06	
190	1.832800e-03	-1.12427e-03	2.947005e-06	
191	1.842800e-03	-1.11845e-03	2.796923e-06	
192	1.852800e-03	-1.11222e-03	2.639010e-06	
193	1.862800e-03	-1.10562e-03	2.468770e-06	
194	1.872800e-03	-1.09870e-03	2.292851e-06	
195	1.882800e-03	-1.09149e-03	2.106892e-06	
196	1.892800e-03	-1.08405e-03	1.917480e-06	
197	1.902800e-03	-1.07643e-03	1.720339e-06	
198	1.912800e-03	-1.06865e-03	1.521950e-06	
199	1.922800e-03	-1.06078e-03	1.318076e-06	
200	1.932800e-03	-1.05284e-03	1.115057e-06	
201	1.942800e-03	-1.04489e-03	9.086623e-07	
202	1.952800e-03	-1.03696e-03	7.050634e-07	
203	1.962800e-03	-1.02908e-03	5.000063e-07	
204	1.972800e-03	-1.02130e-03	2.994798e-07	
205	1.982800e-03	-1.01363e-03	9.918896e-08	
206	1.992800e-03	-1.00611e-03	-9.50684e-08	
207	2.002800e-03	-9.98769e-04	-2.87636e-07	
208	2.012800e-03	-9.91623e-04	-4.72907e-07	
209	2.022800e-03	-9.84698e-04	-6.55276e-07	
210	2.032800e-03	-9.78008e-04	-8.29319e-07	
211	2.042800e-03	-9.71575e-04	-9.99476e-07	
212	2.052800e-03	-9.65408e-04	-1.16050e-06	
213	2.062800e-03	-9.59523e-04	-1.31685e-06	
214	2.072800e-03	-9.53926e-04	-1.46346e-06	
215	2.082800e-03	-9.48630e-04	-1.60481e-06	
216	2.092800e-03	-9.43638e-04	-1.73596e-06	
217	2.102800e-03	-9.38959e-04	-1.86141e-06	
218	2.112800e-03	-9.34593e-04	-1.97634e-06	
219	2.122800e-03	-9.30549e-04	-2.08527e-06	
220	2.132800e-03	-9.26824e-04	-2.18346e-06	
221	2.142800e-03	-9.23425e-04	-2.27543e-06	
222	2.152800e-03	-9.20348e-04	-2.35655e-06	
223	2.162800e-03	-9.17597e-04	-2.43128e-06	
224	2.172800e-03	-9.15170e-04	-2.49510e-06	
225	2.182800e-03	-9.13070e-04	-2.55244e-06	
226	2.192800e-03	-9.11293e-04	-2.59883e-06	
227	2.202800e-03	-9.09843e-04	-2.63866e-06	
228	2.212800e-03	-9.08716e-04	-2.66754e-06	

Index   time            v1#branch       v2#branch       
--------------------------------------------------------------------------------
229	2.222800e-03	-9.07915e-04	-2.68981e-06	
230	2.232800e-03	-9.07437e-04	-2.70114e-06	
231	2.242800e-03	-9.07285e-04	-2.70581e-06	
232	2.252800e-03	-9.07456e-04	-2.69955e-06	
233	2.262800e-03	-9.07954e-04	-2.68660e-06	
234	2.272800e-03	-9.08776e-04	-2.66273e-06	
235	2.282800e-03	-9.09925e-04	-2.63214e-06	
236	2.292800e-03	-9.11400e-04	-2.59066e-06	
237	2.302800e-03	-9.13203e-04	-2.54242e-06	
238	2.312800e-03	-9.15334e-04	-2.48334e-06	
239	2.322800e-03	-9.17794e-04	-2.41750e-06	
240	2.332800e-03	-9.20582e-04	-2.34089e-06	
241	2.342800e-03	-9.23700e-04	-2.25755e-06	
242	2.352800e-03	-9.27146e-04	-2.16355e-06	
243	2.362800e-03	-9.30920e-04	-2.06292e-06	
244	2.372800e-03	-9.35020e-04	-1.95181e-06	
245	2.382800e-03	-9.39444e-04	-1.83423e-06	
246	2.392800e-03	-9.44187e-04	-1.70644e-06	
247	2.402800e-03	-9.49247e-04	-1.57247e-06	
248	2.412800e-03	-9.54615e-04	-1.42868e-06	
249	2.422800e-03	-9.60287e-04	-1.27913e-06	
250	2.432800e-03	-9.66250e-04	-1.12030e-06	
251	2.442800e-03	-9.72496e-04	-9.56302e-07	
252	2.452800e-03	-9.79009e-04	-7.83769e-07	
253	2.462800e-03	-9.85777e-04	-6.06841e-07	
254	2.472800e-03	-9.92778e-04	-4.22335e-07	
255	2.482800e-03	-9.99997e-04	-2.34449e-07	
256	2.492800e-03	-1.00741e-03	-4.01776e-08	
257	2.502800e-03	-1.01498e-03	1.562147e-07	
258	2.512800e-03	-1.02270e-03	3.575480e-07	
259	2.522800e-03	-1.03052e-03	5.594871e-07	
260	2.532800e-03	-1.03842e-03	7.646698e-07	
261	2.542800e-03	-1.04635e-03	9.686969e-07	
262	2.552800e-03	-1.05428e-03	1.174034e-06	
263	2.562800e-03	-1.06218e-03	1.376233e-06	
264	2.572800e-03	-1.06999e-03	1.577609e-06	
265	2.582800e-03	-1.07767e-03	1.773690e-06	
266	2.592800e-03	-1.08517e-03	1.966670e-06	
267	2.602800e-03	-1.09246e-03	2.152094e-06	
268	2.612800e-03	-1.09948e-03	2.332072e-06	
269	2.622800e-03	-1.10619e-03	2.502208e-06	
270	2.632800e-03	-1.11254e-03	2.664581e-06	
271	2.642800e-03	-1.11849e-03	2.814905e-06	
272	2.652800e-03	-1.12399e-03	2.955279e-06	
273	2.662800e-03	-1.12901e-03	3.081580e-06	
274	2.672800e-03	-1.13350e-03	3.195982e-06	
275	2.682800e-03	-1.13743e-03	3.294577e-06	
276	2.692800e-03	-1.14078e-03	3.379665e-06	
277	2.702800e-03	-1.14351e-03	3.447597e-06	
278	2.712800e-03	-1.14561e-03	3.500841e-06	
279	2.722800e-03	-1.14705e-03	3.536042e-06	
280	2.732800e-03	-1.14784e-03	3.555867e-06	
281	2.742800e-03	-1.14795e-03	3.557278e-06	
282	2.752800e-03	-1.14740e-03	3.543153e-06	
283	2.762800e-03	-1.14618e-03	3.510776e-06	
284	2.772800e-03	-1.14431e-03	3.463239e-06	
285	2.782800e-03	-1.14181e-03	3.398135e-06	
286	2.792800e-03	-1.13869e-03	3.318754e-06	

Index   time            v1#branch       v2#branch       
--------------------------------------------------------------------------------
287	2.802800e-03	-1.13497e-03	3.222972e-06	
288	2.812800e-03	-1.13070e-03	3.114245e-06	
289	2.822800e-03	-1.12590e-03	2.990696e-06	
290	2.832800e-03	-1.12060e-03	2.855906e-06	
291	2.842800e-03	-1.11485e-03	2.708196e-06	
292	2.852800e-03	-1.10869e-03	2.551227e-06	
293	2.862800e-03	-1.10217e-03	2.383462e-06	
294	2.872800e-03	-1.09531e-03	2.208594e-06	
295	2.882800e-03	-1.08818e-03	2.025179e-06	
296	2.892800e-03	-1.08082e-03	1.836887e-06	
297	2.902800e-03	-1.07327e-03	1.642319e-06	
298	2.912800e-03	-1.06557e-03	1.445082e-06	
299	2.922800e-03	-1.05778e-03	1.243776e-06	
300	2.932800e-03	-1.04992e-03	1.041910e-06	
301	2.942800e-03	-1.04205e-03	8.380471e-07	
302	2.952800e-03	-1.03419e-03	6.355711e-07	
303	2.962800e-03	-1.02639e-03	4.329834e-07	
304	2.972800e-03	-1.01867e-03	2.335243e-07	
305	2.982800e-03	-1.01108e-03	3.561816e-08	
306	2.992800e-03	-1.00363e-03	-1.57648e-07	
307	3.002800e-03	-9.96355e-04	-3.47934e-07	
308	3.012800e-03	-9.89274e-04	-5.32306e-07	
309	3.022800e-03	-9.82412e-04	-7.12509e-07	
310	3.032800e-03	-9.75784e-04	-8.85759e-07	
311	3.042800e-03	-9.69409e-04	-1.05388e-06	
312	3.052800e-03	-9.63297e-04	-1.21422e-06	
313	3.062800e-03	-9.57465e-04	-1.36867e-06	
314	3.072800e-03	-9.51919e-04	-1.51471e-06	
315	3.082800e-03	-9.46670e-04	-1.65430e-06	
316	3.092800e-03	-9.41723e-04	-1.78501e-06	
317	3.102800e-03	-9.37086e-04	-1.90883e-06	
318	3.112800e-03	-9.32760e-04	-2.02345e-06	
319	3.122800e-03	-9.28752e-04	-2.13088e-06	
320	3.132800e-03	-9.25062e-04	-2.22889e-06	
321	3.142800e-03	-9.21693e-04	-2.31950e-06	
322	3.152800e-03	-9.18644e-04	-2.40055e-06	
323	3.162800e-03	-9.15919e-04	-2.47406e-06	
324	3.172800e-03	-9.13516e-04	-2.53793e-06	
325	3.182800e-03	-9.11435e-04	-2.59418e-06	
326	3.192800e-03	-9.09677e-04	-2.64074e-06	
327	3.202800e-03	-9.08242e-04	-2.67962e-06	
328	3.212800e-03	-9.07128e-04	-2.70878e-06	
329	3.222800e-03	-9.06336e-04	-2.73022e-06	
330	3.232800e-03	-9.05866e-04	-2.74195e-06	
331	3.242800e-03	-9.05719e-04	-2.74592e-06	
332	3.252800e-03	-9.05893e-04	-2.74016e-06	
333	3.262800e-03	-9.06391e-04	-2.72663e-06	
334	3.272800e-03	-9.07211e-04	-2.70338e-06	
335	3.282800e-03	-9.08355e-04	-2.67232e-06	
336	3.292800e-03	-9.09823e-04	-2.63156e-06	
337	3.302800e-03	-9.11617e-04	-2.58298e-06	
338	3.312800e-03	-9.13736e-04	-2.52472e-06	
339	3.322800e-03	-9.16182e-04	-2.45866e-06	
340	3.332800e-03	-9.18954e-04	-2.38297e-06	
341	3.342800e-03	-9.22053e-04	-2.29952e-06	
342	3.352800e-03	-9.25478e-04	-2.20654e-06	
343	3.362800e-03	-9.29230e-04	-2.10591e-06	
344	3.372800e-03	-9.33304e-04	-1.99591e-06	

Index   time            v1#branch       v2#branch       
--------------------------------------------------------------------------------
345	3.382800e-03	-9.37701e-04	-1.87844e-06	
346	3.392800e-03	-9.42416e-04	-1.75186e-06	
347	3.402800e-03	-9.47444e-04	-1.61809e-06	
348	3.412800e-03	-9.52780e-04	-1.47559e-06	
349	3.422800e-03	-9.58417e-04	-1.32633e-06	
350	3.432800e-03	-9.64343e-04	-1.16887e-06	
351	3.442800e-03	-9.70551e-04	-1.00525e-06	
352	3.452800e-03	-9.77026e-04	-8.34141e-07	
353	3.462800e-03	-9.83752e-04	-6.57662e-07	
354	3.472800e-03	-9.90713e-04	-4.74634e-07	
355	3.482800e-03	-9.97888e-04	-2.87253e-07	
356	3.492800e-03	-1.00525e-03	-9.44915e-08	
357	3.502800e-03	-1.01279e-03	1.013577e-07	
358	3.512800e-03	-1.02046e-03	3.011679e-07	
359	3.522800e-03	-1.02824e-03	5.025469e-07	
360	3.532800e-03	-1.03609e-03	7.062156e-07	
361	3.542800e-03	-1.04398e-03	9.096890e-07	
362	3.552800e-03	-1.05187e-03	1.113546e-06	
363	3.562800e-03	-1.05972e-03	1.315223e-06	
364	3.572800e-03	-1.06749e-03	1.515178e-06	
365	3.582800e-03	-1.07513e-03	1.710797e-06	
366	3.592800e-03	-1.08260e-03	1.902444e-06	
367	3.602800e-03	-1.08985e-03	2.087490e-06	
368	3.612800e-03	-1.09684e-03	2.266249e-06	
369	3.622800e-03	-1.10352e-03	2.436119e-06	
370	3.632800e-03	-1.10984e-03	2.597413e-06	
371	3.642800e-03	-1.11576e-03	2.747607e-06	
372	3.652800e-03	-1.12124e-03	2.887062e-06	
373	3.662800e-03	-1.12624e-03	3.013389e-06	
374	3.672800e-03	-1.13072e-03	3.127052e-06	
375	3.682800e-03	-1.13464e-03	3.225846e-06	
376	3.692800e-03	-1.13798e-03	3.310387e-06	
377	3.702800e-03	-1.14071e-03	3.378700e-06	
378	3.712800e-03	-1.14281e-03	3.431597e-06	
379	3.722800e-03	-1.14427e-03	3.467366e-06	
380	3.732800e-03	-1.14506e-03	3.487045e-06	
381	3.742800e-03	-1.14519e-03	3.489209e-06	
382	3.752800e-03	-1.14465e-03	3.475134e-06	
383	3.762800e-03	-1.14346e-03	3.443688e-06	
384	3.772800e-03	-1.14162e-03	3.396385e-06	
385	3.782800e-03	-1.13914e-03	3.332375e-06	
386	3.792800e-03	-1.13605e-03	3.253396e-06	
387	3.802800e-03	-1.13237e-03	3.158854e-06	
388	3.812800e-03	-1.12813e-03	3.050676e-06	
389	3.822800e-03	-1.12337e-03	2.928490e-06	
390	3.832800e-03	-1.11812e-03	2.794373e-06	
391	3.842800e-03	-1.11242e-03	2.648125e-06	
392	3.852800e-03	-1.10630e-03	2.491926e-06	
393	3.862800e-03	-1.09983e-03	2.325698e-06	
394	3.872800e-03	-1.09302e-03	2.151672e-06	
395	3.882800e-03	-1.08595e-03	1.969839e-06	
396	3.892800e-03	-1.07863e-03	1.782435e-06	
397	3.902800e-03	-1.07113e-03	1.589472e-06	
398	3.912800e-03	-1.06349e-03	1.393143e-06	
399	3.922800e-03	-1.05575e-03	1.193441e-06	
400	3.932800e-03	-1.04794e-03	9.924818e-07	
401	3.942800e-03	-1.04012e-03	7.902011e-07	
402	3.952800e-03	-1.03231e-03	5.886096e-07	

Index   time            v1#branch       v2#branch       
--------------------------------------------------------------------------------
403	3.962800e-03	-1.02456e-03	3.875644e-07	
404	3.972800e-03	-1.01690e-03	1.889509e-07	
405	3.982800e-03	-1.00935e-03	-7.46806e-09	
406	3.992800e-03	-1.00195e-03	-1.99941e-07	
407	4.002800e-03	-9.94721e-04	-3.88808e-07	
408	4.012800e-03	-9.87685e-04	-5.72451e-07	
409	4.022800e-03	-9.80865e-04	-7.51312e-07	
410	4.032800e-03	-9.74278e-04	-9.23905e-07	
411	4.042800e-03	-9.67942e-04	-1.09076e-06	
412	4.052800e-03	-9.61869e-04	-1.25053e-06	
413	4.062800e-03	-9.56072e-04	-1.40381e-06	
414	4.072800e-03	-9.50560e-04	-1.54936e-06	
415	4.082800e-03	-9.45343e-04	-1.68786e-06	
416	4.092800e-03	-9.40427e-04	-1.81816e-06	
417	4.102800e-03	-9.35818e-04	-1.94099e-06	
418	4.112800e-03	-9.31519e-04	-2.05529e-06	
419	4.122800e-03	-9.27536e-04	-2.16182e-06	
420	4.132800e-03	-9.23868e-04	-2.25959e-06	
421	4.142800e-03	-9.20520e-04	-2.34940e-06	
422	4.152800e-03	-9.17491e-04	-2.43029e-06	
423	4.162800e-03	-9.14783e-04	-2.50309e-06	
424	4.172800e-03	-9.12395e-04	-2.56689e-06	
425	4.182800e-03	-9.10329e-04	-2.62251e-06	
