* c:\users\mamat\onedrive\desktop\ajay_esim\final_project_files\device_modelling\2n5401\bjt_amplifier\bjt_amplifier.cir
Transient Analysis  Tue Jun 24 15:55:40  2025
--------------------------------------------------------------------------------
Index   time            in              net-_c1-pad1_   net-_c1-pad2_   
--------------------------------------------------------------------------------
0	0.000000e+00	0.000000e+00	0.000000e+00	-2.08418e+00	
1	1.000000e-07	6.283185e-06	7.482350e-06	-2.08417e+00	
2	2.000000e-07	1.256637e-05	1.229370e-05	-2.08417e+00	
3	4.000000e-07	2.513271e-05	2.421106e-05	-2.08416e+00	
4	8.000000e-07	5.026527e-05	4.929518e-05	-2.08413e+00	
5	1.600000e-06	1.005293e-04	9.847586e-05	-2.08408e+00	
6	3.200000e-06	2.010484e-04	1.977148e-04	-2.08398e+00	
7	6.400000e-06	4.020155e-04	3.953071e-04	-2.08379e+00	
8	1.280000e-05	8.033810e-04	7.908155e-04	-2.08339e+00	
9	2.280000e-05	1.427671e-03	1.405502e-03	-2.08278e+00	
10	3.280000e-05	2.046327e-03	2.015388e-03	-2.08217e+00	
11	4.280000e-05	2.656907e-03	2.617000e-03	-2.08156e+00	
12	5.280000e-05	3.257002e-03	3.208996e-03	-2.08097e+00	
13	6.280000e-05	3.844242e-03	3.787984e-03	-2.08039e+00	
14	7.280000e-05	4.416311e-03	4.352697e-03	-2.07983e+00	
15	8.280000e-05	4.970951e-03	4.899861e-03	-2.07928e+00	
16	9.280000e-05	5.505973e-03	5.428321e-03	-2.07875e+00	
17	1.028000e-04	6.019265e-03	5.934960e-03	-2.07825e+00	
18	1.128000e-04	6.508802e-03	6.418768e-03	-2.07776e+00	
19	1.228000e-04	6.972652e-03	6.876817e-03	-2.07731e+00	
20	1.328000e-04	7.408984e-03	7.308279e-03	-2.07688e+00	
21	1.428000e-04	7.816076e-03	7.710445e-03	-2.07647e+00	
22	1.528000e-04	8.192321e-03	8.082696e-03	-2.07610e+00	
23	1.628000e-04	8.536235e-03	8.422572e-03	-2.07576e+00	
24	1.728000e-04	8.846461e-03	8.729690e-03	-2.07546e+00	
25	1.828000e-04	9.121773e-03	9.001859e-03	-2.07519e+00	
26	1.928000e-04	9.361087e-03	9.238957e-03	-2.07495e+00	
27	2.028000e-04	9.563456e-03	9.439083e-03	-2.07475e+00	
28	2.128000e-04	9.728082e-03	9.602390e-03	-2.07459e+00	
29	2.228000e-04	9.854317e-03	9.727284e-03	-2.07446e+00	
30	2.328000e-04	9.941660e-03	9.814206e-03	-2.07438e+00	
31	2.428000e-04	9.989769e-03	9.861879e-03	-2.07433e+00	
32	2.528000e-04	9.998452e-03	9.871039e-03	-2.07432e+00	
33	2.628000e-04	9.967677e-03	9.840732e-03	-2.07435e+00	
34	2.728000e-04	9.897563e-03	9.771995e-03	-2.07442e+00	
35	2.828000e-04	9.788388e-03	9.664194e-03	-2.07453e+00	
36	2.928000e-04	9.640583e-03	9.518665e-03	-2.07468e+00	
37	3.028000e-04	9.454731e-03	9.335092e-03	-2.07486e+00	
38	3.128000e-04	9.231566e-03	9.115101e-03	-2.07508e+00	
39	3.228000e-04	8.971967e-03	8.858683e-03	-2.07534e+00	
40	3.328000e-04	8.676961e-03	8.567746e-03	-2.07563e+00	
41	3.428000e-04	8.347710e-03	8.242573e-03	-2.07595e+00	
42	3.528000e-04	7.985515e-03	7.885333e-03	-2.07631e+00	
43	3.628000e-04	7.591804e-03	7.496586e-03	-2.07670e+00	
44	3.728000e-04	7.168133e-03	7.078743e-03	-2.07712e+00	
45	3.828000e-04	6.716171e-03	6.632613e-03	-2.07757e+00	
46	3.928000e-04	6.237705e-03	6.160823e-03	-2.07804e+00	
47	4.028000e-04	5.734621e-03	5.664410e-03	-2.07853e+00	
48	4.128000e-04	5.208904e-03	5.146185e-03	-2.07905e+00	
49	4.228000e-04	4.662631e-03	4.607380e-03	-2.07959e+00	
50	4.328000e-04	4.097957e-03	4.050961e-03	-2.08015e+00	
51	4.428000e-04	3.517109e-03	3.478320e-03	-2.08072e+00	
52	4.528000e-04	2.922382e-03	2.892545e-03	-2.08131e+00	
53	4.628000e-04	2.316121e-03	2.295150e-03	-2.08191e+00	
54	4.728000e-04	1.700719e-03	1.689307e-03	-2.08251e+00	

Index   time            in              net-_c1-pad1_   net-_c1-pad2_   
--------------------------------------------------------------------------------
55	4.828000e-04	1.078605e-03	1.076619e-03	-2.08312e+00	
56	4.928000e-04	4.522351e-04	4.603008e-04	-2.08374e+00	
57	5.028000e-04	-1.75920e-04	-1.57996e-04	-2.08436e+00	
58	5.128000e-04	-8.03381e-04	-7.75050e-04	-2.08498e+00	
59	5.228000e-04	-1.42767e-03	-1.38920e-03	-2.08559e+00	
60	5.328000e-04	-2.04633e-03	-1.99726e-03	-2.08620e+00	
61	5.428000e-04	-2.65691e-03	-2.59760e-03	-2.08680e+00	
62	5.528000e-04	-3.25700e-03	-3.18709e-03	-2.08739e+00	
63	5.628000e-04	-3.84424e-03	-3.76419e-03	-2.08796e+00	
64	5.728000e-04	-4.41631e-03	-4.32587e-03	-2.08852e+00	
65	5.828000e-04	-4.97095e-03	-4.87068e-03	-2.08907e+00	
66	5.928000e-04	-5.50597e-03	-5.39575e-03	-2.08959e+00	
67	6.028000e-04	-6.01927e-03	-5.89976e-03	-2.09010e+00	
68	6.128000e-04	-6.50880e-03	-6.38002e-03	-2.09058e+00	
69	6.228000e-04	-6.97265e-03	-6.83537e-03	-2.09103e+00	
70	6.328000e-04	-7.40898e-03	-7.26333e-03	-2.09146e+00	
71	6.428000e-04	-7.81608e-03	-7.66294e-03	-2.09186e+00	
72	6.528000e-04	-8.19232e-03	-8.03194e-03	-2.09223e+00	
73	6.628000e-04	-8.53624e-03	-8.36960e-03	-2.09256e+00	
74	6.728000e-04	-8.84646e-03	-8.67392e-03	-2.09287e+00	
75	6.828000e-04	-9.12177e-03	-8.94440e-03	-2.09314e+00	
76	6.928000e-04	-9.36109e-03	-9.17930e-03	-2.09337e+00	
77	7.028000e-04	-9.56346e-03	-9.37840e-03	-2.09357e+00	
78	7.128000e-04	-9.72808e-03	-9.54025e-03	-2.09373e+00	
79	7.228000e-04	-9.85432e-03	-9.66488e-03	-2.09385e+00	
80	7.328000e-04	-9.94166e-03	-9.75116e-03	-2.09394e+00	
81	7.428000e-04	-9.98977e-03	-9.79939e-03	-2.09399e+00	
82	7.528000e-04	-9.99845e-03	-9.80874e-03	-2.09399e+00	
83	7.628000e-04	-9.96768e-03	-9.77980e-03	-2.09396e+00	
84	7.728000e-04	-9.89756e-03	-9.71206e-03	-2.09389e+00	
85	7.828000e-04	-9.78839e-03	-9.60640e-03	-2.09379e+00	
86	7.928000e-04	-9.64058e-03	-9.46259e-03	-2.09364e+00	
87	8.028000e-04	-9.45473e-03	-9.28180e-03	-2.09346e+00	
88	8.128000e-04	-9.23157e-03	-9.06413e-03	-2.09324e+00	
89	8.228000e-04	-8.97197e-03	-8.81101e-03	-2.09299e+00	
90	8.328000e-04	-8.67696e-03	-8.52282e-03	-2.09270e+00	
91	8.428000e-04	-8.34771e-03	-8.20127e-03	-2.09238e+00	
92	8.528000e-04	-7.98551e-03	-7.84702e-03	-2.09202e+00	
93	8.628000e-04	-7.59180e-03	-7.46203e-03	-2.09164e+00	
94	8.728000e-04	-7.16813e-03	-7.04721e-03	-2.09122e+00	
95	8.828000e-04	-6.71617e-03	-6.60476e-03	-2.09078e+00	
96	8.928000e-04	-6.23770e-03	-6.13583e-03	-2.09031e+00	
97	9.028000e-04	-5.73462e-03	-5.64281e-03	-2.08982e+00	
98	9.128000e-04	-5.20890e-03	-5.12708e-03	-2.08930e+00	
99	9.228000e-04	-4.66263e-03	-4.59121e-03	-2.08876e+00	
100	9.328000e-04	-4.09796e-03	-4.03675e-03	-2.08821e+00	
101	9.428000e-04	-3.51711e-03	-3.46643e-03	-2.08764e+00	
102	9.528000e-04	-2.92238e-03	-2.88195e-03	-2.08705e+00	
103	9.628000e-04	-2.31612e-03	-2.28615e-03	-2.08646e+00	
104	9.728000e-04	-1.70072e-03	-1.68083e-03	-2.08585e+00	
105	9.828000e-04	-1.07861e-03	-1.06893e-03	-2.08524e+00	
106	9.928000e-04	-4.52235e-04	-4.52327e-04	-2.08462e+00	
107	1.002800e-03	1.759201e-04	1.660113e-04	-2.08401e+00	
108	1.012800e-03	8.033810e-04	7.841597e-04	-2.08339e+00	
109	1.022800e-03	1.427671e-03	1.399152e-03	-2.08277e+00	
110	1.032800e-03	2.046327e-03	2.009065e-03	-2.08216e+00	
111	1.042800e-03	2.656907e-03	2.610967e-03	-2.08156e+00	
112	1.052800e-03	3.257002e-03	3.202978e-03	-2.08097e+00	

Index   time            in              net-_c1-pad1_   net-_c1-pad2_   
--------------------------------------------------------------------------------
113	1.062800e-03	3.844242e-03	3.782241e-03	-2.08039e+00	
114	1.072800e-03	4.416311e-03	4.346955e-03	-2.07983e+00	
115	1.082800e-03	4.970951e-03	4.894379e-03	-2.07928e+00	
116	1.092800e-03	5.505973e-03	5.422828e-03	-2.07875e+00	
117	1.102800e-03	6.019265e-03	5.929709e-03	-2.07824e+00	
118	1.112800e-03	6.508802e-03	6.413493e-03	-2.07776e+00	
119	1.122800e-03	6.972652e-03	6.871768e-03	-2.07730e+00	
120	1.132800e-03	7.408984e-03	7.303193e-03	-2.07687e+00	
121	1.142800e-03	7.816076e-03	7.705569e-03	-2.07647e+00	
122	1.152800e-03	8.192321e-03	8.077770e-03	-2.07610e+00	
123	1.162800e-03	8.536235e-03	8.417840e-03	-2.07576e+00	
124	1.172800e-03	8.846461e-03	8.724895e-03	-2.07545e+00	
125	1.182800e-03	9.121773e-03	8.997243e-03	-2.07518e+00	
126	1.192800e-03	9.361087e-03	9.234266e-03	-2.07494e+00	
127	1.202800e-03	9.563456e-03	9.434556e-03	-2.07474e+00	
128	1.212800e-03	9.728082e-03	9.597775e-03	-2.07458e+00	
129	1.222800e-03	9.854317e-03	9.722818e-03	-2.07446e+00	
130	1.232800e-03	9.941660e-03	9.809641e-03	-2.07437e+00	
131	1.242800e-03	9.989769e-03	9.857448e-03	-2.07432e+00	
132	1.252800e-03	9.998452e-03	9.866497e-03	-2.07432e+00	
133	1.262800e-03	9.967677e-03	9.836310e-03	-2.07435e+00	
134	1.272800e-03	9.897563e-03	9.767451e-03	-2.07442e+00	
135	1.282800e-03	9.788388e-03	9.659756e-03	-2.07453e+00	
136	1.292800e-03	9.640583e-03	9.514094e-03	-2.07467e+00	
137	1.302800e-03	9.454731e-03	9.330612e-03	-2.07486e+00	
138	1.312800e-03	9.231566e-03	9.110477e-03	-2.07508e+00	
139	1.322800e-03	8.971967e-03	8.854138e-03	-2.07533e+00	
140	1.332800e-03	8.676961e-03	8.563046e-03	-2.07562e+00	
141	1.342800e-03	8.347710e-03	8.237939e-03	-2.07595e+00	
142	1.352800e-03	7.985515e-03	7.880534e-03	-2.07631e+00	
143	1.362800e-03	7.591804e-03	7.491840e-03	-2.07670e+00	
144	1.372800e-03	7.168133e-03	7.073822e-03	-2.07712e+00	
145	1.382800e-03	6.716171e-03	6.627732e-03	-2.07756e+00	
146	1.392800e-03	6.237705e-03	6.155759e-03	-2.07804e+00	
147	1.402800e-03	5.734621e-03	5.659374e-03	-2.07853e+00	
148	1.412800e-03	5.208904e-03	5.140957e-03	-2.07905e+00	
149	1.422800e-03	4.662631e-03	4.602169e-03	-2.07959e+00	
150	1.432800e-03	4.097957e-03	4.045550e-03	-2.08015e+00	
151	1.442800e-03	3.517109e-03	3.472917e-03	-2.08072e+00	
152	1.452800e-03	2.922382e-03	2.886936e-03	-2.08131e+00	
153	1.462800e-03	2.316121e-03	2.289540e-03	-2.08190e+00	
154	1.472800e-03	1.700719e-03	1.683487e-03	-2.08251e+00	
155	1.482800e-03	1.078605e-03	1.070791e-03	-2.08312e+00	
156	1.492800e-03	4.522351e-04	4.542594e-04	-2.08374e+00	
157	1.502800e-03	-1.75920e-04	-1.64050e-04	-2.08436e+00	
158	1.512800e-03	-8.03381e-04	-7.81318e-04	-2.08497e+00	
159	1.522800e-03	-1.42767e-03	-1.39548e-03	-2.08559e+00	
160	1.532800e-03	-2.04633e-03	-2.00375e-03	-2.08620e+00	
161	1.542800e-03	-2.65691e-03	-2.60411e-03	-2.08680e+00	
162	1.552800e-03	-3.25700e-03	-3.19381e-03	-2.08739e+00	
163	1.562800e-03	-3.84424e-03	-3.77092e-03	-2.08796e+00	
164	1.572800e-03	-4.41631e-03	-4.33280e-03	-2.08852e+00	
165	1.582800e-03	-4.97095e-03	-4.87761e-03	-2.08907e+00	
166	1.592800e-03	-5.50597e-03	-5.40288e-03	-2.08959e+00	
167	1.602800e-03	-6.01927e-03	-5.90688e-03	-2.09010e+00	
168	1.612800e-03	-6.50880e-03	-6.38732e-03	-2.09058e+00	
169	1.622800e-03	-6.97265e-03	-6.84265e-03	-2.09103e+00	
170	1.632800e-03	-7.40898e-03	-7.27077e-03	-2.09146e+00	

Index   time            in              net-_c1-pad1_   net-_c1-pad2_   
--------------------------------------------------------------------------------
171	1.642800e-03	-7.81608e-03	-7.67035e-03	-2.09186e+00	
172	1.652800e-03	-8.19232e-03	-8.03950e-03	-2.09223e+00	
173	1.662800e-03	-8.53624e-03	-8.37711e-03	-2.09256e+00	
174	1.672800e-03	-8.84646e-03	-8.68155e-03	-2.09287e+00	
175	1.682800e-03	-9.12177e-03	-8.95196e-03	-2.09314e+00	
176	1.692800e-03	-9.36109e-03	-9.18697e-03	-2.09337e+00	
177	1.702800e-03	-9.56346e-03	-9.38598e-03	-2.09357e+00	
178	1.712800e-03	-9.72808e-03	-9.54791e-03	-2.09373e+00	
179	1.722800e-03	-9.85432e-03	-9.67244e-03	-2.09385e+00	
180	1.732800e-03	-9.94166e-03	-9.75877e-03	-2.09394e+00	
181	1.742800e-03	-9.98977e-03	-9.80687e-03	-2.09399e+00	
182	1.752800e-03	-9.99845e-03	-9.81626e-03	-2.09399e+00	
183	1.762800e-03	-9.96768e-03	-9.78718e-03	-2.09396e+00	
184	1.772800e-03	-9.89756e-03	-9.71945e-03	-2.09390e+00	
185	1.782800e-03	-9.78839e-03	-9.61362e-03	-2.09379e+00	
186	1.792800e-03	-9.64058e-03	-9.46981e-03	-2.09364e+00	
187	1.802800e-03	-9.45473e-03	-9.28885e-03	-2.09346e+00	
188	1.812800e-03	-9.23157e-03	-9.07115e-03	-2.09324e+00	
189	1.822800e-03	-8.97197e-03	-8.81784e-03	-2.09299e+00	
190	1.832800e-03	-8.67696e-03	-8.52961e-03	-2.09270e+00	
191	1.842800e-03	-8.34771e-03	-8.20786e-03	-2.09238e+00	
192	1.852800e-03	-7.98551e-03	-7.85356e-03	-2.09202e+00	
193	1.862800e-03	-7.59180e-03	-7.46837e-03	-2.09164e+00	
194	1.872800e-03	-7.16813e-03	-7.05349e-03	-2.09122e+00	
195	1.882800e-03	-6.71617e-03	-6.61083e-03	-2.09078e+00	
196	1.892800e-03	-6.23770e-03	-6.14183e-03	-2.09031e+00	
197	1.902800e-03	-5.73462e-03	-5.64860e-03	-2.08982e+00	
198	1.912800e-03	-5.20890e-03	-5.13281e-03	-2.08930e+00	
199	1.922800e-03	-4.66263e-03	-4.59673e-03	-2.08876e+00	
200	1.932800e-03	-4.09796e-03	-4.04220e-03	-2.08821e+00	
201	1.942800e-03	-3.51711e-03	-3.47168e-03	-2.08764e+00	
202	1.952800e-03	-2.92238e-03	-2.88713e-03	-2.08705e+00	
203	1.962800e-03	-2.31612e-03	-2.29112e-03	-2.08646e+00	
204	1.972800e-03	-1.70072e-03	-1.68575e-03	-2.08585e+00	
205	1.982800e-03	-1.07861e-03	-1.07365e-03	-2.08524e+00	
206	1.992800e-03	-4.52235e-04	-4.56988e-04	-2.08462e+00	
207	2.002800e-03	1.759201e-04	1.615383e-04	-2.08400e+00	
208	2.012800e-03	8.033810e-04	7.797356e-04	-2.08339e+00	
209	2.022800e-03	1.427671e-03	1.394908e-03	-2.08277e+00	
210	2.032800e-03	2.046327e-03	2.004861e-03	-2.08216e+00	
211	2.042800e-03	2.656907e-03	2.606933e-03	-2.08156e+00	
212	2.052800e-03	3.257002e-03	3.198977e-03	-2.08097e+00	
213	2.062800e-03	3.844242e-03	3.778399e-03	-2.08039e+00	
214	2.072800e-03	4.416311e-03	4.343138e-03	-2.07982e+00	
215	2.082800e-03	4.970951e-03	4.890711e-03	-2.07928e+00	
216	2.092800e-03	5.505973e-03	5.419175e-03	-2.07875e+00	
217	2.102800e-03	6.019265e-03	5.926195e-03	-2.07824e+00	
218	2.112800e-03	6.508802e-03	6.409985e-03	-2.07776e+00	
219	2.122800e-03	6.972652e-03	6.868389e-03	-2.07730e+00	
220	2.132800e-03	7.408984e-03	7.299811e-03	-2.07687e+00	
221	2.142800e-03	7.816076e-03	7.702304e-03	-2.07647e+00	
222	2.152800e-03	8.192321e-03	8.074494e-03	-2.07610e+00	
223	2.162800e-03	8.536235e-03	8.414671e-03	-2.07576e+00	
224	2.172800e-03	8.846461e-03	8.721706e-03	-2.07545e+00	
225	2.182800e-03	9.121773e-03	8.994152e-03	-2.07518e+00	
226	2.192800e-03	9.361087e-03	9.231145e-03	-2.07494e+00	
227	2.202800e-03	9.563456e-03	9.431523e-03	-2.07474e+00	
228	2.212800e-03	9.728082e-03	9.594705e-03	-2.07458e+00	

Index   time            in              net-_c1-pad1_   net-_c1-pad2_   
--------------------------------------------------------------------------------
229	2.222800e-03	9.854317e-03	9.719826e-03	-2.07446e+00	
230	2.232800e-03	9.941660e-03	9.806603e-03	-2.07437e+00	
231	2.242800e-03	9.989769e-03	9.854478e-03	-2.07432e+00	
232	2.252800e-03	9.998452e-03	9.863475e-03	-2.07431e+00	
233	2.262800e-03	9.967677e-03	9.833347e-03	-2.07434e+00	
234	2.272800e-03	9.897563e-03	9.764426e-03	-2.07441e+00	
235	2.282800e-03	9.788388e-03	9.656781e-03	-2.07452e+00	
236	2.292800e-03	9.640583e-03	9.511050e-03	-2.07467e+00	
237	2.302800e-03	9.454731e-03	9.327610e-03	-2.07485e+00	
238	2.312800e-03	9.231566e-03	9.107399e-03	-2.07507e+00	
239	2.322800e-03	8.971967e-03	8.851092e-03	-2.07533e+00	
240	2.332800e-03	8.676961e-03	8.559916e-03	-2.07562e+00	
241	2.342800e-03	8.347710e-03	8.234832e-03	-2.07595e+00	
242	2.352800e-03	7.985515e-03	7.877337e-03	-2.07631e+00	
243	2.362800e-03	7.591804e-03	7.488658e-03	-2.07670e+00	
244	2.372800e-03	7.168133e-03	7.070542e-03	-2.07711e+00	
245	2.382800e-03	6.716171e-03	6.624460e-03	-2.07756e+00	
246	2.392800e-03	6.237705e-03	6.152383e-03	-2.07803e+00	
247	2.402800e-03	5.734621e-03	5.655997e-03	-2.07853e+00	
248	2.412800e-03	5.208904e-03	5.137470e-03	-2.07905e+00	
249	2.422800e-03	4.662631e-03	4.598675e-03	-2.07959e+00	
250	2.432800e-03	4.097957e-03	4.041941e-03	-2.08014e+00	
251	2.442800e-03	3.517109e-03	3.469294e-03	-2.08072e+00	
252	2.452800e-03	2.922382e-03	2.883193e-03	-2.08130e+00	
253	2.462800e-03	2.316121e-03	2.285779e-03	-2.08190e+00	
254	2.472800e-03	1.700719e-03	1.679602e-03	-2.08251e+00	
255	2.482800e-03	1.078605e-03	1.066883e-03	-2.08312e+00	
256	2.492800e-03	4.522351e-04	4.502262e-04	-2.08374e+00	
257	2.502800e-03	-1.75920e-04	-1.68109e-04	-2.08436e+00	
258	2.512800e-03	-8.03381e-04	-7.85504e-04	-2.08497e+00	
259	2.522800e-03	-1.42767e-03	-1.39970e-03	-2.08559e+00	
260	2.532800e-03	-2.04633e-03	-2.00809e-03	-2.08620e+00	
261	2.542800e-03	-2.65691e-03	-2.60847e-03	-2.08680e+00	
262	2.552800e-03	-3.25700e-03	-3.19830e-03	-2.08739e+00	
263	2.562800e-03	-3.84424e-03	-3.77543e-03	-2.08796e+00	
264	2.572800e-03	-4.41631e-03	-4.33743e-03	-2.08852e+00	
265	2.582800e-03	-4.97095e-03	-4.88227e-03	-2.08907e+00	
266	2.592800e-03	-5.50597e-03	-5.40764e-03	-2.08959e+00	
267	2.602800e-03	-6.01927e-03	-5.91166e-03	-2.09010e+00	
268	2.612800e-03	-6.50880e-03	-6.39220e-03	-2.09058e+00	
269	2.622800e-03	-6.97265e-03	-6.84754e-03	-2.09103e+00	
270	2.632800e-03	-7.40898e-03	-7.27575e-03	-2.09146e+00	
271	2.642800e-03	-7.81608e-03	-7.67533e-03	-2.09186e+00	
272	2.652800e-03	-8.19232e-03	-8.04456e-03	-2.09223e+00	
273	2.662800e-03	-8.53624e-03	-8.38216e-03	-2.09256e+00	
274	2.672800e-03	-8.84646e-03	-8.68666e-03	-2.09287e+00	
275	2.682800e-03	-9.12177e-03	-8.95704e-03	-2.09314e+00	
276	2.692800e-03	-9.36109e-03	-9.19210e-03	-2.09337e+00	
277	2.702800e-03	-9.56346e-03	-9.39108e-03	-2.09357e+00	
278	2.712800e-03	-9.72808e-03	-9.55304e-03	-2.09373e+00	
279	2.722800e-03	-9.85432e-03	-9.67751e-03	-2.09385e+00	
280	2.732800e-03	-9.94166e-03	-9.76387e-03	-2.09394e+00	
281	2.742800e-03	-9.98977e-03	-9.81191e-03	-2.09399e+00	
282	2.752800e-03	-9.99845e-03	-9.82129e-03	-2.09399e+00	
283	2.762800e-03	-9.96768e-03	-9.79214e-03	-2.09396e+00	
284	2.772800e-03	-9.89756e-03	-9.72440e-03	-2.09390e+00	
285	2.782800e-03	-9.78839e-03	-9.61848e-03	-2.09379e+00	
286	2.792800e-03	-9.64058e-03	-9.47465e-03	-2.09364e+00	

Index   time            in              net-_c1-pad1_   net-_c1-pad2_   
--------------------------------------------------------------------------------
287	2.802800e-03	-9.45473e-03	-9.29358e-03	-2.09346e+00	
288	2.812800e-03	-9.23157e-03	-9.07585e-03	-2.09324e+00	
289	2.822800e-03	-8.97197e-03	-8.82243e-03	-2.09299e+00	
290	2.832800e-03	-8.67696e-03	-8.53417e-03	-2.09270e+00	
291	2.842800e-03	-8.34771e-03	-8.21230e-03	-2.09238e+00	
292	2.852800e-03	-7.98551e-03	-7.85795e-03	-2.09202e+00	
293	2.862800e-03	-7.59180e-03	-7.47263e-03	-2.09164e+00	
294	2.872800e-03	-7.16813e-03	-7.05770e-03	-2.09122e+00	
295	2.882800e-03	-6.71617e-03	-6.61491e-03	-2.09078e+00	
296	2.892800e-03	-6.23770e-03	-6.14586e-03	-2.09031e+00	
297	2.902800e-03	-5.73462e-03	-5.65250e-03	-2.08981e+00	
298	2.912800e-03	-5.20890e-03	-5.13665e-03	-2.08930e+00	
299	2.922800e-03	-4.66263e-03	-4.60044e-03	-2.08876e+00	
300	2.932800e-03	-4.09796e-03	-4.04586e-03	-2.08821e+00	
301	2.942800e-03	-3.51711e-03	-3.47521e-03	-2.08764e+00	
302	2.952800e-03	-2.92238e-03	-2.89060e-03	-2.08705e+00	
303	2.962800e-03	-2.31612e-03	-2.29447e-03	-2.08646e+00	
304	2.972800e-03	-1.70072e-03	-1.68904e-03	-2.08585e+00	
305	2.982800e-03	-1.07861e-03	-1.07682e-03	-2.08524e+00	
306	2.992800e-03	-4.52235e-04	-4.60117e-04	-2.08462e+00	
307	3.002800e-03	1.759201e-04	1.585234e-04	-2.08400e+00	
308	3.012800e-03	8.033810e-04	7.767657e-04	-2.08338e+00	
309	3.022800e-03	1.427671e-03	1.392046e-03	-2.08277e+00	
310	3.032800e-03	2.046327e-03	2.002039e-03	-2.08216e+00	
311	3.042800e-03	2.656907e-03	2.604213e-03	-2.08156e+00	
312	3.052800e-03	3.257002e-03	3.196291e-03	-2.08097e+00	
313	3.062800e-03	3.844242e-03	3.775809e-03	-2.08039e+00	
314	3.072800e-03	4.416311e-03	4.340576e-03	-2.07982e+00	
315	3.082800e-03	4.970951e-03	4.888236e-03	-2.07927e+00	
316	3.092800e-03	5.505973e-03	5.416723e-03	-2.07875e+00	
317	3.102800e-03	6.019265e-03	5.923824e-03	-2.07824e+00	
318	3.112800e-03	6.508802e-03	6.407630e-03	-2.07776e+00	
319	3.122800e-03	6.972652e-03	6.866108e-03	-2.07730e+00	
320	3.132800e-03	7.408984e-03	7.297539e-03	-2.07687e+00	
321	3.142800e-03	7.816076e-03	7.700101e-03	-2.07647e+00	
322	3.152800e-03	8.192321e-03	8.072294e-03	-2.07609e+00	
323	3.162800e-03	8.536235e-03	8.412532e-03	-2.07575e+00	
324	3.172800e-03	8.846461e-03	8.719564e-03	-2.07545e+00	
325	3.182800e-03	9.121773e-03	8.992064e-03	-2.07518e+00	
326	3.192800e-03	9.361087e-03	9.229050e-03	-2.07494e+00	
327	3.202800e-03	9.563456e-03	9.429475e-03	-2.07474e+00	
328	3.212800e-03	9.728082e-03	9.592643e-03	-2.07458e+00	
329	3.222800e-03	9.854317e-03	9.717805e-03	-2.07445e+00	
330	3.232800e-03	9.941660e-03	9.804563e-03	-2.07437e+00	
331	3.242800e-03	9.989769e-03	9.852473e-03	-2.07432e+00	
