* c:\users\mamat\esim-workspace\sn74120_pulse_synchronizer\sn74120_pulse_synchronizer.cir
Transient Analysis  Mon Jun 16 16:14:59  2025
--------------------------------------------------------------------------------
Index   time            c               gnd             m               
--------------------------------------------------------------------------------
0	0.000000e+00	0.000000e+00	0.000000e+00	0.000000e+00	
1	1.000000e-13	0.000000e+00	0.000000e+00	0.000000e+00	
2	2.000000e-13	0.000000e+00	0.000000e+00	0.000000e+00	
3	4.000000e-13	0.000000e+00	0.000000e+00	0.000000e+00	
4	8.000000e-13	0.000000e+00	0.000000e+00	0.000000e+00	
5	1.600000e-12	0.000000e+00	0.000000e+00	0.000000e+00	
6	3.200000e-12	0.000000e+00	0.000000e+00	0.000000e+00	
7	6.400000e-12	0.000000e+00	0.000000e+00	0.000000e+00	
8	1.000000e-11	0.000000e+00	0.000000e+00	0.000000e+00	
9	1.064000e-11	3.200000e-01	0.000000e+00	3.200000e-01	
10	1.192000e-11	9.600000e-01	0.000000e+00	9.600000e-01	
11	1.448000e-11	2.240000e+00	0.000000e+00	2.240000e+00	
12	1.960000e-11	4.800000e+00	0.000000e+00	4.800000e+00	
13	2.000000e-11	5.000000e+00	0.000000e+00	5.000000e+00	
14	2.080000e-11	5.000000e+00	0.000000e+00	5.000000e+00	
15	2.240000e-11	5.000000e+00	0.000000e+00	5.000000e+00	
16	2.560000e-11	5.000000e+00	0.000000e+00	5.000000e+00	
17	3.200000e-11	5.000000e+00	0.000000e+00	5.000000e+00	
18	4.480000e-11	5.000000e+00	0.000000e+00	5.000000e+00	
19	7.040000e-11	5.000000e+00	0.000000e+00	5.000000e+00	
20	1.216000e-10	5.000000e+00	0.000000e+00	5.000000e+00	
21	2.240000e-10	5.000000e+00	0.000000e+00	5.000000e+00	
22	4.288000e-10	5.000000e+00	0.000000e+00	5.000000e+00	
23	8.384000e-10	5.000000e+00	0.000000e+00	5.000000e+00	
24	1.657600e-09	5.000000e+00	0.000000e+00	5.000000e+00	
25	2.014480e-09	5.000000e+00	0.000000e+00	5.000000e+00	
26	2.114480e-09	5.000000e+00	0.000000e+00	5.000000e+00	
27	2.314480e-09	5.000000e+00	0.000000e+00	5.000000e+00	
28	2.714480e-09	5.000000e+00	0.000000e+00	5.000000e+00	
29	3.014480e-09	5.000000e+00	0.000000e+00	5.000000e+00	
30	3.094480e-09	5.000000e+00	0.000000e+00	5.000000e+00	
31	3.254480e-09	5.000000e+00	0.000000e+00	5.000000e+00	
32	3.574480e-09	5.000000e+00	0.000000e+00	5.000000e+00	
33	4.014480e-09	5.000000e+00	0.000000e+00	5.000000e+00	
34	4.078480e-09	5.000000e+00	0.000000e+00	5.000000e+00	
35	4.206480e-09	5.000000e+00	0.000000e+00	5.000000e+00	
36	4.462480e-09	5.000000e+00	0.000000e+00	5.000000e+00	
37	4.974480e-09	5.000000e+00	0.000000e+00	5.000000e+00	
38	5.020000e-09	5.000000e+00	0.000000e+00	5.000000e+00	
39	5.021000e-09	5.000000e+00	0.000000e+00	4.500000e+00	
40	5.023000e-09	5.000000e+00	0.000000e+00	3.500000e+00	
41	5.027000e-09	5.000000e+00	0.000000e+00	1.500000e+00	
42	5.030000e-09	5.000000e+00	0.000000e+00	0.000000e+00	
43	5.030800e-09	5.000000e+00	0.000000e+00	0.000000e+00	
44	5.032400e-09	5.000000e+00	0.000000e+00	0.000000e+00	
45	5.035600e-09	5.000000e+00	0.000000e+00	0.000000e+00	
46	5.042000e-09	5.000000e+00	0.000000e+00	0.000000e+00	
47	5.054800e-09	5.000000e+00	0.000000e+00	0.000000e+00	
48	5.080400e-09	5.000000e+00	0.000000e+00	0.000000e+00	
49	5.131600e-09	5.000000e+00	0.000000e+00	0.000000e+00	
50	5.234000e-09	5.000000e+00	0.000000e+00	0.000000e+00	
51	5.438800e-09	5.000000e+00	0.000000e+00	0.000000e+00	
52	5.848400e-09	5.000000e+00	0.000000e+00	0.000000e+00	
53	6.667600e-09	5.000000e+00	0.000000e+00	0.000000e+00	
54	8.306000e-09	5.000000e+00	0.000000e+00	0.000000e+00	

Index   time            c               gnd             m               
--------------------------------------------------------------------------------
55	1.158280e-08	5.000000e+00	0.000000e+00	0.000000e+00	
56	1.813640e-08	5.000000e+00	0.000000e+00	0.000000e+00	
57	2.813640e-08	5.000000e+00	0.000000e+00	0.000000e+00	
58	3.813640e-08	5.000000e+00	0.000000e+00	0.000000e+00	
59	4.813640e-08	5.000000e+00	0.000000e+00	0.000000e+00	
60	5.002000e-08	5.000000e+00	0.000000e+00	0.000000e+00	
61	5.002100e-08	4.500000e+00	0.000000e+00	0.000000e+00	
62	5.002300e-08	3.500000e+00	0.000000e+00	0.000000e+00	
63	5.002700e-08	1.500000e+00	0.000000e+00	0.000000e+00	
64	5.003000e-08	0.000000e+00	0.000000e+00	0.000000e+00	
65	5.003080e-08	0.000000e+00	0.000000e+00	0.000000e+00	
66	5.003240e-08	0.000000e+00	0.000000e+00	0.000000e+00	
67	5.003560e-08	0.000000e+00	0.000000e+00	0.000000e+00	
68	5.004200e-08	0.000000e+00	0.000000e+00	0.000000e+00	
69	5.005480e-08	0.000000e+00	0.000000e+00	0.000000e+00	
70	5.008040e-08	0.000000e+00	0.000000e+00	0.000000e+00	
71	5.013160e-08	0.000000e+00	0.000000e+00	0.000000e+00	
72	5.023400e-08	0.000000e+00	0.000000e+00	0.000000e+00	
73	5.043880e-08	0.000000e+00	0.000000e+00	0.000000e+00	
74	5.084840e-08	0.000000e+00	0.000000e+00	0.000000e+00	
75	5.166760e-08	0.000000e+00	0.000000e+00	0.000000e+00	
76	5.202700e-08	0.000000e+00	0.000000e+00	0.000000e+00	
77	5.203000e-08	0.000000e+00	0.000000e+00	0.000000e+00	
78	5.203100e-08	0.000000e+00	0.000000e+00	0.000000e+00	
79	5.203300e-08	0.000000e+00	0.000000e+00	0.000000e+00	
80	5.203700e-08	0.000000e+00	0.000000e+00	0.000000e+00	
81	5.204500e-08	0.000000e+00	0.000000e+00	0.000000e+00	
82	5.206100e-08	0.000000e+00	0.000000e+00	0.000000e+00	
83	5.209300e-08	0.000000e+00	0.000000e+00	0.000000e+00	
84	5.212700e-08	0.000000e+00	0.000000e+00	0.000000e+00	
85	5.213340e-08	0.000000e+00	0.000000e+00	0.000000e+00	
86	5.214620e-08	0.000000e+00	0.000000e+00	0.000000e+00	
87	5.217180e-08	0.000000e+00	0.000000e+00	0.000000e+00	
88	5.222300e-08	0.000000e+00	0.000000e+00	0.000000e+00	
89	5.232540e-08	0.000000e+00	0.000000e+00	0.000000e+00	
90	5.253020e-08	0.000000e+00	0.000000e+00	0.000000e+00	
91	5.293980e-08	0.000000e+00	0.000000e+00	0.000000e+00	
92	5.302700e-08	0.000000e+00	0.000000e+00	0.000000e+00	
93	5.303000e-08	0.000000e+00	0.000000e+00	0.000000e+00	
94	5.303600e-08	0.000000e+00	0.000000e+00	0.000000e+00	
95	5.304800e-08	0.000000e+00	0.000000e+00	0.000000e+00	
96	5.307200e-08	0.000000e+00	0.000000e+00	0.000000e+00	
97	5.312000e-08	0.000000e+00	0.000000e+00	0.000000e+00	
98	5.321600e-08	0.000000e+00	0.000000e+00	0.000000e+00	
99	5.340800e-08	0.000000e+00	0.000000e+00	0.000000e+00	
100	5.379200e-08	0.000000e+00	0.000000e+00	0.000000e+00	
101	5.392700e-08	0.000000e+00	0.000000e+00	0.000000e+00	
102	5.393700e-08	0.000000e+00	0.000000e+00	0.000000e+00	
103	5.395700e-08	0.000000e+00	0.000000e+00	0.000000e+00	
104	5.399700e-08	0.000000e+00	0.000000e+00	0.000000e+00	
105	5.402700e-08	0.000000e+00	0.000000e+00	0.000000e+00	
106	5.403500e-08	0.000000e+00	0.000000e+00	0.000000e+00	
107	5.405100e-08	0.000000e+00	0.000000e+00	0.000000e+00	
108	5.408300e-08	0.000000e+00	0.000000e+00	0.000000e+00	
109	5.414700e-08	0.000000e+00	0.000000e+00	0.000000e+00	
110	5.427500e-08	0.000000e+00	0.000000e+00	0.000000e+00	
111	5.453100e-08	0.000000e+00	0.000000e+00	0.000000e+00	
112	5.504300e-08	0.000000e+00	0.000000e+00	0.000000e+00	

Index   time            c               gnd             m               
--------------------------------------------------------------------------------
113	5.606700e-08	0.000000e+00	0.000000e+00	0.000000e+00	
114	5.811500e-08	0.000000e+00	0.000000e+00	0.000000e+00	
115	6.221100e-08	0.000000e+00	0.000000e+00	0.000000e+00	
116	7.040300e-08	0.000000e+00	0.000000e+00	0.000000e+00	
117	8.040300e-08	0.000000e+00	0.000000e+00	0.000000e+00	
118	9.040300e-08	0.000000e+00	0.000000e+00	0.000000e+00	
119	1.000100e-07	0.000000e+00	0.000000e+00	0.000000e+00	
120	1.000110e-07	5.000000e-01	0.000000e+00	0.000000e+00	
121	1.000130e-07	1.500000e+00	0.000000e+00	0.000000e+00	
122	1.000170e-07	3.500000e+00	0.000000e+00	0.000000e+00	
123	1.000200e-07	5.000000e+00	0.000000e+00	0.000000e+00	
124	1.000208e-07	5.000000e+00	0.000000e+00	0.000000e+00	
125	1.000224e-07	5.000000e+00	0.000000e+00	0.000000e+00	
126	1.000256e-07	5.000000e+00	0.000000e+00	0.000000e+00	
127	1.000320e-07	5.000000e+00	0.000000e+00	0.000000e+00	
128	1.000448e-07	5.000000e+00	0.000000e+00	0.000000e+00	
129	1.000704e-07	5.000000e+00	0.000000e+00	0.000000e+00	
130	1.001216e-07	5.000000e+00	0.000000e+00	0.000000e+00	
131	1.002240e-07	5.000000e+00	0.000000e+00	0.000000e+00	
132	1.004288e-07	5.000000e+00	0.000000e+00	0.000000e+00	
133	1.008384e-07	5.000000e+00	0.000000e+00	0.000000e+00	
134	1.016576e-07	5.000000e+00	0.000000e+00	0.000000e+00	
135	1.020130e-07	5.000000e+00	0.000000e+00	0.000000e+00	
136	1.020170e-07	5.000000e+00	0.000000e+00	0.000000e+00	
137	1.020250e-07	5.000000e+00	0.000000e+00	0.000000e+00	
138	1.020410e-07	5.000000e+00	0.000000e+00	0.000000e+00	
139	1.020730e-07	5.000000e+00	0.000000e+00	0.000000e+00	
140	1.021370e-07	5.000000e+00	0.000000e+00	0.000000e+00	
141	1.022650e-07	5.000000e+00	0.000000e+00	0.000000e+00	
142	1.025210e-07	5.000000e+00	0.000000e+00	0.000000e+00	
143	1.029130e-07	5.000000e+00	0.000000e+00	0.000000e+00	
144	1.029230e-07	5.000000e+00	0.000000e+00	0.000000e+00	
145	1.029430e-07	5.000000e+00	0.000000e+00	0.000000e+00	
146	1.029830e-07	5.000000e+00	0.000000e+00	0.000000e+00	
147	1.030130e-07	5.000000e+00	0.000000e+00	0.000000e+00	
148	1.030170e-07	5.000000e+00	0.000000e+00	0.000000e+00	
149	1.030178e-07	5.000000e+00	0.000000e+00	0.000000e+00	
150	1.030194e-07	5.000000e+00	0.000000e+00	0.000000e+00	
151	1.030226e-07	5.000000e+00	0.000000e+00	0.000000e+00	
152	1.030290e-07	5.000000e+00	0.000000e+00	0.000000e+00	
153	1.030418e-07	5.000000e+00	0.000000e+00	0.000000e+00	
154	1.030674e-07	5.000000e+00	0.000000e+00	0.000000e+00	
155	1.031130e-07	5.000000e+00	0.000000e+00	0.000000e+00	
156	1.031181e-07	5.000000e+00	0.000000e+00	0.000000e+00	
157	1.031284e-07	5.000000e+00	0.000000e+00	0.000000e+00	
158	1.031488e-07	5.000000e+00	0.000000e+00	0.000000e+00	
159	1.031898e-07	5.000000e+00	0.000000e+00	0.000000e+00	
160	1.032717e-07	5.000000e+00	0.000000e+00	0.000000e+00	
161	1.034356e-07	5.000000e+00	0.000000e+00	0.000000e+00	
162	1.037632e-07	5.000000e+00	0.000000e+00	0.000000e+00	
163	1.040130e-07	5.000000e+00	0.000000e+00	0.000000e+00	
164	1.040145e-07	5.000000e+00	0.000000e+00	0.000000e+00	
165	1.040174e-07	5.000000e+00	0.000000e+00	0.000000e+00	
166	1.040234e-07	5.000000e+00	0.000000e+00	0.000000e+00	
167	1.040352e-07	5.000000e+00	0.000000e+00	0.000000e+00	
168	1.040589e-07	5.000000e+00	0.000000e+00	0.000000e+00	
169	1.041062e-07	5.000000e+00	0.000000e+00	0.000000e+00	
170	1.042010e-07	5.000000e+00	0.000000e+00	0.000000e+00	

Index   time            c               gnd             m               
--------------------------------------------------------------------------------
171	1.043904e-07	5.000000e+00	0.000000e+00	0.000000e+00	
172	1.047693e-07	5.000000e+00	0.000000e+00	0.000000e+00	
173	1.050130e-07	5.000000e+00	0.000000e+00	0.000000e+00	
174	1.050131e-07	5.000000e+00	0.000000e+00	0.000000e+00	
175	1.050134e-07	5.000000e+00	0.000000e+00	0.000000e+00	
176	1.050140e-07	5.000000e+00	0.000000e+00	0.000000e+00	
177	1.050145e-07	5.000000e+00	0.000000e+00	0.000000e+00	
178	1.050146e-07	5.000000e+00	0.000000e+00	0.000000e+00	
179	1.050148e-07	5.000000e+00	0.000000e+00	0.000000e+00	
180	1.050153e-07	5.000000e+00	0.000000e+00	0.000000e+00	
181	1.050163e-07	5.000000e+00	0.000000e+00	0.000000e+00	
182	1.050170e-07	5.000000e+00	0.000000e+00	0.000000e+00	
183	1.050172e-07	5.000000e+00	0.000000e+00	0.000000e+00	
184	1.050176e-07	5.000000e+00	0.000000e+00	0.000000e+00	
185	1.050183e-07	5.000000e+00	0.000000e+00	0.000000e+00	
186	1.050198e-07	5.000000e+00	0.000000e+00	0.000000e+00	
187	1.050229e-07	5.000000e+00	0.000000e+00	0.000000e+00	
188	1.050289e-07	5.000000e+00	0.000000e+00	0.000000e+00	
189	1.050411e-07	5.000000e+00	0.000000e+00	0.000000e+00	
190	1.050653e-07	5.000000e+00	0.000000e+00	0.000000e+00	
191	1.051138e-07	5.000000e+00	0.000000e+00	0.000000e+00	
192	1.052108e-07	5.000000e+00	0.000000e+00	0.000000e+00	
193	1.054048e-07	5.000000e+00	0.000000e+00	0.000000e+00	
194	1.057928e-07	5.000000e+00	0.000000e+00	0.000000e+00	
195	1.059115e-07	5.000000e+00	0.000000e+00	0.000000e+00	
196	1.059215e-07	5.000000e+00	0.000000e+00	0.000000e+00	
197	1.059415e-07	5.000000e+00	0.000000e+00	0.000000e+00	
198	1.059815e-07	5.000000e+00	0.000000e+00	0.000000e+00	
199	1.060115e-07	5.000000e+00	0.000000e+00	0.000000e+00	
200	1.060118e-07	5.000000e+00	0.000000e+00	0.000000e+00	
201	1.060124e-07	5.000000e+00	0.000000e+00	0.000000e+00	
202	1.060130e-07	5.000000e+00	0.000000e+00	0.000000e+00	
203	1.060131e-07	5.000000e+00	0.000000e+00	0.000000e+00	
204	1.060134e-07	5.000000e+00	0.000000e+00	0.000000e+00	
205	1.060138e-07	5.000000e+00	0.000000e+00	0.000000e+00	
206	1.060145e-07	5.000000e+00	0.000000e+00	0.000000e+00	
207	1.060146e-07	5.000000e+00	0.000000e+00	0.000000e+00	
208	1.060148e-07	5.000000e+00	0.000000e+00	0.000000e+00	
209	1.060151e-07	5.000000e+00	0.000000e+00	0.000000e+00	
210	1.060159e-07	5.000000e+00	0.000000e+00	0.000000e+00	
211	1.060170e-07	5.000000e+00	0.000000e+00	0.000000e+00	
212	1.060172e-07	5.000000e+00	0.000000e+00	0.000000e+00	
213	1.060175e-07	5.000000e+00	0.000000e+00	0.000000e+00	
214	1.060181e-07	5.000000e+00	0.000000e+00	0.000000e+00	
215	1.060193e-07	5.000000e+00	0.000000e+00	0.000000e+00	
216	1.060217e-07	5.000000e+00	0.000000e+00	0.000000e+00	
217	1.060265e-07	5.000000e+00	0.000000e+00	0.000000e+00	
218	1.060362e-07	5.000000e+00	0.000000e+00	0.000000e+00	
219	1.060556e-07	5.000000e+00	0.000000e+00	0.000000e+00	
220	1.060944e-07	5.000000e+00	0.000000e+00	0.000000e+00	
221	1.061115e-07	5.000000e+00	0.000000e+00	0.000000e+00	
222	1.061193e-07	5.000000e+00	0.000000e+00	0.000000e+00	
223	1.061348e-07	5.000000e+00	0.000000e+00	0.000000e+00	
224	1.061658e-07	5.000000e+00	0.000000e+00	0.000000e+00	
225	1.062279e-07	5.000000e+00	0.000000e+00	0.000000e+00	
226	1.063521e-07	5.000000e+00	0.000000e+00	0.000000e+00	
227	1.066004e-07	5.000000e+00	0.000000e+00	0.000000e+00	
228	1.070115e-07	5.000000e+00	0.000000e+00	0.000000e+00	

Index   time            c               gnd             m               
--------------------------------------------------------------------------------
229	1.070145e-07	5.000000e+00	0.000000e+00	0.000000e+00	
230	1.070170e-07	5.000000e+00	0.000000e+00	0.000000e+00	
231	1.070175e-07	5.000000e+00	0.000000e+00	0.000000e+00	
232	1.070185e-07	5.000000e+00	0.000000e+00	0.000000e+00	
233	1.070205e-07	5.000000e+00	0.000000e+00	0.000000e+00	
234	1.070244e-07	5.000000e+00	0.000000e+00	0.000000e+00	
235	1.070324e-07	5.000000e+00	0.000000e+00	0.000000e+00	
236	1.070483e-07	5.000000e+00	0.000000e+00	0.000000e+00	
237	1.070801e-07	5.000000e+00	0.000000e+00	0.000000e+00	
238	1.071145e-07	5.000000e+00	0.000000e+00	0.000000e+00	
239	1.071208e-07	5.000000e+00	0.000000e+00	0.000000e+00	
240	1.071335e-07	5.000000e+00	0.000000e+00	0.000000e+00	
241	1.071590e-07	5.000000e+00	0.000000e+00	0.000000e+00	
242	1.072098e-07	5.000000e+00	0.000000e+00	0.000000e+00	
243	1.073115e-07	5.000000e+00	0.000000e+00	0.000000e+00	
244	1.075149e-07	5.000000e+00	0.000000e+00	0.000000e+00	
245	1.079218e-07	5.000000e+00	0.000000e+00	0.000000e+00	
246	1.080130e-07	5.000000e+00	0.000000e+00	0.000000e+00	
247	1.080131e-07	5.000000e+00	0.000000e+00	0.000000e+00	
248	1.080134e-07	5.000000e+00	0.000000e+00	0.000000e+00	
249	1.080140e-07	5.000000e+00	0.000000e+00	0.000000e+00	
250	1.080145e-07	5.000000e+00	0.000000e+00	0.000000e+00	
251	1.080146e-07	5.000000e+00	0.000000e+00	0.000000e+00	
252	1.080148e-07	5.000000e+00	0.000000e+00	0.000000e+00	
253	1.080153e-07	5.000000e+00	0.000000e+00	0.000000e+00	
254	1.080163e-07	5.000000e+00	0.000000e+00	0.000000e+00	
255	1.080170e-07	5.000000e+00	0.000000e+00	0.000000e+00	
256	1.080172e-07	5.000000e+00	0.000000e+00	0.000000e+00	
257	1.080176e-07	5.000000e+00	0.000000e+00	0.000000e+00	
258	1.080183e-07	5.000000e+00	0.000000e+00	0.000000e+00	
259	1.080198e-07	5.000000e+00	0.000000e+00	0.000000e+00	
260	1.080229e-07	5.000000e+00	0.000000e+00	0.000000e+00	
261	1.080289e-07	5.000000e+00	0.000000e+00	0.000000e+00	
262	1.080411e-07	5.000000e+00	0.000000e+00	0.000000e+00	
263	1.080653e-07	5.000000e+00	0.000000e+00	0.000000e+00	
264	1.081138e-07	5.000000e+00	0.000000e+00	0.000000e+00	
265	1.082108e-07	5.000000e+00	0.000000e+00	0.000000e+00	
266	1.084048e-07	5.000000e+00	0.000000e+00	0.000000e+00	
267	1.087928e-07	5.000000e+00	0.000000e+00	0.000000e+00	
268	1.089115e-07	5.000000e+00	0.000000e+00	0.000000e+00	
269	1.089118e-07	5.000000e+00	0.000000e+00	0.000000e+00	
270	1.089124e-07	5.000000e+00	0.000000e+00	0.000000e+00	
271	1.089136e-07	5.000000e+00	0.000000e+00	0.000000e+00	
272	1.089145e-07	5.000000e+00	0.000000e+00	0.000000e+00	
273	1.089147e-07	5.000000e+00	0.000000e+00	0.000000e+00	
274	1.089152e-07	5.000000e+00	0.000000e+00	0.000000e+00	
275	1.089161e-07	5.000000e+00	0.000000e+00	0.000000e+00	
276	1.089180e-07	5.000000e+00	0.000000e+00	0.000000e+00	
277	1.089218e-07	5.000000e+00	0.000000e+00	0.000000e+00	
278	1.089294e-07	5.000000e+00	0.000000e+00	0.000000e+00	
279	1.089446e-07	5.000000e+00	0.000000e+00	0.000000e+00	
280	1.089749e-07	5.000000e+00	0.000000e+00	0.000000e+00	
281	1.090115e-07	5.000000e+00	0.000000e+00	0.000000e+00	
282	1.090118e-07	5.000000e+00	0.000000e+00	0.000000e+00	
283	1.090124e-07	5.000000e+00	0.000000e+00	0.000000e+00	
284	1.090130e-07	5.000000e+00	0.000000e+00	0.000000e+00	
285	1.090131e-07	5.000000e+00	0.000000e+00	0.000000e+00	
286	1.090134e-07	5.000000e+00	0.000000e+00	0.000000e+00	

Index   time            c               gnd             m               
--------------------------------------------------------------------------------
287	1.090138e-07	5.000000e+00	0.000000e+00	0.000000e+00	
288	1.090145e-07	5.000000e+00	0.000000e+00	0.000000e+00	
289	1.090146e-07	5.000000e+00	0.000000e+00	0.000000e+00	
290	1.090148e-07	5.000000e+00	0.000000e+00	0.000000e+00	
291	1.090151e-07	5.000000e+00	0.000000e+00	0.000000e+00	
292	1.090159e-07	5.000000e+00	0.000000e+00	0.000000e+00	
293	1.090170e-07	5.000000e+00	0.000000e+00	0.000000e+00	
294	1.090172e-07	5.000000e+00	0.000000e+00	0.000000e+00	
295	1.090175e-07	5.000000e+00	0.000000e+00	0.000000e+00	
296	1.090181e-07	5.000000e+00	0.000000e+00	0.000000e+00	
297	1.090193e-07	5.000000e+00	0.000000e+00	0.000000e+00	
298	1.090217e-07	5.000000e+00	0.000000e+00	0.000000e+00	
299	1.090265e-07	5.000000e+00	0.000000e+00	0.000000e+00	
300	1.090362e-07	5.000000e+00	0.000000e+00	0.000000e+00	
301	1.090556e-07	5.000000e+00	0.000000e+00	0.000000e+00	
302	1.090944e-07	5.000000e+00	0.000000e+00	0.000000e+00	
303	1.091115e-07	5.000000e+00	0.000000e+00	0.000000e+00	
304	1.091193e-07	5.000000e+00	0.000000e+00	0.000000e+00	
305	1.091348e-07	5.000000e+00	0.000000e+00	0.000000e+00	
306	1.091658e-07	5.000000e+00	0.000000e+00	0.000000e+00	
307	1.092279e-07	5.000000e+00	0.000000e+00	0.000000e+00	
308	1.093521e-07	5.000000e+00	0.000000e+00	0.000000e+00	
309	1.096004e-07	5.000000e+00	0.000000e+00	0.000000e+00	
310	1.100115e-07	5.000000e+00	0.000000e+00	0.000000e+00	
311	1.100145e-07	5.000000e+00	0.000000e+00	0.000000e+00	
312	1.100170e-07	5.000000e+00	0.000000e+00	0.000000e+00	
313	1.100175e-07	5.000000e+00	0.000000e+00	0.000000e+00	
314	1.100185e-07	5.000000e+00	0.000000e+00	0.000000e+00	
315	1.100205e-07	5.000000e+00	0.000000e+00	0.000000e+00	
316	1.100244e-07	5.000000e+00	0.000000e+00	0.000000e+00	
317	1.100324e-07	5.000000e+00	0.000000e+00	0.000000e+00	
318	1.100483e-07	5.000000e+00	0.000000e+00	0.000000e+00	
319	1.100801e-07	5.000000e+00	0.000000e+00	0.000000e+00	
320	1.101145e-07	5.000000e+00	0.000000e+00	0.000000e+00	
321	1.101208e-07	5.000000e+00	0.000000e+00	0.000000e+00	
322	1.101335e-07	5.000000e+00	0.000000e+00	0.000000e+00	
323	1.101590e-07	5.000000e+00	0.000000e+00	0.000000e+00	
324	1.102098e-07	5.000000e+00	0.000000e+00	0.000000e+00	
325	1.103115e-07	5.000000e+00	0.000000e+00	0.000000e+00	
326	1.105149e-07	5.000000e+00	0.000000e+00	0.000000e+00	
327	1.109218e-07	5.000000e+00	0.000000e+00	0.000000e+00	
328	1.110130e-07	5.000000e+00	0.000000e+00	0.000000e+00	
329	1.110131e-07	5.000000e+00	0.000000e+00	0.000000e+00	
330	1.110134e-07	5.000000e+00	0.000000e+00	0.000000e+00	
331	1.110140e-07	5.000000e+00	0.000000e+00	0.000000e+00	
