        * c:\users\mamat\esim-workspace\bjt_ce_config\bjt_ce_config.cir
        DC transfer characteristic  Tue Jun 24 15:15:04  2025
--------------------------------------------------------------------------------
Index   v-sweep         ib              net-_q1-pad1_   net-_q1-pad2_   
--------------------------------------------------------------------------------
0	0.000000e+00	5.381074e-18	-4.19984e-26	5.381074e-18	
1	5.000000e-03	4.177586e-03	5.000000e-03	4.177586e-03	
2	1.000000e-02	8.264006e-03	9.999999e-03	8.264006e-03	
3	1.500000e-02	1.225043e-02	1.500000e-02	1.225043e-02	
4	2.000000e-02	1.612774e-02	2.000000e-02	1.612774e-02	
5	2.500000e-02	1.988680e-02	2.500000e-02	1.988680e-02	
6	3.000000e-02	2.351869e-02	3.000000e-02	2.351869e-02	
7	3.500000e-02	2.701579e-02	3.500000e-02	2.701579e-02	
8	4.000000e-02	3.036801e-02	4.000000e-02	3.036801e-02	
9	4.500000e-02	3.357083e-02	4.500000e-02	3.357083e-02	
10	5.000000e-02	3.661600e-02	4.999999e-02	3.661600e-02	
11	5.500000e-02	3.949882e-02	5.499999e-02	3.949882e-02	
12	6.000000e-02	4.221687e-02	5.999999e-02	4.221687e-02	
13	6.500000e-02	4.476750e-02	6.499999e-02	4.476750e-02	
14	7.000000e-02	4.714986e-02	6.999999e-02	4.714986e-02	
15	7.500000e-02	4.936443e-02	7.499999e-02	4.936443e-02	
16	8.000000e-02	5.141700e-02	7.999999e-02	5.141700e-02	
17	8.500000e-02	5.330729e-02	8.499999e-02	5.330729e-02	
18	9.000000e-02	5.504578e-02	8.999999e-02	5.504578e-02	
19	9.500000e-02	5.663664e-02	9.499999e-02	5.663664e-02	
20	1.000000e-01	5.808679e-02	9.999999e-02	5.808679e-02	
21	1.050000e-01	5.940591e-02	1.050000e-01	5.940591e-02	
22	1.100000e-01	6.060423e-02	1.100000e-01	6.060423e-02	
23	1.150000e-01	6.168715e-02	1.150000e-01	6.168715e-02	
24	1.200000e-01	6.266511e-02	1.200000e-01	6.266511e-02	
25	1.250000e-01	6.354535e-02	1.250000e-01	6.354535e-02	
26	1.300000e-01	6.434051e-02	1.300000e-01	6.434051e-02	
27	1.350000e-01	6.505679e-02	1.350000e-01	6.505679e-02	
28	1.400000e-01	6.570018e-02	1.400000e-01	6.570018e-02	
29	1.450000e-01	6.627672e-02	1.450000e-01	6.627672e-02	
30	1.500000e-01	6.680023e-02	1.500000e-01	6.680023e-02	
31	1.550000e-01	6.727060e-02	1.550000e-01	6.727060e-02	
32	1.600000e-01	6.769406e-02	1.600000e-01	6.769406e-02	
33	1.650000e-01	6.807815e-02	1.650000e-01	6.807815e-02	
34	1.700000e-01	6.842424e-02	1.700000e-01	6.842424e-02	
35	1.750000e-01	6.873935e-02	1.750000e-01	6.873935e-02	
36	1.800000e-01	6.902867e-02	1.800000e-01	6.902867e-02	
37	1.850000e-01	6.928253e-02	1.850000e-01	6.928253e-02	
38	1.900000e-01	6.951319e-02	1.900000e-01	6.951319e-02	
39	1.950000e-01	6.972425e-02	1.950000e-01	6.972425e-02	
40	2.000000e-01	6.991526e-02	2.000000e-01	6.991526e-02	
41	2.050000e-01	7.009322e-02	2.050000e-01	7.009322e-02	
42	2.100000e-01	7.025877e-02	2.100000e-01	7.025877e-02	
43	2.150000e-01	7.041248e-02	2.150000e-01	7.041248e-02	
44	2.200000e-01	7.055903e-02	2.200000e-01	7.055903e-02	
45	2.250000e-01	7.069739e-02	2.250000e-01	7.069739e-02	
46	2.300000e-01	7.083046e-02	2.300000e-01	7.083046e-02	
47	2.350000e-01	7.095892e-02	2.350000e-01	7.095892e-02	
48	2.400000e-01	7.108079e-02	2.400000e-01	7.108079e-02	
49	2.450000e-01	7.119936e-02	2.450000e-01	7.119936e-02	
50	2.500000e-01	7.131502e-02	2.500000e-01	7.131502e-02	
51	2.550000e-01	7.142459e-02	2.550000e-01	7.142459e-02	
52	2.600000e-01	7.153407e-02	2.600000e-01	7.153407e-02	
53	2.650000e-01	7.164194e-02	2.650000e-01	7.164194e-02	
54	2.700000e-01	7.174347e-02	2.700000e-01	7.174347e-02	

Index   v-sweep         ib              net-_q1-pad1_   net-_q1-pad2_   
--------------------------------------------------------------------------------
55	2.750000e-01	7.184685e-02	2.750000e-01	7.184685e-02	
56	2.800000e-01	7.194724e-02	2.800000e-01	7.194724e-02	
57	2.850000e-01	7.204661e-02	2.850000e-01	7.204661e-02	
58	2.900000e-01	7.214232e-02	2.900000e-01	7.214232e-02	
59	2.950000e-01	7.223974e-02	2.950000e-01	7.223974e-02	
60	3.000000e-01	7.233442e-02	3.000000e-01	7.233442e-02	
61	3.050000e-01	7.242875e-02	3.050000e-01	7.242875e-02	
62	3.100000e-01	7.252127e-02	3.100000e-01	7.252127e-02	
63	3.150000e-01	7.261439e-02	3.150000e-01	7.261439e-02	
64	3.200000e-01	7.270534e-02	3.200000e-01	7.270534e-02	
65	3.250000e-01	7.279349e-02	3.250000e-01	7.279349e-02	
66	3.300000e-01	7.288610e-02	3.300000e-01	7.288610e-02	
67	3.350000e-01	7.297431e-02	3.350000e-01	7.297431e-02	
68	3.400000e-01	7.306243e-02	3.400000e-01	7.306243e-02	
69	3.450000e-01	7.315069e-02	3.450000e-01	7.315069e-02	
70	3.500000e-01	7.323789e-02	3.500000e-01	7.323789e-02	
71	3.550000e-01	7.332519e-02	3.550000e-01	7.332519e-02	
72	3.600000e-01	7.341098e-02	3.600000e-01	7.341098e-02	
73	3.650000e-01	7.349728e-02	3.650000e-01	7.349728e-02	
74	3.700000e-01	7.358250e-02	3.700000e-01	7.358250e-02	
75	3.750000e-01	7.366692e-02	3.750000e-01	7.366692e-02	
76	3.800000e-01	7.375265e-02	3.800000e-01	7.375265e-02	
77	3.850000e-01	7.383700e-02	3.850000e-01	7.383700e-02	
78	3.900000e-01	7.392189e-02	3.900000e-01	7.392189e-02	
79	3.950000e-01	7.400566e-02	3.950000e-01	7.400566e-02	
80	4.000000e-01	7.408825e-02	4.000000e-01	7.408825e-02	
81	4.050000e-01	7.417066e-02	4.050000e-01	7.417066e-02	
82	4.100000e-01	7.425288e-02	4.100000e-01	7.425288e-02	
83	4.150000e-01	7.433487e-02	4.150000e-01	7.433487e-02	
84	4.200000e-01	7.441865e-02	4.200000e-01	7.441865e-02	
85	4.250000e-01	7.449981e-02	4.250000e-01	7.449981e-02	
86	4.300000e-01	7.458169e-02	4.300000e-01	7.458169e-02	
87	4.350000e-01	7.466357e-02	4.350000e-01	7.466357e-02	
88	4.400000e-01	7.474213e-02	4.400000e-01	7.474213e-02	
89	4.450000e-01	7.482410e-02	4.450000e-01	7.482410e-02	
90	4.500000e-01	7.490390e-02	4.500000e-01	7.490390e-02	
91	4.550000e-01	7.498486e-02	4.550000e-01	7.498486e-02	
92	4.600000e-01	7.506470e-02	4.600000e-01	7.506470e-02	
93	4.650000e-01	7.514616e-02	4.650000e-01	7.514616e-02	
94	4.700000e-01	7.522420e-02	4.700000e-01	7.522420e-02	
95	4.750000e-01	7.530388e-02	4.750000e-01	7.530388e-02	
96	4.800000e-01	7.538290e-02	4.800000e-01	7.538290e-02	
97	4.850000e-01	7.546226e-02	4.850000e-01	7.546226e-02	
98	4.900000e-01	7.554047e-02	4.900000e-01	7.554047e-02	
99	4.950000e-01	7.561750e-02	4.950000e-01	7.561750e-02	
100	5.000000e-01	7.569849e-02	5.000000e-01	7.569849e-02	
101	5.050000e-01	7.577567e-02	5.050000e-01	7.577567e-02	
102	5.100000e-01	7.585392e-02	5.100000e-01	7.585392e-02	
103	5.150000e-01	7.593020e-02	5.150000e-01	7.593020e-02	
104	5.200000e-01	7.600868e-02	5.200000e-01	7.600868e-02	
105	5.250000e-01	7.608612e-02	5.250000e-01	7.608612e-02	
106	5.300000e-01	7.616310e-02	5.300000e-01	7.616310e-02	
107	5.350000e-01	7.624049e-02	5.350000e-01	7.624049e-02	
108	5.400000e-01	7.631664e-02	5.400000e-01	7.631664e-02	
109	5.450000e-01	7.639314e-02	5.450000e-01	7.639314e-02	
110	5.500000e-01	7.646969e-02	5.500000e-01	7.646969e-02	
111	5.550000e-01	7.654597e-02	5.550000e-01	7.654597e-02	
112	5.600000e-01	7.662322e-02	5.600000e-01	7.662322e-02	

Index   v-sweep         ib              net-_q1-pad1_   net-_q1-pad2_   
--------------------------------------------------------------------------------
113	5.650000e-01	7.669709e-02	5.650000e-01	7.669709e-02	
114	5.700000e-01	7.677334e-02	5.700000e-01	7.677334e-02	
115	5.750000e-01	7.684847e-02	5.750000e-01	7.684847e-02	
116	5.800000e-01	7.692424e-02	5.800000e-01	7.692424e-02	
117	5.850000e-01	7.699920e-02	5.850000e-01	7.699920e-02	
118	5.900000e-01	7.707561e-02	5.900000e-01	7.707561e-02	
119	5.950000e-01	7.714995e-02	5.950000e-01	7.714995e-02	
120	6.000000e-01	7.722477e-02	6.000000e-01	7.722477e-02	
121	6.050000e-01	7.730012e-02	6.050000e-01	7.730012e-02	
122	6.100000e-01	7.737282e-02	6.100000e-01	7.737282e-02	
123	6.150000e-01	7.744753e-02	6.150000e-01	7.744753e-02	
124	6.200000e-01	7.752036e-02	6.200000e-01	7.752036e-02	
125	6.250000e-01	7.759527e-02	6.250000e-01	7.759527e-02	
126	6.300000e-01	7.766906e-02	6.300000e-01	7.766906e-02	
127	6.350000e-01	7.774191e-02	6.350000e-01	7.774191e-02	
128	6.400000e-01	7.781533e-02	6.400000e-01	7.781533e-02	
129	6.450000e-01	7.788931e-02	6.450000e-01	7.788931e-02	
130	6.500000e-01	7.796064e-02	6.500000e-01	7.796064e-02	
131	6.550000e-01	7.803370e-02	6.550000e-01	7.803370e-02	
132	6.600000e-01	7.810993e-02	6.600000e-01	7.810993e-02	
133	6.650000e-01	7.818220e-02	6.650000e-01	7.818220e-02	
134	6.700000e-01	7.825296e-02	6.700000e-01	7.825296e-02	
135	6.750000e-01	7.832584e-02	6.750000e-01	7.832584e-02	
136	6.800000e-01	7.839723e-02	6.800000e-01	7.839723e-02	
137	6.850000e-01	7.846986e-02	6.850000e-01	7.846986e-02	
138	6.900000e-01	7.854121e-02	6.900000e-01	7.854121e-02	
139	6.950000e-01	7.861454e-02	6.950000e-01	7.861454e-02	
140	7.000000e-01	7.868539e-02	7.000000e-01	7.868539e-02	
141	7.050000e-01	7.875733e-02	7.050000e-01	7.875733e-02	
142	7.100000e-01	7.882760e-02	7.100000e-01	7.882760e-02	
143	7.150000e-01	7.889837e-02	7.150000e-01	7.889837e-02	
144	7.200000e-01	7.896916e-02	7.200000e-01	7.896916e-02	
145	7.250000e-01	7.904107e-02	7.250000e-01	7.904107e-02	
146	7.300000e-01	7.911205e-02	7.300000e-01	7.911205e-02	
147	7.350000e-01	7.918270e-02	7.350000e-01	7.918270e-02	
148	7.400000e-01	7.925209e-02	7.400000e-01	7.925209e-02	
149	7.450000e-01	7.932279e-02	7.450000e-01	7.932279e-02	
150	7.500000e-01	7.939227e-02	7.500000e-01	7.939227e-02	
151	7.550000e-01	7.946160e-02	7.550000e-01	7.946160e-02	
152	7.600000e-01	7.953312e-02	7.600000e-01	7.953312e-02	
153	7.650000e-01	7.960294e-02	7.650000e-01	7.960294e-02	
154	7.700000e-01	7.967245e-02	7.700000e-01	7.967245e-02	
155	7.750000e-01	7.974060e-02	7.750000e-01	7.974060e-02	
156	7.800000e-01	7.980946e-02	7.800000e-01	7.980946e-02	
157	7.850000e-01	7.987874e-02	7.850000e-01	7.987874e-02	
158	7.900000e-01	7.994847e-02	7.900000e-01	7.994847e-02	
159	7.950000e-01	8.001745e-02	7.950000e-01	8.001745e-02	
160	8.000000e-01	8.008622e-02	8.000000e-01	8.008622e-02	
161	8.050000e-01	8.015396e-02	8.050000e-01	8.015396e-02	
162	8.100000e-01	8.022359e-02	8.100000e-01	8.022359e-02	
163	8.150000e-01	8.029235e-02	8.150000e-01	8.029235e-02	
164	8.200000e-01	8.036101e-02	8.200000e-01	8.036101e-02	
165	8.250000e-01	8.042747e-02	8.250000e-01	8.042747e-02	
166	8.300000e-01	8.049809e-02	8.300000e-01	8.049809e-02	
167	8.350000e-01	8.056514e-02	8.350000e-01	8.056514e-02	
168	8.400000e-01	8.063431e-02	8.400000e-01	8.063431e-02	
169	8.450000e-01	8.070173e-02	8.450000e-01	8.070173e-02	
170	8.500000e-01	8.076833e-02	8.500000e-01	8.076833e-02	

Index   v-sweep         ib              net-_q1-pad1_   net-_q1-pad2_   
--------------------------------------------------------------------------------
171	8.550000e-01	8.083543e-02	8.550000e-01	8.083543e-02	
172	8.600000e-01	8.090279e-02	8.600000e-01	8.090279e-02	
173	8.650000e-01	8.097041e-02	8.650000e-01	8.097041e-02	
174	8.700000e-01	8.103684e-02	8.700000e-01	8.103684e-02	
175	8.750000e-01	8.110519e-02	8.750000e-01	8.110519e-02	
176	8.800000e-01	8.117156e-02	8.800000e-01	8.117156e-02	
177	8.850000e-01	8.123834e-02	8.850000e-01	8.123834e-02	
178	8.900000e-01	8.130386e-02	8.900000e-01	8.130386e-02	
179	8.950000e-01	8.137068e-02	8.950000e-01	8.137068e-02	
180	9.000000e-01	8.143668e-02	9.000000e-01	8.143668e-02	
181	9.050000e-01	8.150204e-02	9.050000e-01	8.150204e-02	
182	9.100000e-01	8.156839e-02	9.100000e-01	8.156839e-02	
183	9.150000e-01	8.163510e-02	9.150000e-01	8.163510e-02	
184	9.200000e-01	8.170132e-02	9.200000e-01	8.170132e-02	
185	9.250000e-01	8.176662e-02	9.250000e-01	8.176662e-02	
186	9.300000e-01	8.183092e-02	9.300000e-01	8.183092e-02	
187	9.350000e-01	8.189677e-02	9.350000e-01	8.189677e-02	
188	9.400000e-01	8.196247e-02	9.400000e-01	8.196247e-02	
189	9.450000e-01	8.202801e-02	9.450000e-01	8.202801e-02	
190	9.500000e-01	8.209329e-02	9.500000e-01	8.209329e-02	
191	9.550000e-01	8.215791e-02	9.550000e-01	8.215791e-02	
192	9.600000e-01	8.222218e-02	9.600000e-01	8.222218e-02	
193	9.650000e-01	8.228654e-02	9.650000e-01	8.228654e-02	
194	9.700000e-01	8.235219e-02	9.700000e-01	8.235219e-02	
195	9.750000e-01	8.241614e-02	9.750000e-01	8.241614e-02	
196	9.800000e-01	8.248093e-02	9.800000e-01	8.248093e-02	
197	9.850000e-01	8.254411e-02	9.850000e-01	8.254411e-02	
198	9.900000e-01	8.260945e-02	9.900000e-01	8.260945e-02	
199	9.950000e-01	8.267347e-02	9.950000e-01	8.267347e-02	
200	1.000000e+00	8.273610e-02	1.000000e+00	8.273610e-02	
201	1.005000e+00	8.280111e-02	1.005000e+00	8.280111e-02	
202	1.010000e+00	8.286351e-02	1.010000e+00	8.286351e-02	
203	1.015000e+00	8.292738e-02	1.015000e+00	8.292738e-02	
204	1.020000e+00	8.299101e-02	1.020000e+00	8.299101e-02	
205	1.025000e+00	8.305409e-02	1.025000e+00	8.305409e-02	
206	1.030000e+00	8.311719e-02	1.030000e+00	8.311719e-02	
207	1.035000e+00	8.318179e-02	1.035000e+00	8.318179e-02	
208	1.040000e+00	8.324408e-02	1.040000e+00	8.324408e-02	
209	1.045000e+00	8.330733e-02	1.045000e+00	8.330733e-02	
210	1.050000e+00	8.336933e-02	1.050000e+00	8.336933e-02	
211	1.055000e+00	8.343276e-02	1.055000e+00	8.343276e-02	
212	1.060000e+00	8.349475e-02	1.060000e+00	8.349475e-02	
213	1.065000e+00	8.355796e-02	1.065000e+00	8.355796e-02	
214	1.070000e+00	8.361928e-02	1.070000e+00	8.361928e-02	
215	1.075000e+00	8.368204e-02	1.075000e+00	8.368204e-02	
216	1.080000e+00	8.374498e-02	1.080000e+00	8.374498e-02	
217	1.085000e+00	8.380552e-02	1.085000e+00	8.380552e-02	
218	1.090000e+00	8.386758e-02	1.090000e+00	8.386758e-02	
219	1.095000e+00	8.392950e-02	1.095000e+00	8.392950e-02	
220	1.100000e+00	8.399107e-02	1.100000e+00	8.399107e-02	
221	1.105000e+00	8.405332e-02	1.105000e+00	8.405332e-02	
222	1.110000e+00	8.411424e-02	1.110000e+00	8.411424e-02	
223	1.115000e+00	8.417661e-02	1.115000e+00	8.417661e-02	
224	1.120000e+00	8.423805e-02	1.120000e+00	8.423805e-02	
225	1.125000e+00	8.429926e-02	1.125000e+00	8.429926e-02	
226	1.130000e+00	8.435980e-02	1.130000e+00	8.435980e-02	
227	1.135000e+00	8.442165e-02	1.135000e+00	8.442165e-02	
228	1.140000e+00	8.448211e-02	1.140000e+00	8.448211e-02	

Index   v-sweep         ib              net-_q1-pad1_   net-_q1-pad2_   
--------------------------------------------------------------------------------
229	1.145000e+00	8.454232e-02	1.145000e+00	8.454232e-02	
230	1.150000e+00	8.460293e-02	1.150000e+00	8.460293e-02	
231	1.155000e+00	8.466432e-02	1.155000e+00	8.466432e-02	
232	1.160000e+00	8.472492e-02	1.160000e+00	8.472492e-02	
233	1.165000e+00	8.478377e-02	1.165000e+00	8.478377e-02	
234	1.170000e+00	8.484551e-02	1.170000e+00	8.484551e-02	
235	1.175000e+00	8.490508e-02	1.175000e+00	8.490508e-02	
236	1.180000e+00	8.496591e-02	1.180000e+00	8.496591e-02	
237	1.185000e+00	8.502529e-02	1.185000e+00	8.502529e-02	
238	1.190000e+00	8.508406e-02	1.190000e+00	8.508406e-02	
239	1.195000e+00	8.514529e-02	1.195000e+00	8.514529e-02	
240	1.200000e+00	8.520524e-02	1.200000e+00	8.520524e-02	
241	1.205000e+00	8.526434e-02	1.205000e+00	8.526434e-02	
242	1.210000e+00	8.532260e-02	1.210000e+00	8.532260e-02	
243	1.215000e+00	8.538258e-02	1.215000e+00	8.538258e-02	
244	1.220000e+00	8.544211e-02	1.220000e+00	8.544211e-02	
245	1.225000e+00	8.550088e-02	1.225000e+00	8.550088e-02	
246	1.230000e+00	8.556090e-02	1.230000e+00	8.556090e-02	
247	1.235000e+00	8.561984e-02	1.235000e+00	8.561984e-02	
248	1.240000e+00	8.567797e-02	1.240000e+00	8.567797e-02	
249	1.245000e+00	8.573674e-02	1.245000e+00	8.573674e-02	
250	1.250000e+00	8.579523e-02	1.250000e+00	8.579523e-02	
251	1.255000e+00	8.585461e-02	1.255000e+00	8.585461e-02	
252	1.260000e+00	8.591364e-02	1.260000e+00	8.591364e-02	
253	1.265000e+00	8.597086e-02	1.265000e+00	8.597086e-02	
254	1.270000e+00	8.602929e-02	1.270000e+00	8.602929e-02	
255	1.275000e+00	8.608728e-02	1.275000e+00	8.608728e-02	
256	1.280000e+00	8.614574e-02	1.280000e+00	8.614574e-02	
257	1.285000e+00	8.620408e-02	1.285000e+00	8.620408e-02	
258	1.290000e+00	8.626262e-02	1.290000e+00	8.626262e-02	
259	1.295000e+00	8.631903e-02	1.295000e+00	8.631903e-02	
260	1.300000e+00	8.637729e-02	1.300000e+00	8.637729e-02	
261	1.305000e+00	8.643546e-02	1.305000e+00	8.643546e-02	
262	1.310000e+00	8.649249e-02	1.310000e+00	8.649249e-02	
263	1.315000e+00	8.654963e-02	1.315000e+00	8.654963e-02	
264	1.320000e+00	8.660846e-02	1.320000e+00	8.660846e-02	
265	1.325000e+00	8.666468e-02	1.325000e+00	8.666468e-02	
266	1.330000e+00	8.672205e-02	1.330000e+00	8.672205e-02	
267	1.335000e+00	8.677905e-02	1.335000e+00	8.677905e-02	
268	1.340000e+00	8.683687e-02	1.340000e+00	8.683687e-02	
269	1.345000e+00	8.689265e-02	1.345000e+00	8.689265e-02	
270	1.350000e+00	8.695083e-02	1.350000e+00	8.695083e-02	
271	1.355000e+00	8.700631e-02	1.355000e+00	8.700631e-02	
272	1.360000e+00	8.706416e-02	1.360000e+00	8.706416e-02	
273	1.365000e+00	8.712080e-02	1.365000e+00	8.712080e-02	
274	1.370000e+00	8.717654e-02	1.370000e+00	8.717654e-02	
275	1.375000e+00	8.723271e-02	1.375000e+00	8.723271e-02	
276	1.380000e+00	8.728979e-02	1.380000e+00	8.728979e-02	
277	1.385000e+00	8.734508e-02	1.385000e+00	8.734508e-02	
278	1.390000e+00	8.740192e-02	1.390000e+00	8.740192e-02	
279	1.395000e+00	8.745847e-02	1.395000e+00	8.745847e-02	
280	1.400000e+00	8.751350e-02	1.400000e+00	8.751350e-02	
281	1.405000e+00	8.756892e-02	1.405000e+00	8.756892e-02	
282	1.410000e+00	8.762487e-02	1.410000e+00	8.762487e-02	
283	1.415000e+00	8.768082e-02	1.415000e+00	8.768082e-02	
284	1.420000e+00	8.773733e-02	1.420000e+00	8.773733e-02	
285	1.425000e+00	8.779154e-02	1.425000e+00	8.779154e-02	
286	1.430000e+00	8.784713e-02	1.430000e+00	8.784713e-02	

Index   v-sweep         ib              net-_q1-pad1_   net-_q1-pad2_   
--------------------------------------------------------------------------------
287	1.435000e+00	8.790307e-02	1.435000e+00	8.790307e-02	
288	1.440000e+00	8.795920e-02	1.440000e+00	8.795920e-02	
289	1.445000e+00	8.801383e-02	1.445000e+00	8.801383e-02	
290	1.450000e+00	8.806946e-02	1.450000e+00	8.806946e-02	
291	1.455000e+00	8.812334e-02	1.455000e+00	8.812334e-02	
292	1.460000e+00	8.817844e-02	1.460000e+00	8.817844e-02	
293	1.465000e+00	8.823361e-02	1.465000e+00	8.823361e-02	
294	1.470000e+00	8.828797e-02	1.470000e+00	8.828797e-02	
295	1.475000e+00	8.834343e-02	1.475000e+00	8.834343e-02	
296	1.480000e+00	8.839790e-02	1.480000e+00	8.839790e-02	
297	1.485000e+00	8.845170e-02	1.485000e+00	8.845170e-02	
298	1.490000e+00	8.850655e-02	1.490000e+00	8.850655e-02	
299	1.495000e+00	8.856147e-02	1.495000e+00	8.856147e-02	
300	1.500000e+00	8.861598e-02	1.500000e+00	8.861598e-02	
301	1.505000e+00	8.867009e-02	1.505000e+00	8.867009e-02	
302	1.510000e+00	8.872345e-02	1.510000e+00	8.872345e-02	
303	1.515000e+00	8.877757e-02	1.515000e+00	8.877757e-02	
304	1.520000e+00	8.883235e-02	1.520000e+00	8.883235e-02	
305	1.525000e+00	8.888516e-02	1.525000e+00	8.888516e-02	
306	1.530000e+00	8.893871e-02	1.530000e+00	8.893871e-02	
307	1.535000e+00	8.899237e-02	1.535000e+00	8.899237e-02	
308	1.540000e+00	8.904655e-02	1.540000e+00	8.904655e-02	
309	1.545000e+00	8.909984e-02	1.545000e+00	8.909984e-02	
310	1.550000e+00	8.915422e-02	1.550000e+00	8.915422e-02	
311	1.555000e+00	8.920798e-02	1.555000e+00	8.920798e-02	
312	1.560000e+00	8.926110e-02	1.560000e+00	8.926110e-02	
313	1.565000e+00	8.931439e-02	1.565000e+00	8.931439e-02	
314	1.570000e+00	8.936690e-02	1.570000e+00	8.936690e-02	
315	1.575000e+00	8.942027e-02	1.575000e+00	8.942027e-02	
316	1.580000e+00	8.947320e-02	1.580000e+00	8.947320e-02	
317	1.585000e+00	8.952532e-02	1.585000e+00	8.952532e-02	
318	1.590000e+00	8.957804e-02	1.590000e+00	8.957804e-02	
319	1.595000e+00	8.963072e-02	1.595000e+00	8.963072e-02	
320	1.600000e+00	8.968361e-02	1.600000e+00	8.968361e-02	
321	1.605000e+00	8.973604e-02	1.605000e+00	8.973604e-02	
322	1.610000e+00	8.978915e-02	1.610000e+00	8.978915e-02	
323	1.615000e+00	8.984188e-02	1.615000e+00	8.984188e-02	
324	1.620000e+00	8.989448e-02	1.620000e+00	8.989448e-02	
325	1.625000e+00	8.994582e-02	1.625000e+00	8.994582e-02	
326	1.630000e+00	8.999803e-02	1.630000e+00	8.999803e-02	
327	1.635000e+00	9.005114e-02	1.635000e+00	9.005114e-02	
328	1.640000e+00	9.010335e-02	1.640000e+00	9.010335e-02	
329	1.645000e+00	9.015565e-02	1.645000e+00	9.015565e-02	
330	1.650000e+00	9.020739e-02	1.650000e+00	9.020739e-02	
331	1.655000e+00	9.025957e-02	1.655000e+00	9.025957e-02	
