* /home/saurabh/installer_main_workshop/esim-1.1.2/examples/bjt_frequency_response/bjt_frequency_response.cir
AC Analysis  Tue Jun 24 19:42:59  2025
--------------------------------------------------------------------------------
Index   frequency       v1#branch                       
--------------------------------------------------------------------------------
0	1.000000e+00	-3.09723e-04,	-1.56978e-04	
1	1.023293e+00	-3.10651e-04,	-1.58454e-04	
2	1.047129e+00	-3.11580e-04,	-1.59983e-04	
3	1.071519e+00	-3.12511e-04,	-1.61565e-04	
4	1.096478e+00	-3.13444e-04,	-1.63202e-04	
5	1.122018e+00	-3.14379e-04,	-1.64893e-04	
6	1.148154e+00	-3.15315e-04,	-1.66640e-04	
7	1.174898e+00	-3.16253e-04,	-1.68443e-04	
8	1.202264e+00	-3.17193e-04,	-1.70303e-04	
9	1.230269e+00	-3.18134e-04,	-1.72220e-04	
10	1.258925e+00	-3.19076e-04,	-1.74196e-04	
11	1.288250e+00	-3.20018e-04,	-1.76232e-04	
12	1.318257e+00	-3.20962e-04,	-1.78328e-04	
13	1.348963e+00	-3.21907e-04,	-1.80486e-04	
14	1.380384e+00	-3.22851e-04,	-1.82707e-04	
15	1.412538e+00	-3.23797e-04,	-1.84992e-04	
16	1.445440e+00	-3.24742e-04,	-1.87343e-04	
17	1.479108e+00	-3.25687e-04,	-1.89761e-04	
18	1.513561e+00	-3.26632e-04,	-1.92248e-04	
19	1.548817e+00	-3.27577e-04,	-1.94805e-04	
20	1.584893e+00	-3.28522e-04,	-1.97434e-04	
21	1.621810e+00	-3.29466e-04,	-2.00136e-04	
22	1.659587e+00	-3.30410e-04,	-2.02914e-04	
23	1.698244e+00	-3.31353e-04,	-2.05769e-04	
24	1.737801e+00	-3.32296e-04,	-2.08704e-04	
25	1.778279e+00	-3.33239e-04,	-2.11719e-04	
26	1.819701e+00	-3.34182e-04,	-2.14819e-04	
27	1.862087e+00	-3.35125e-04,	-2.18004e-04	
28	1.905461e+00	-3.36068e-04,	-2.21276e-04	
29	1.949845e+00	-3.37012e-04,	-2.24639e-04	
30	1.995262e+00	-3.37957e-04,	-2.28095e-04	
31	2.041738e+00	-3.38904e-04,	-2.31646e-04	
32	2.089296e+00	-3.39852e-04,	-2.35294e-04	
33	2.137962e+00	-3.40802e-04,	-2.39042e-04	
34	2.187762e+00	-3.41756e-04,	-2.42893e-04	
35	2.238721e+00	-3.42713e-04,	-2.46849e-04	
36	2.290868e+00	-3.43674e-04,	-2.50913e-04	
37	2.344229e+00	-3.44641e-04,	-2.55088e-04	
38	2.398833e+00	-3.45614e-04,	-2.59376e-04	
39	2.454709e+00	-3.46593e-04,	-2.63781e-04	
40	2.511886e+00	-3.47580e-04,	-2.68306e-04	
41	2.570396e+00	-3.48576e-04,	-2.72952e-04	
42	2.630268e+00	-3.49583e-04,	-2.77724e-04	
43	2.691535e+00	-3.50600e-04,	-2.82625e-04	
44	2.754229e+00	-3.51630e-04,	-2.87657e-04	
45	2.818383e+00	-3.52673e-04,	-2.92823e-04	
46	2.884032e+00	-3.53732e-04,	-2.98128e-04	
47	2.951209e+00	-3.54808e-04,	-3.03573e-04	
48	3.019952e+00	-3.55901e-04,	-3.09163e-04	
49	3.090295e+00	-3.57015e-04,	-3.14900e-04	
50	3.162278e+00	-3.58150e-04,	-3.20789e-04	
51	3.235937e+00	-3.59309e-04,	-3.26832e-04	
52	3.311311e+00	-3.60492e-04,	-3.33033e-04	
53	3.388442e+00	-3.61703e-04,	-3.39395e-04	
54	3.467369e+00	-3.62944e-04,	-3.45922e-04	

Index   frequency       v1#branch                       
--------------------------------------------------------------------------------
55	3.548134e+00	-3.64215e-04,	-3.52618e-04	
56	3.630781e+00	-3.65521e-04,	-3.59485e-04	
57	3.715352e+00	-3.66862e-04,	-3.66529e-04	
58	3.801894e+00	-3.68242e-04,	-3.73752e-04	
59	3.890451e+00	-3.69663e-04,	-3.81158e-04	
60	3.981072e+00	-3.71127e-04,	-3.88752e-04	
61	4.073803e+00	-3.72637e-04,	-3.96536e-04	
62	4.168694e+00	-3.74197e-04,	-4.04516e-04	
63	4.265795e+00	-3.75809e-04,	-4.12694e-04	
64	4.365158e+00	-3.77475e-04,	-4.21075e-04	
65	4.466836e+00	-3.79201e-04,	-4.29663e-04	
66	4.570882e+00	-3.80988e-04,	-4.38462e-04	
67	4.677351e+00	-3.82840e-04,	-4.47476e-04	
68	4.786301e+00	-3.84760e-04,	-4.56709e-04	
69	4.897788e+00	-3.86754e-04,	-4.66166e-04	
70	5.011872e+00	-3.88824e-04,	-4.75850e-04	
71	5.128614e+00	-3.90974e-04,	-4.85767e-04	
72	5.248075e+00	-3.93209e-04,	-4.95920e-04	
73	5.370318e+00	-3.95533e-04,	-5.06313e-04	
74	5.495409e+00	-3.97950e-04,	-5.16952e-04	
75	5.623413e+00	-4.00466e-04,	-5.27840e-04	
76	5.754399e+00	-4.03086e-04,	-5.38981e-04	
77	5.888437e+00	-4.05813e-04,	-5.50382e-04	
78	6.025596e+00	-4.08655e-04,	-5.62045e-04	
79	6.165950e+00	-4.11615e-04,	-5.73975e-04	
80	6.309573e+00	-4.14701e-04,	-5.86178e-04	
81	6.456542e+00	-4.17918e-04,	-5.98656e-04	
82	6.606934e+00	-4.21272e-04,	-6.11416e-04	
83	6.760830e+00	-4.24770e-04,	-6.24461e-04	
84	6.918310e+00	-4.28418e-04,	-6.37795e-04	
85	7.079458e+00	-4.32224e-04,	-6.51424e-04	
86	7.244360e+00	-4.36195e-04,	-6.65352e-04	
87	7.413102e+00	-4.40337e-04,	-6.79582e-04	
88	7.585776e+00	-4.44660e-04,	-6.94120e-04	
89	7.762471e+00	-4.49171e-04,	-7.08969e-04	
90	7.943282e+00	-4.53879e-04,	-7.24133e-04	
91	8.128305e+00	-4.58792e-04,	-7.39618e-04	
92	8.317638e+00	-4.63919e-04,	-7.55426e-04	
93	8.511380e+00	-4.69271e-04,	-7.71562e-04	
94	8.709636e+00	-4.74856e-04,	-7.88029e-04	
95	8.912509e+00	-4.80684e-04,	-8.04831e-04	
96	9.120108e+00	-4.86767e-04,	-8.21971e-04	
97	9.332543e+00	-4.93115e-04,	-8.39452e-04	
98	9.549926e+00	-4.99740e-04,	-8.57278e-04	
99	9.772372e+00	-5.06652e-04,	-8.75452e-04	
100	1.000000e+01	-5.13864e-04,	-8.93975e-04	
101	1.023293e+01	-5.21388e-04,	-9.12850e-04	
102	1.047129e+01	-5.29238e-04,	-9.32079e-04	
103	1.071519e+01	-5.37425e-04,	-9.51664e-04	
104	1.096478e+01	-5.45965e-04,	-9.71606e-04	
105	1.122018e+01	-5.54870e-04,	-9.91906e-04	
106	1.148154e+01	-5.64156e-04,	-1.01256e-03	
107	1.174898e+01	-5.73837e-04,	-1.03358e-03	
108	1.202264e+01	-5.83929e-04,	-1.05496e-03	
109	1.230269e+01	-5.94447e-04,	-1.07669e-03	
110	1.258925e+01	-6.05407e-04,	-1.09878e-03	
111	1.288250e+01	-6.16826e-04,	-1.12122e-03	
112	1.318257e+01	-6.28721e-04,	-1.14401e-03	

Index   frequency       v1#branch                       
--------------------------------------------------------------------------------
113	1.348963e+01	-6.41109e-04,	-1.16716e-03	
114	1.380384e+01	-6.54008e-04,	-1.19064e-03	
115	1.412538e+01	-6.67435e-04,	-1.21447e-03	
116	1.445440e+01	-6.81409e-04,	-1.23862e-03	
117	1.479108e+01	-6.95949e-04,	-1.26311e-03	
118	1.513561e+01	-7.11074e-04,	-1.28792e-03	
119	1.548817e+01	-7.26803e-04,	-1.31304e-03	
120	1.584893e+01	-7.43155e-04,	-1.33846e-03	
121	1.621810e+01	-7.60150e-04,	-1.36417e-03	
122	1.659587e+01	-7.77808e-04,	-1.39017e-03	
123	1.698244e+01	-7.96149e-04,	-1.41643e-03	
124	1.737801e+01	-8.15192e-04,	-1.44296e-03	
125	1.778279e+01	-8.34958e-04,	-1.46972e-03	
126	1.819701e+01	-8.55467e-04,	-1.49671e-03	
127	1.862087e+01	-8.76738e-04,	-1.52391e-03	
128	1.905461e+01	-8.98791e-04,	-1.55130e-03	
129	1.949845e+01	-9.21646e-04,	-1.57886e-03	
130	1.995262e+01	-9.45321e-04,	-1.60657e-03	
131	2.041738e+01	-9.69835e-04,	-1.63441e-03	
132	2.089296e+01	-9.95207e-04,	-1.66235e-03	
133	2.137962e+01	-1.02145e-03,	-1.69037e-03	
134	2.187762e+01	-1.04859e-03,	-1.71845e-03	
135	2.238721e+01	-1.07664e-03,	-1.74654e-03	
136	2.290868e+01	-1.10561e-03,	-1.77463e-03	
137	2.344229e+01	-1.13552e-03,	-1.80268e-03	
138	2.398833e+01	-1.16637e-03,	-1.83066e-03	
139	2.454709e+01	-1.19819e-03,	-1.85854e-03	
140	2.511886e+01	-1.23098e-03,	-1.88628e-03	
141	2.570396e+01	-1.26476e-03,	-1.91384e-03	
142	2.630268e+01	-1.29952e-03,	-1.94119e-03	
143	2.691535e+01	-1.33528e-03,	-1.96828e-03	
144	2.754229e+01	-1.37203e-03,	-1.99508e-03	
145	2.818383e+01	-1.40979e-03,	-2.02154e-03	
146	2.884032e+01	-1.44854e-03,	-2.04763e-03	
147	2.951209e+01	-1.48830e-03,	-2.07329e-03	
148	3.019952e+01	-1.52904e-03,	-2.09849e-03	
149	3.090295e+01	-1.57077e-03,	-2.12318e-03	
150	3.162278e+01	-1.61348e-03,	-2.14731e-03	
151	3.235937e+01	-1.65716e-03,	-2.17085e-03	
152	3.311311e+01	-1.70178e-03,	-2.19373e-03	
153	3.388442e+01	-1.74733e-03,	-2.21593e-03	
154	3.467369e+01	-1.79380e-03,	-2.23738e-03	
155	3.548134e+01	-1.84115e-03,	-2.25806e-03	
156	3.630781e+01	-1.88937e-03,	-2.27790e-03	
157	3.715352e+01	-1.93842e-03,	-2.29688e-03	
158	3.801894e+01	-1.98827e-03,	-2.31494e-03	
159	3.890451e+01	-2.03889e-03,	-2.33205e-03	
160	3.981072e+01	-2.09024e-03,	-2.34816e-03	
161	4.073803e+01	-2.14228e-03,	-2.36324e-03	
162	4.168694e+01	-2.19498e-03,	-2.37725e-03	
163	4.265795e+01	-2.24827e-03,	-2.39016e-03	
164	4.365158e+01	-2.30213e-03,	-2.40193e-03	
165	4.466836e+01	-2.35649e-03,	-2.41253e-03	
166	4.570882e+01	-2.41131e-03,	-2.42195e-03	
167	4.677351e+01	-2.46654e-03,	-2.43014e-03	
168	4.786301e+01	-2.52211e-03,	-2.43709e-03	
169	4.897788e+01	-2.57798e-03,	-2.44279e-03	
170	5.011872e+01	-2.63408e-03,	-2.44722e-03	

Index   frequency       v1#branch                       
--------------------------------------------------------------------------------
171	5.128614e+01	-2.69037e-03,	-2.45036e-03	
172	5.248075e+01	-2.74677e-03,	-2.45221e-03	
173	5.370318e+01	-2.80323e-03,	-2.45276e-03	
174	5.495409e+01	-2.85969e-03,	-2.45201e-03	
175	5.623413e+01	-2.91609e-03,	-2.44996e-03	
176	5.754399e+01	-2.97237e-03,	-2.44662e-03	
177	5.888437e+01	-3.02847e-03,	-2.44200e-03	
178	6.025596e+01	-3.08434e-03,	-2.43610e-03	
179	6.165950e+01	-3.13991e-03,	-2.42895e-03	
180	6.309573e+01	-3.19513e-03,	-2.42055e-03	
181	6.456542e+01	-3.24994e-03,	-2.41094e-03	
182	6.606934e+01	-3.30430e-03,	-2.40013e-03	
183	6.760830e+01	-3.35815e-03,	-2.38816e-03	
184	6.918310e+01	-3.41144e-03,	-2.37505e-03	
185	7.079458e+01	-3.46412e-03,	-2.36084e-03	
186	7.244360e+01	-3.51615e-03,	-2.34556e-03	
187	7.413102e+01	-3.56749e-03,	-2.32924e-03	
188	7.585776e+01	-3.61810e-03,	-2.31193e-03	
189	7.762471e+01	-3.66794e-03,	-2.29366e-03	
190	7.943282e+01	-3.71698e-03,	-2.27448e-03	
191	8.128305e+01	-3.76519e-03,	-2.25442e-03	
192	8.317638e+01	-3.81253e-03,	-2.23354e-03	
193	8.511380e+01	-3.85898e-03,	-2.21187e-03	
194	8.709636e+01	-3.90452e-03,	-2.18946e-03	
195	8.912509e+01	-3.94912e-03,	-2.16636e-03	
196	9.120108e+01	-3.99278e-03,	-2.14261e-03	
197	9.332543e+01	-4.03547e-03,	-2.11826e-03	
198	9.549926e+01	-4.07719e-03,	-2.09335e-03	
199	9.772372e+01	-4.11792e-03,	-2.06793e-03	
200	1.000000e+02	-4.15766e-03,	-2.04204e-03	
201	1.023293e+02	-4.19640e-03,	-2.01573e-03	
202	1.047129e+02	-4.23413e-03,	-1.98904e-03	
203	1.071519e+02	-4.27087e-03,	-1.96201e-03	
204	1.096478e+02	-4.30661e-03,	-1.93468e-03	
205	1.122018e+02	-4.34135e-03,	-1.90710e-03	
206	1.148154e+02	-4.37511e-03,	-1.87930e-03	
207	1.174898e+02	-4.40788e-03,	-1.85132e-03	
208	1.202264e+02	-4.43968e-03,	-1.82319e-03	
209	1.230269e+02	-4.47052e-03,	-1.79496e-03	
210	1.258925e+02	-4.50041e-03,	-1.76666e-03	
211	1.288250e+02	-4.52936e-03,	-1.73831e-03	
212	1.318257e+02	-4.55738e-03,	-1.70996e-03	
213	1.348963e+02	-4.58450e-03,	-1.68162e-03	
214	1.380384e+02	-4.61073e-03,	-1.65333e-03	
215	1.412538e+02	-4.63608e-03,	-1.62512e-03	
216	1.445440e+02	-4.66057e-03,	-1.59700e-03	
217	1.479108e+02	-4.68422e-03,	-1.56901e-03	
218	1.513561e+02	-4.70705e-03,	-1.54116e-03	
219	1.548817e+02	-4.72908e-03,	-1.51348e-03	
220	1.584893e+02	-4.75033e-03,	-1.48598e-03	
221	1.621810e+02	-4.77082e-03,	-1.45869e-03	
222	1.659587e+02	-4.79056e-03,	-1.43162e-03	
223	1.698244e+02	-4.80958e-03,	-1.40479e-03	
224	1.737801e+02	-4.82789e-03,	-1.37820e-03	
225	1.778279e+02	-4.84552e-03,	-1.35188e-03	
226	1.819701e+02	-4.86249e-03,	-1.32584e-03	
227	1.862087e+02	-4.87882e-03,	-1.30008e-03	
228	1.905461e+02	-4.89452e-03,	-1.27462e-03	

Index   frequency       v1#branch                       
--------------------------------------------------------------------------------
229	1.949845e+02	-4.90961e-03,	-1.24946e-03	
230	1.995262e+02	-4.92412e-03,	-1.22462e-03	
231	2.041738e+02	-4.93807e-03,	-1.20010e-03	
232	2.089296e+02	-4.95146e-03,	-1.17590e-03	
233	2.137962e+02	-4.96433e-03,	-1.15204e-03	
234	2.187762e+02	-4.97668e-03,	-1.12851e-03	
235	2.238721e+02	-4.98854e-03,	-1.10532e-03	
236	2.290868e+02	-4.99993e-03,	-1.08248e-03	
237	2.344229e+02	-5.01085e-03,	-1.05998e-03	
238	2.398833e+02	-5.02133e-03,	-1.03783e-03	
239	2.454709e+02	-5.03138e-03,	-1.01603e-03	
240	2.511886e+02	-5.04102e-03,	-9.94576e-04	
241	2.570396e+02	-5.05026e-03,	-9.73473e-04	
242	2.630268e+02	-5.05912e-03,	-9.52719e-04	
243	2.691535e+02	-5.06762e-03,	-9.32314e-04	
244	2.754229e+02	-5.07576e-03,	-9.12256e-04	
245	2.818383e+02	-5.08356e-03,	-8.92543e-04	
246	2.884032e+02	-5.09103e-03,	-8.73175e-04	
247	2.951209e+02	-5.09819e-03,	-8.54149e-04	
248	3.019952e+02	-5.10504e-03,	-8.35461e-04	
249	3.090295e+02	-5.11161e-03,	-8.17110e-04	
250	3.162278e+02	-5.11790e-03,	-7.99093e-04	
251	3.235937e+02	-5.12392e-03,	-7.81405e-04	
252	3.311311e+02	-5.12968e-03,	-7.64045e-04	
253	3.388442e+02	-5.13520e-03,	-7.47007e-04	
254	3.467369e+02	-5.14048e-03,	-7.30288e-04	
255	3.548134e+02	-5.14553e-03,	-7.13885e-04	
256	3.630781e+02	-5.15037e-03,	-6.97793e-04	
257	3.715352e+02	-5.15499e-03,	-6.82007e-04	
258	3.801894e+02	-5.15942e-03,	-6.66525e-04	
259	3.890451e+02	-5.16366e-03,	-6.51340e-04	
260	3.981072e+02	-5.16771e-03,	-6.36449e-04	
261	4.073803e+02	-5.17158e-03,	-6.21847e-04	
262	4.168694e+02	-5.17529e-03,	-6.07530e-04	
263	4.265795e+02	-5.17883e-03,	-5.93492e-04	
264	4.365158e+02	-5.18222e-03,	-5.79729e-04	
265	4.466836e+02	-5.18547e-03,	-5.66237e-04	
266	4.570882e+02	-5.18857e-03,	-5.53010e-04	
267	4.677351e+02	-5.19153e-03,	-5.40045e-04	
268	4.786301e+02	-5.19436e-03,	-5.27335e-04	
269	4.897788e+02	-5.19707e-03,	-5.14876e-04	
270	5.011872e+02	-5.19966e-03,	-5.02664e-04	
271	5.128614e+02	-5.20214e-03,	-4.90694e-04	
272	5.248075e+02	-5.20450e-03,	-4.78961e-04	
273	5.370318e+02	-5.20677e-03,	-4.67460e-04	
274	5.495409e+02	-5.20893e-03,	-4.56187e-04	
275	5.623413e+02	-5.21099e-03,	-4.45137e-04	
276	5.754399e+02	-5.21297e-03,	-4.34306e-04	
277	5.888437e+02	-5.21486e-03,	-4.23688e-04	
278	6.025596e+02	-5.21666e-03,	-4.13279e-04	
279	6.165950e+02	-5.21838e-03,	-4.03075e-04	
280	6.309573e+02	-5.22003e-03,	-3.93072e-04	
281	6.456542e+02	-5.22160e-03,	-3.83264e-04	
282	6.606934e+02	-5.22310e-03,	-3.73647e-04	
283	6.760830e+02	-5.22454e-03,	-3.64218e-04	
284	6.918310e+02	-5.22591e-03,	-3.54972e-04	
285	7.079458e+02	-5.22722e-03,	-3.45905e-04	
286	7.244360e+02	-5.22847e-03,	-3.37011e-04	

Index   frequency       v1#branch                       
--------------------------------------------------------------------------------
287	7.413102e+02	-5.22966e-03,	-3.28289e-04	
288	7.585776e+02	-5.23080e-03,	-3.19732e-04	
289	7.762471e+02	-5.23189e-03,	-3.11338e-04	
290	7.943282e+02	-5.23293e-03,	-3.03102e-04	
291	8.128305e+02	-5.23393e-03,	-2.95021e-04	
292	8.317638e+02	-5.23488e-03,	-2.87089e-04	
293	8.511380e+02	-5.23578e-03,	-2.79305e-04	
294	8.709636e+02	-5.23665e-03,	-2.71664e-04	
295	8.912509e+02	-5.23747e-03,	-2.64161e-04	
296	9.120108e+02	-5.23826e-03,	-2.56795e-04	
297	9.332543e+02	-5.23901e-03,	-2.49560e-04	
298	9.549926e+02	-5.23973e-03,	-2.42454e-04	
299	9.772372e+02	-5.24042e-03,	-2.35472e-04	
300	1.000000e+03	-5.24107e-03,	-2.28612e-04	
301	1.023293e+03	-5.24169e-03,	-2.21871e-04	
302	1.047129e+03	-5.24229e-03,	-2.15243e-04	
303	1.071519e+03	-5.24285e-03,	-2.08727e-04	
304	1.096478e+03	-5.24339e-03,	-2.02319e-04	
305	1.122018e+03	-5.24391e-03,	-1.96016e-04	
306	1.148154e+03	-5.24440e-03,	-1.89815e-04	
307	1.174898e+03	-5.24487e-03,	-1.83712e-04	
308	1.202264e+03	-5.24531e-03,	-1.77705e-04	
309	1.230269e+03	-5.24574e-03,	-1.71790e-04	
310	1.258925e+03	-5.24614e-03,	-1.65964e-04	
311	1.288250e+03	-5.24653e-03,	-1.60225e-04	
312	1.318257e+03	-5.24689e-03,	-1.54570e-04	
313	1.348963e+03	-5.24724e-03,	-1.48994e-04	
314	1.380384e+03	-5.24757e-03,	-1.43497e-04	
315	1.412538e+03	-5.24789e-03,	-1.38074e-04	
316	1.445440e+03	-5.24819e-03,	-1.32724e-04	
317	1.479108e+03	-5.24847e-03,	-1.27443e-04	
318	1.513561e+03	-5.24874e-03,	-1.22228e-04	
319	1.548817e+03	-5.24899e-03,	-1.17077e-04	
320	1.584893e+03	-5.24923e-03,	-1.11988e-04	
321	1.621810e+03	-5.24946e-03,	-1.06957e-04	
322	1.659587e+03	-5.24968e-03,	-1.01982e-04	
323	1.698244e+03	-5.24988e-03,	-9.70608e-05	
324	1.737801e+03	-5.25008e-03,	-9.21902e-05	
325	1.778279e+03	-5.25026e-03,	-8.73678e-05	
326	1.819701e+03	-5.25043e-03,	-8.25913e-05	
327	1.862087e+03	-5.25059e-03,	-7.78580e-05	
328	1.905461e+03	-5.25074e-03,	-7.31656e-05	
329	1.949845e+03	-5.25088e-03,	-6.85115e-05	
330	1.995262e+03	-5.25101e-03,	-6.38933e-05	
331	2.041738e+03	-5.25113e-03,	-5.93087e-05	
332	2.089296e+03	-5.25124e-03,	-5.47551e-05	
333	2.137962e+03	-5.25134e-03,	-5.02303e-05	
334	2.187762e+03	-5.25144e-03,	-4.57319e-05	
335	2.238721e+03	-5.25152e-03,	-4.12574e-05	
336	2.290868e+03	-5.25160e-03,	-3.68046e-05	
337	2.344229e+03	-5.25167e-03,	-3.23711e-05	
338	2.398833e+03	-5.25173e-03,	-2.79546e-05	
339	2.454709e+03	-5.25179e-03,	-2.35528e-05	
340	2.511886e+03	-5.25183e-03,	-1.91633e-05	
341	2.570396e+03	-5.25187e-03,	-1.47838e-05	
342	2.630268e+03	-5.25191e-03,	-1.04121e-05	
343	2.691535e+03	-5.25193e-03,	-6.04579e-06	
344	2.754229e+03	-5.25195e-03,	-1.68265e-06	

Index   frequency       v1#branch                       
--------------------------------------------------------------------------------
345	2.818383e+03	-5.25196e-03,	2.679639e-06	
346	2.884032e+03	-5.25196e-03,	7.043377e-06	
347	2.951209e+03	-5.25196e-03,	1.141086e-05	
348	3.019952e+03	-5.25194e-03,	1.578438e-05	
349	3.090295e+03	-5.25193e-03,	2.016624e-05	
350	3.162278e+03	-5.25190e-03,	2.455875e-05	
351	3.235937e+03	-5.25187e-03,	2.896421e-05	
352	3.311311e+03	-5.25183e-03,	3.338495e-05	
353	3.388442e+03	-5.25178e-03,	3.782328e-05	
354	3.467369e+03	-5.25172e-03,	4.228155e-05	
355	3.548134e+03	-5.25166e-03,	4.676209e-05	
356	3.630781e+03	-5.25158e-03,	5.126727e-05	
357	3.715352e+03	-5.25150e-03,	5.579944e-05	
358	3.801894e+03	-5.25142e-03,	6.036099e-05	
359	3.890451e+03	-5.25132e-03,	6.495431e-05	
360	3.981072e+03	-5.25122e-03,	6.958182e-05	
361	4.073803e+03	-5.25110e-03,	7.424594e-05	
362	4.168694e+03	-5.25098e-03,	7.894911e-05	
363	4.265795e+03	-5.25085e-03,	8.369381e-05	
364	4.365158e+03	-5.25070e-03,	8.848252e-05	
365	4.466836e+03	-5.25055e-03,	9.331774e-05	
366	4.570882e+03	-5.25039e-03,	9.820201e-05	
367	4.677351e+03	-5.25022e-03,	1.031379e-04	
368	4.786301e+03	-5.25003e-03,	1.081279e-04	
369	4.897788e+03	-5.24984e-03,	1.131748e-04	
370	5.011872e+03	-5.24963e-03,	1.182810e-04	
371	5.128614e+03	-5.24942e-03,	1.234493e-04	
372	5.248075e+03	-5.24918e-03,	1.286824e-04	
373	5.370318e+03	-5.24894e-03,	1.339830e-04	
374	5.495409e+03	-5.24868e-03,	1.393538e-04	
375	5.623413e+03	-5.24841e-03,	1.447977e-04	
376	5.754399e+03	-5.24812e-03,	1.503174e-04	
377	5.888437e+03	-5.24782e-03,	1.559158e-04	
378	6.025596e+03	-5.24750e-03,	1.615959e-04	
379	6.165950e+03	-5.24717e-03,	1.673605e-04	
380	6.309573e+03	-5.24682e-03,	1.732126e-04	
381	6.456542e+03	-5.24645e-03,	1.791552e-04	
382	6.606934e+03	-5.24606e-03,	1.851914e-04	
383	6.760830e+03	-5.24565e-03,	1.913243e-04	
384	6.918310e+03	-5.24522e-03,	1.975571e-04	
385	7.079458e+03	-5.24477e-03,	2.038929e-04	
386	7.244360e+03	-5.24429e-03,	2.103349e-04	
387	7.413102e+03	-5.24380e-03,	2.168864e-04	
388	7.585776e+03	-5.24328e-03,	2.235508e-04	
389	7.762471e+03	-5.24273e-03,	2.303315e-04	
390	7.943282e+03	-5.24216e-03,	2.372319e-04	
391	8.128305e+03	-5.24156e-03,	2.442554e-04	
392	8.317638e+03	-5.24093e-03,	2.514056e-04	
393	8.511380e+03	-5.24027e-03,	2.586861e-04	
394	8.709636e+03	-5.23957e-03,	2.661005e-04	
395	8.912509e+03	-5.23885e-03,	2.736526e-04	
396	9.120108e+03	-5.23809e-03,	2.813461e-04	
397	9.332543e+03	-5.23729e-03,	2.891848e-04	
398	9.549926e+03	-5.23646e-03,	2.971725e-04	
399	9.772372e+03	-5.23558e-03,	3.053133e-04	
400	1.000000e+04	-5.23467e-03,	3.136111e-04	
401	1.023293e+04	-5.23371e-03,	3.220700e-04	
402	1.047129e+04	-5.23270e-03,	3.306940e-04	

Index   frequency       v1#branch                       
--------------------------------------------------------------------------------
403	1.071519e+04	-5.23165e-03,	3.394874e-04	
404	1.096478e+04	-5.23055e-03,	3.484544e-04	
405	1.122018e+04	-5.22940e-03,	3.575993e-04	
406	1.148154e+04	-5.22819e-03,	3.669264e-04	
407	1.174898e+04	-5.22692e-03,	3.764402e-04	
408	1.202264e+04	-5.22560e-03,	3.861452e-04	
409	1.230269e+04	-5.22421e-03,	3.960459e-04	
410	1.258925e+04	-5.22276e-03,	4.061469e-04	
411	1.288250e+04	-5.22124e-03,	4.164529e-04	
412	1.318257e+04	-5.21965e-03,	4.269686e-04	
413	1.348963e+04	-5.21798e-03,	4.376989e-04	
414	1.380384e+04	-5.21624e-03,	4.486485e-04	
415	1.412538e+04	-5.21442e-03,	4.598224e-04	
